# MHz S RI R 50 
! S-Parameters data 
! Freq   reS11   imS11   reS21   imS21   reS12   imS12   reS22   imS22 
0.1000000000           0.6613898629           0.2090807665           0.3409992202           -0.2167273803          0.3381874872           -0.2259733909          0.6526533278           0.2270124649           
0.5997500000           0.7553226790           0.0727542765           0.2451994460           -0.0820655338          0.2451006853           -0.0882088871          0.7498754581           0.0913176200           
1.0995000000           0.7709179699           0.0339916912           0.2277585105           -0.0439046242          0.2280670101           -0.0494447170          0.7667826186           0.0523424310           
1.5992500000           0.7778733797           0.0214220988           0.2203336805           -0.0323347446          0.2210577493           -0.0375704464          0.7740677215           0.0395661700           
2.0990000000           0.7811848516           0.0139384962           0.2163792464           -0.0256397206          0.2172900529           -0.0306918609          0.7792382408           0.0321763252           
2.5987500000           0.7839517644           0.0085411404           0.2136543537           -0.0210635492          0.2145163906           -0.0261112162          0.7819563872           0.0267660391           
3.0985000000           0.7853330132           0.0045713827           0.2120751630           -0.0178173975          0.2132905129           -0.0226781912          0.7833534601           0.0225964861           
3.5982500000           0.7875730567           0.0019374090           0.2107011961           -0.0152788494          0.2117718909           -0.0201960245          0.7843149213           0.0188612319           
4.0980000000           0.7883779870           -0.0013453488          0.2100840773           -0.0131848116          0.2112346976           -0.0181157654          0.7859500048           0.0163349115           
4.5977500000           0.7887160879           -0.0040836942          0.2093802541           -0.0117232139          0.2102788376           -0.0166261500          0.7852805990           0.0127198016           
5.0975000000           0.7892857059           -0.0058105002          0.2089850348           -0.0103339434          0.2102174565           -0.0149987850          0.7868857074           0.0114565977           
5.5972500000           0.7898995910           -0.0072211139          0.2090962317           -0.0090434796          0.2099699218           -0.0138217000          0.7882044984           0.0097383988           
6.0970000000           0.7897997814           -0.0088697790          0.2084610623           -0.0080920935          0.2095103257           -0.0129074446          0.7868337263           0.0072116998           
6.5967500000           0.7910740124           -0.0105237439          0.2081351218           -0.0072537376          0.2091400779           -0.0119921954          0.7878377061           0.0060595888           
7.0965000000           0.7898071238           -0.0120431935          0.2079464760           -0.0064186274          0.2092736679           -0.0111594113          0.7873689750           0.0041562848           
7.5962500000           0.7902424434           -0.0133081424          0.2080222541           -0.0057241971          0.2091841230           -0.0105212544          0.7888907572           0.0028910213           
8.0960000000           0.7900646658           -0.0144653857          0.2077114129           -0.0051387452          0.2090733163           -0.0099551343          0.7872296499           0.0010921128           
8.5957500000           0.7910313048           -0.0155655373          0.2077419009           -0.0048904836          0.2091273389           -0.0095830753          0.7881245814           -0.0002502421          
9.0955000000           0.7900273138           -0.0168271036          0.2076530023           -0.0042387165          0.2090122669           -0.0089806079          0.7880779377           -0.0015033900          
9.5952500000           0.7907653520           -0.0180660642          0.2077812500           -0.0038862112          0.2089761234           -0.0087293830          0.7874683886           -0.0028703156          
10.0950000000          0.7902982237           -0.0187553112          0.2076639376           -0.0034788423          0.2089036848           -0.0080945751          0.7883250952           -0.0045606300          
10.5947500000          0.7906662258           -0.0195530915          0.2078757986           -0.0031366890          0.2090959005           -0.0078797066          0.7885879629           -0.0056464937          
11.0945000000          0.7907018083           -0.0203227470          0.2077310201           -0.0026341968          0.2089318876           -0.0073051467          0.7886222142           -0.0071092678          
11.5942500000          0.7909275773           -0.0216551943          0.2073939669           -0.0023604079          0.2091168130           -0.0070335094          0.7884264452           -0.0074994778          
12.0940000000          0.7907768560           -0.0227217540          0.2075405648           -0.0020800083          0.2089598821           -0.0065122426          0.7880911170           -0.0092700854          
12.5937500000          0.7898783374           -0.0235221897          0.2074024085           -0.0015376060          0.2093779443           -0.0066864832          0.7881590886           -0.0097656211          
13.0935000000          0.7897817960           -0.0240264400          0.2075644539           -0.0014652276          0.2089629374           -0.0060870993          0.7882987825           -0.0111423505          
13.5932500000          0.7903881357           -0.0252241517          0.2074316434           -0.0011846403          0.2091006826           -0.0059232537          0.7882063250           -0.0123309998          
14.0930000000          0.7907589642           -0.0262514324          0.2078028323           -0.0011068076          0.2091502932           -0.0054837685          0.7873984853           -0.0132751183          
14.5927500000          0.7905068411           -0.0271833282          0.2077811964           -0.0008873941          0.2090883924           -0.0055322713          0.7877274686           -0.0136560254          
15.0925000000          0.7909421604           -0.0283835634          0.2075433837           -0.0005062277          0.2093764722           -0.0052348187          0.7866455987           -0.0153631667          
15.5922500000          0.7885581674           -0.0282100128          0.2078834254           -0.0005871703          0.2092479798           -0.0051396355          0.7881871606           -0.0166261963          
16.0920000000          0.7895477454           -0.0292628815          0.2079596187           -0.0001116089          0.2093876547           -0.0047460214          0.7876972771           -0.0173683351          
16.5917500000          0.7899953026           -0.0301134116          0.2076538181           -0.0000656901          0.2095300484           -0.0048465484          0.7880560648           -0.0185435100          
17.0915000000          0.7894436273           -0.0309296874          0.2077272595           0.0001963173           0.2092881668           -0.0045962086          0.7867050470           -0.0190170728          
17.5912500000          0.7894448065           -0.0317412086          0.2077772528           0.0004004780           0.2093386966           -0.0042952922          0.7877014884           -0.0196865130          
18.0910000000          0.7896094063           -0.0330539223          0.2079394378           0.0004551969           0.2096284520           -0.0042596243          0.7878762775           -0.0207804719          
18.5907500000          0.7892472355           -0.0327480580          0.2078498704           0.0007517990           0.2092773672           -0.0041978670          0.7872317027           -0.0224278175          
19.0905000000          0.7893427057           -0.0339250950          0.2079036496           0.0010810944           0.2093740550           -0.0038908465          0.7872046654           -0.0231797884          
19.5902500000          0.7891178912           -0.0350698194          0.2077272472           0.0008494743           0.2093796972           -0.0037997302          0.7864893776           -0.0237072313          
20.0900000000          0.7892540055           -0.0354719333          0.2079009916           0.0011863901           0.2094390199           -0.0034381751          0.7862621156           -0.0244618132          
20.5897500000          0.7893095042           -0.0356525809          0.2079719602           0.0010645458           0.2100945976           -0.0036448085          0.7879449908           -0.0261915035          
21.0895000000          0.7889075567           -0.0366771749          0.2082192121           0.0013227038           0.2096218658           -0.0036472736          0.7865389033           -0.0269244577          
21.5892500000          0.7902264448           -0.0381239311          0.2082141653           0.0012364330           0.2097692952           -0.0035871198          0.7867775467           -0.0282351096          
22.0890000000          0.7887840387           -0.0387721152          0.2082147962           0.0013544411           0.2096323895           -0.0034458571          0.7861459821           -0.0284552531          
22.5887500000          0.7885011251           -0.0394151606          0.2083238264           0.0015296793           0.2098536805           -0.0034521727          0.7863238980           -0.0295884305          
23.0885000000          0.7894401722           -0.0394438235          0.2084558469           0.0015465334           0.2097765694           -0.0033876439          0.7863304040           -0.0303899285          
23.5882500000          0.7891041694           -0.0392699051          0.2083411218           0.0019080355           0.2098659747           -0.0029476688          0.7862276400           -0.0308032754          
24.0880000000          0.7884652257           -0.0420205191          0.2084375635           0.0015806425           0.2100606052           -0.0029430021          0.7869725701           -0.0321582676          
24.5877500000          0.7888037587           -0.0408190899          0.2085592765           0.0018318650           0.2103431524           -0.0032188355          0.7869693731           -0.0326108264          
25.0875000000          0.7882384570           -0.0417666887          0.2084771934           0.0019950248           0.2100857164           -0.0027857670          0.7856372249           -0.0329483626          
25.5872500000          0.7888919934           -0.0419995807          0.2089424121           0.0021187628           0.2100403552           -0.0027308208          0.7864921204           -0.0342110332          
26.0870000000          0.7891801574           -0.0439977933          0.2090935682           0.0021695709           0.2103709171           -0.0027834167          0.7862386116           -0.0348810078          
26.5867500000          0.7889381461           -0.0443415845          0.2093618460           0.0022354632           0.2102524741           -0.0025029205          0.7866368852           -0.0357722854          
27.0865000000          0.7897586020           -0.0448763658          0.2094639791           0.0022510217           0.2104118986           -0.0025369460          0.7860966562           -0.0370681113          
27.5862500000          0.7895306553           -0.0454361055          0.2095522930           0.0022271308           0.2106104487           -0.0023990946          0.7862979291           -0.0373973789          
28.0860000000          0.7884363554           -0.0456621345          0.2094398252           0.0023102318           0.2106630292           -0.0025654820          0.7866533646           -0.0385320870          
28.5857500000          0.7884447362           -0.0463633525          0.2093518497           0.0023836139           0.2106955041           -0.0026884317          0.7878242382           -0.0397253735          
29.0855000000          0.7889002420           -0.0477480127          0.2093133871           0.0024821888           0.2110459801           -0.0027118552          0.7868217283           -0.0407360794          
29.5852500000          0.7903823519           -0.0486770907          0.2099722830           0.0021736839           0.2112096513           -0.0025881838          0.7880308814           -0.0425212050          
30.0850000000          0.7878996841           -0.0483847229          0.2097420543           0.0023108609           0.2109528933           -0.0025066671          0.7869535635           -0.0433757924          
30.5847500000          0.7896957742           -0.0498077463          0.2097478679           0.0023053916           0.2111797116           -0.0025525909          0.7876376731           -0.0444272478          
31.0845000000          0.7879319124           -0.0507529593          0.2099726198           0.0020588465           0.2109159131           -0.0025501533          0.7873594825           -0.0457020947          
31.5842500000          0.7896853063           -0.0517873886          0.2096991085           0.0020791547           0.2114318793           -0.0027031479          0.7886055098           -0.0471015578          
32.0840000000          0.7897966355           -0.0528359977          0.2095569373           0.0021758739           0.2113781959           -0.0026725956          0.7878813966           -0.0478332770          
32.5837500000          0.7882045861           -0.0530575965          0.2099986477           0.0021559637           0.2108230944           -0.0025160633          0.7864007436           -0.0488332179          
33.0835000000          0.7892007923           -0.0540878899          0.2095701030           0.0021164179           0.2115132361           -0.0026001914          0.7870789085           -0.0500499375          
33.5832500000          0.7896815324           -0.0549274578          0.2097006259           0.0021139056           0.2108481156           -0.0025050462          0.7850591478           -0.0506863489          
34.0830000000          0.7876185591           -0.0553852141          0.2095557523           0.0021503136           0.2111945509           -0.0025404123          0.7860824567           -0.0518275330          
34.5827500000          0.7880935076           -0.0563218145          0.2094343687           0.0021699954           0.2111949679           -0.0024779212          0.7856049414           -0.0528211129          
35.0825000000          0.7879630712           -0.0569187815          0.2095587192           0.0021791384           0.2110243187           -0.0024764016          0.7852844443           -0.0537014066          
35.5822500000          0.7886555019           -0.0577872629          0.2095837157           0.0022090499           0.2112856036           -0.0024181067          0.7854306264           -0.0545733995          
36.0820000000          0.7870481785           -0.0582606535          0.2093657601           0.0022584062           0.2109490760           -0.0023779439          0.7851402010           -0.0555378488          
36.5817500000          0.7881867352           -0.0589683863          0.2096595622           0.0022418475           0.2114226955           -0.0023458324          0.7836517942           -0.0563211473          
37.0815000000          0.7876529216           -0.0598497496          0.2098214697           0.0022935358           0.2113289730           -0.0024164754          0.7861164459           -0.0572505338          
37.5812500000          0.7864864210           -0.0603859963          0.2099739099           0.0023735836           0.2114654743           -0.0023543372          0.7847286295           -0.0580326878          
38.0810000000          0.7874344432           -0.0611829997          0.2097911450           0.0023603283           0.2110446015           -0.0023403883          0.7830113498           -0.0588980487          
38.5807500000          0.7875628721           -0.0615598544          0.2097878328           0.0023432428           0.2110962768           -0.0022897991          0.7831794630           -0.0595448856          
39.0805000000          0.7859325325           -0.0624373605          0.2101261875           0.0024352779           0.2115364362           -0.0021847147          0.7837389530           -0.0603937638          
39.5802500000          0.7860117076           -0.0634180377          0.2094486788           0.0023972352           0.2109518730           -0.0022825842          0.7829380361           -0.0612408989          
40.0800000000          0.7868778383           -0.0638161691          0.2095302309           0.0025346354           0.2115500254           -0.0021664157          0.7834677829           -0.0622825039          
40.5797500000          0.7866021519           -0.0641538655          0.2096612728           0.0026496301           0.2113069069           -0.0020693393          0.7822644492           -0.0627587422          
41.0795000000          0.7847336771           -0.0653806939          0.2098965943           0.0025236747           0.2115694816           -0.0020394183          0.7832081790           -0.0639360704          
41.5792500000          0.7868788200           -0.0656206779          0.2098798023           0.0026180756           0.2115050757           -0.0021457997          0.7828995307           -0.0650858349          
42.0790000000          0.7856081486           -0.0666920474          0.2097443794           0.0025816330           0.2110129085           -0.0020876805          0.7814559932           -0.0654902034          
42.5787500000          0.7847208078           -0.0670003501          0.2099857932           0.0025641942           0.2114117132           -0.0021615608          0.7826756283           -0.0663638154          
43.0785000000          0.7864074192           -0.0677683945          0.2098378818           0.0025725287           0.2117789902           -0.0020644181          0.7820556778           -0.0669328842          
43.5782500000          0.7856481376           -0.0682798471          0.2098978549           0.0025496356           0.2114682312           -0.0019746068          0.7811639509           -0.0680876262          
44.0780000000          0.7850240417           -0.0687886532          0.2099773229           0.0026381236           0.2110254348           -0.0021772405          0.7812508741           -0.0691327640          
44.5777500000          0.7853230762           -0.0701068022          0.2098804869           0.0025143735           0.2111887796           -0.0021120228          0.7809384702           -0.0697267923          
45.0775000000          0.7850794123           -0.0702735766          0.2098719338           0.0027825440           0.2116591656           -0.0019377249          0.7816764747           -0.0697199030          
45.5772500000          0.7845758843           -0.0706683480          0.2099183940           0.0026074569           0.2115657169           -0.0018977142          0.7812358502           -0.0712156533          
46.0770000000          0.7851395304           -0.0716998903          0.2097532319           0.0026641989           0.2114295040           -0.0021154041          0.7809732697           -0.0718953406          
46.5767500000          0.7848741279           -0.0721186638          0.2097469011           0.0027245413           0.2114009042           -0.0019304224          0.7805490938           -0.0730780975          
47.0765000000          0.7852101526           -0.0726543395          0.2100484515           0.0027701303           0.2115946614           -0.0016792501          0.7803023124           -0.0727225263          
