# MHz S RI R 50 
! S-Parameters data 
! Freq   reS11   imS11   reS21   imS21   reS12   imS12   reS22   imS22 
0.1000000000           -0.3171695051          0.2586194546           -0.6482503280          -0.1923945190          -0.6500584924          -0.1810761346          -0.3325150006          0.2513381479           
0.5997500000           -0.1826682017          0.1669339700           -0.6974977819          -0.0086028928          -0.6973411863          0.0036968875           -0.1959606931          0.1640764882           
1.0995000000           -0.1084529120          0.1504050825           -0.6592903615          0.0528993990           -0.6575904887          0.0650757086           -0.1200818066          0.1502911267           
1.5992500000           -0.0649157078          0.1465398354           -0.6304969435          0.0754145958           -0.6287779602          0.0867776259           -0.0755693774          0.1472120888           
2.0990000000           -0.0323226817          0.1417563535           -0.6047979767          0.0859412905           -0.6031926307          0.0969308565           -0.0425392479          0.1434953461           
2.5987500000           -0.0071417232          0.1355301609           -0.5845933704          0.0899217078           -0.5830467303          0.1007856067           -0.0167177185          0.1377504624           
3.0985000000           0.0126033374           0.1279085420           -0.5674838113          0.0904218282           -0.5659763234          0.1006482846           0.0035898909           0.1305639618           
3.5982500000           0.0281968856           0.1207225972           -0.5537739323          0.0891632228           -0.5517788987          0.0991537449           0.0199217953           0.1235921644           
4.0980000000           0.0406598217           0.1127612917           -0.5423528078          0.0867249925           -0.5413497362          0.0963672178           0.0325719105           0.1158355337           
4.5977500000           0.0505333562           0.1055251719           -0.5331288369          0.0835839560           -0.5324950516          0.0933337628           0.0430087580           0.1085476781           
5.0975000000           0.0582729671           0.0986632695           -0.5257239172          0.0803437068           -0.5251049999          0.0898909584           0.0512089199           0.1016943599           
5.5972500000           0.0647893783           0.0926576860           -0.5203178516          0.0776211873           -0.5192537130          0.0871744381           0.0580454950           0.0957419912           
6.0970000000           0.0698722046           0.0865215500           -0.5151342556          0.0742959052           -0.5146862990          0.0838238184           0.0634838246           0.0894891847           
6.5967500000           0.0743253365           0.0813092010           -0.5109635477          0.0711463251           -0.5105001092          0.0805730686           0.0681112884           0.0841071245           
7.0965000000           0.0776774466           0.0762224114           -0.5078147917          0.0679724236           -0.5070537845          0.0780089707           0.0718829549           0.0791138274           
7.5962500000           0.0805395667           0.0717061524           -0.5054561622          0.0665018986           -0.5046994155          0.0753682375           0.0749517249           0.0744789000           
8.0960000000           0.0829824355           0.0676273173           -0.5026150591          0.0641798688           -0.5024397594          0.0734284779           0.0775279672           0.0703020878           
8.5957500000           0.0851011815           0.0640126149           -0.5005046244          0.0623537439           -0.5006275072          0.0715647651           0.0797303879           0.0665767873           
9.0955000000           0.0867164470           0.0606015194           -0.4993311798          0.0607755561           -0.4987954607          0.0698650192           0.0815298036           0.0629599770           
9.5952500000           0.0880870433           0.0573751785           -0.4974084397          0.0591590850           -0.4969695731          0.0684517254           0.0831433839           0.0598025721           
10.0950000000          0.0891714814           0.0543711960           -0.4968358458          0.0581995103           -0.4959748863          0.0668296431           0.0845732600           0.0566350545           
10.5947500000          0.0902286503           0.0517035764           -0.4958821728          0.0563647120           -0.4950965722          0.0655490080           0.0857070046           0.0537855970           
11.0945000000          0.0909425679           0.0491675324           -0.4942470400          0.0549222875           -0.4941895128          0.0647705728           0.0864181379           0.0510238986           
11.5942500000          0.0917235763           0.0468407423           -0.4932452109          0.0543404066           -0.4934872572          0.0630346893           0.0871996019           0.0487824441           
12.0940000000          0.0922481415           0.0446847251           -0.4930717605          0.0541769600           -0.4922788177          0.0628211456           0.0877454482           0.0463825393           
12.5937500000          0.0926491668           0.0426952256           -0.4927477610          0.0528951569           -0.4926419047          0.0625965501           0.0883391801           0.0442910701           
13.0935000000          0.0929079503           0.0408848595           -0.4921184055          0.0526195608           -0.4921252428          0.0616566909           0.0886298823           0.0423357346           
13.5932500000          0.0931131942           0.0391790680           -0.4916031033          0.0519776364           -0.4915400931          0.0613092241           0.0889684344           0.0405461964           
14.0930000000          0.0933307417           0.0375910922           -0.4918355878          0.0518689770           -0.4910143015          0.0606514996           0.0892168834           0.0387777116           
14.5927500000          0.0934142171           0.0361443950           -0.4910207933          0.0514229942           -0.4907052723          0.0604805103           0.0894463231           0.0372051533           
15.0925000000          0.0935287747           0.0348395409           -0.4908711245          0.0508303539           -0.4911331691          0.0601268054           0.0894736226           0.0356863027           
15.5922500000          0.0934631476           0.0335310353           -0.4912714691          0.0511725424           -0.4908717468          0.0601811569           0.0895509960           0.0343370460           
16.0920000000          0.0934165243           0.0322361674           -0.4912267607          0.0506443291           -0.4902754462          0.0599232911           0.0894629146           0.0330146421           
16.5917500000          0.0933277064           0.0312989915           -0.4902680776          0.0506488729           -0.4907777664          0.0601086247           0.0894322990           0.0318619287           
17.0915000000          0.0932341218           0.0302315352           -0.4904899322          0.0504505214           -0.4909835425          0.0604221704           0.0894251798           0.0307273680           
17.5912500000          0.0931013699           0.0293739821           -0.4902497850          0.0509066314           -0.4905084030          0.0602492004           0.0892143858           0.0296887943           
18.0910000000          0.0930544453           0.0285026325           -0.4916722751          0.0512804993           -0.4908984042          0.0602689691           0.0891167904           0.0287170995           
18.5907500000          0.0928014142           0.0277723873           -0.4911296594          0.0511960534           -0.4906688229          0.0604747685           0.0890035598           0.0277964415           
19.0905000000          0.0924429218           0.0269853331           -0.4910837319          0.0515207586           -0.4903161988          0.0608622731           0.0889558845           0.0270048018           
19.5902500000          0.0922517180           0.0263834392           -0.4906107336          0.0520323269           -0.4901334965          0.0611504171           0.0885981019           0.0260845292           
20.0900000000          0.0922491208           0.0257112493           -0.4913035637          0.0519897596           -0.4902148844          0.0618230180           0.0885001044           0.0254280782           
20.5897500000          0.0920069268           0.0251861672           -0.4908202860          0.0527290117           -0.4911302790          0.0622025056           0.0883996481           0.0248722765           
21.0895000000          0.0917148249           0.0247029292           -0.4910452596          0.0534738781           -0.4905786722          0.0626496433           0.0881594718           0.0241498192           
21.5892500000          0.0914969060           0.0242498869           -0.4914572404          0.0537903140           -0.4906223338          0.0628053061           0.0881090623           0.0235587975           
22.0890000000          0.0912858748           0.0238185242           -0.4905339791          0.0542407350           -0.4909432413          0.0637027406           0.0878501354           0.0229780668           
22.5887500000          0.0911592314           0.0234034701           -0.4912258667          0.0543206489           -0.4912227840          0.0641429770           0.0874876080           0.0225363190           
23.0885000000          0.0909194899           0.0231469144           -0.4910479503          0.0555442375           -0.4910137798          0.0648975333           0.0874850091           0.0220767918           
23.5882500000          0.0905969711           0.0228844183           -0.4919421286          0.0557400636           -0.4912892243          0.0648984909           0.0872011393           0.0216289120           
24.0880000000          0.0903111406           0.0224930632           -0.4916466414          0.0565134775           -0.4915569489          0.0657994922           0.0870331477           0.0212280269           
24.5877500000          0.0901509572           0.0223485961           -0.4911720650          0.0573201539           -0.4917804066          0.0667220678           0.0867668550           0.0208408564           
25.0875000000          0.0898431431           0.0221400056           -0.4913033720          0.0575543978           -0.4915141582          0.0673146376           0.0864421704           0.0204846193           
25.5872500000          0.0896734952           0.0220636759           -0.4918092844          0.0577321958           -0.4914527990          0.0678571739           0.0862819008           0.0202001266           
26.0870000000          0.0895544170           0.0219916362           -0.4924961370          0.0590140194           -0.4915675599          0.0684550814           0.0860421281           0.0199734970           
26.5867500000          0.0894079464           0.0217595402           -0.4924895909          0.0594954731           -0.4912895198          0.0695115551           0.0858924371           0.0197179781           
27.0865000000          0.0892814014           0.0217069065           -0.4921047283          0.0603284657           -0.4913322663          0.0699815503           0.0855801704           0.0195311010           
27.5862500000          0.0891521925           0.0216600022           -0.4929960261          0.0617233878           -0.4924041549          0.0708485411           0.0853559117           0.0193369906           
28.0860000000          0.0890673457           0.0214393917           -0.4934071377          0.0623088263           -0.4925420747          0.0721713916           0.0853273673           0.0192532253           
28.5857500000          0.0887852327           0.0214201378           -0.4931626008          0.0635949537           -0.4921453948          0.0727223260           0.0851022458           0.0190985346           
29.0855000000          0.0887626061           0.0213057549           -0.4926773085          0.0639369296           -0.4925970879          0.0733997137           0.0849072556           0.0189226911           
29.5852500000          0.0884381067           0.0212607046           -0.4925565979          0.0643913150           -0.4924936824          0.0742828348           0.0846824799           0.0188036261           
30.0850000000          0.0883932581           0.0212918544           -0.4942832712          0.0660120779           -0.4931354786          0.0754840375           0.0846671082           0.0187532012           
30.5847500000          0.0882999916           0.0212642148           -0.4929756481          0.0663259774           -0.4920715342          0.0757698393           0.0844112002           0.0186471926           
31.0845000000          0.0879094662           0.0212585986           -0.4940580203          0.0676268237           -0.4921414827          0.0770287796           0.0842941292           0.0185821146           
31.5842500000          0.0878704779           0.0212382209           -0.4930498239          0.0684487341           -0.4923916598          0.0777603930           0.0841363025           0.0184689993           
32.0840000000          0.0877506703           0.0213133856           -0.4936157179          0.0694506176           -0.4924202275          0.0787929896           0.0840749825           0.0184349750           
32.5837500000          0.0874093370           0.0212984877           -0.4928600287          0.0700791930           -0.4917669328          0.0795381721           0.0836556669           0.0183735360           
33.0835000000          0.0873567055           0.0213659289           -0.4945010350          0.0716052853           -0.4921938497          0.0806060159           0.0836382961           0.0183502686           
33.5832500000          0.0873131211           0.0214537491           -0.4936388244          0.0723471176           -0.4931495397          0.0817954869           0.0836264790           0.0183172271           
34.0830000000          0.0870616747           0.0215392488           -0.4935240913          0.0731801504           -0.4923407007          0.0824425981           0.0832821272           0.0182559592           
34.5827500000          0.0867512426           0.0216038936           -0.4930985636          0.0741419883           -0.4921516607          0.0834514868           0.0831982981           0.0182372373           
35.0825000000          0.0867366267           0.0217012062           -0.4938654026          0.0751507645           -0.4926426859          0.0844438816           0.0830124280           0.0182234200           
35.5822500000          0.0866455290           0.0218458128           -0.4941547124          0.0760167479           -0.4927225906          0.0855250539           0.0830338914           0.0182981714           
36.0820000000          0.0864419305           0.0219390133           -0.4938494452          0.0770524632           -0.4920899710          0.0864782770           0.0828517989           0.0182893832           
36.5817500000          0.0862313939           0.0220561331           -0.4934347913          0.0779705784           -0.4926403176          0.0874439237           0.0825416290           0.0182628195           
37.0815000000          0.0863344718           0.0222371563           -0.4924927291          0.0789582927           -0.4918535154          0.0881672691           0.0824343981           0.0182957478           
37.5812500000          0.0861432145           0.0223927382           -0.4929082365          0.0797531371           -0.4928245817          0.0892065810           0.0825126433           0.0184500601           
38.0810000000          0.0860774822           0.0225138374           -0.4937747428          0.0810110465           -0.4920780985          0.0904769608           0.0823139456           0.0184550463           
38.5807500000          0.0858639832           0.0226602789           -0.4918439649          0.0820834663           -0.4914268653          0.0912938361           0.0819551599           0.0185091950           
39.0805000000          0.0859274678           0.0228738106           -0.4927092823          0.0828898933           -0.4911720809          0.0923270837           0.0820430447           0.0186266663           
39.5802500000          0.0858163479           0.0230308528           -0.4920163713          0.0837920163           -0.4911310135          0.0931414933           0.0818092736           0.0186365506           
40.0800000000          0.0857390227           0.0232544858           -0.4913116537          0.0848385353           -0.4917993550          0.0943262332           0.0818657993           0.0188000509           
40.5797500000          0.0855648966           0.0233728528           -0.4918170479          0.0856922741           -0.4909520983          0.0951948770           0.0816288240           0.0188649516           
41.0795000000          0.0854980472           0.0235735503           -0.4922644519          0.0867349509           -0.4909092346          0.0964059544           0.0816190875           0.0190218085           
41.5792500000          0.0853909900           0.0238237464           -0.4924197883          0.0877516392           -0.4910216601          0.0975049073           0.0814915409           0.0190958436           
42.0790000000          0.0853212460           0.0239712368           -0.4924914510          0.0886576591           -0.4910064093          0.0983761097           0.0814829533           0.0192498689           
42.5787500000          0.0853403800           0.0241971539           -0.4924359893          0.0898135210           -0.4907989413          0.0995001384           0.0813865054           0.0193234192           
43.0785000000          0.0853714164           0.0244921124           -0.4921790578          0.0908908881           -0.4912376493          0.1003462252           0.0813801047           0.0195589331           
43.5782500000          0.0851728597           0.0246360040           -0.4919641780          0.0920017299           -0.4907916841          0.1015240492           0.0812894997           0.0196295605           
44.0780000000          0.0851144649           0.0248388141           -0.4915885870          0.0928896086           -0.4901266179          0.1023599537           0.0811628742           0.0197724246           
44.5777500000          0.0851516350           0.0250749294           -0.4923155325          0.0945010876           -0.4901181452          0.1037568212           0.0810908015           0.0198205538           
45.0775000000          0.0850928287           0.0253086594           -0.4909110553          0.0946626532           -0.4910102277          0.1043983873           0.0810257829           0.0200352038           
45.5772500000          0.0849360015           0.0255308983           -0.4902878668          0.0959474575           -0.4898186341          0.1052120182           0.0810259775           0.0201344899           
46.0770000000          0.0851109847           0.0257678026           -0.4918126691          0.0970599966           -0.4898535312          0.1065934453           0.0810127973           0.0203197032           
46.5767500000          0.0849935314           0.0260080438           -0.4902395524          0.0981357521           -0.4897488892          0.1075025193           0.0809281934           0.0204483993           
47.0765000000          0.0849587459           0.0262762054           -0.4906947073          0.0993421730           -0.4896813669          0.1086119676           0.0809012543           0.0206440633           
