# MHz S RI R 50 
! S-Parameters data 
! Freq   reS11   imS11   reS21   imS21   reS12   imS12   reS22   imS22 
0.1000000000           -0.6974868048          0.1137714816           0.4476420379           0.1595633722           0.4442374915           0.1438425428           -0.3213287442          0.2553506764           
0.5997500000           -0.6591740438          0.0464172084           0.5068872388           0.0579154516           0.5053060056           0.0502333348           -0.1840990139          0.1654418642           
1.0995000000           -0.6526574893          0.0303669839           0.5170103464           0.0317799184           0.5163256507           0.0233060338           -0.1080978905          0.1506846898           
1.5992500000           -0.6503491220          0.0261027055           0.5216169616           0.0230770475           0.5211866295           0.0143608279           -0.0632634705          0.1470509679           
2.0990000000           -0.6478613308          0.0241102373           0.5243660370           0.0176935385           0.5231682684           0.0086289089           -0.0301432076          0.1421815225           
2.5987500000           -0.6469864117          0.0228509908           0.5247673477           0.0138598664           0.5243889832           0.0048081034           -0.0046555291          0.1355498633           
3.0985000000           -0.6454210046          0.0226381727           0.5253977660           0.0104716266           0.5250415413           0.0017701126           0.0151129953           0.1277835641           
3.5982500000           -0.6456920296          0.0220707568           0.5267383807           0.0084115205           0.5257603841           -0.0007077646          0.0307234869           0.1202685006           
4.0980000000           -0.6447708734          0.0224632620           0.5271938693           0.0063569413           0.5261772367           -0.0027387579          0.0428062825           0.1122930497           
4.5977500000           -0.6449524053          0.0226122657           0.5271858291           0.0042654285           0.5266188926           -0.0048836220          0.0527040932           0.1048924023           
5.0975000000           -0.6447803100          0.0227325612           0.5272268763           0.0027110096           0.5263431646           -0.0062913749          0.0602426851           0.0979322379           
5.5972500000           -0.6443182821          0.0231784117           0.5275646034           0.0013168653           0.5268953301           -0.0079213335          0.0667016238           0.0922742299           
6.0970000000           -0.6439172659          0.0236794528           0.5280095513           -0.0001425538          0.5269720911           -0.0093792642          0.0717295891           0.0860233656           
6.5967500000           -0.6440416109          0.0241540903           0.5271657225           -0.0016808592          0.5262452083           -0.0106403769          0.0759873563           0.0808014743           
7.0965000000           -0.6439855042          0.0246600192           0.5275129758           -0.0023901547          0.5266712454           -0.0118275529          0.0792705687           0.0758390193           
7.5962500000           -0.6432686607          0.0253666163           0.5278748651           -0.0033219513          0.5266745684           -0.0128726045          0.0820734420           0.0714714580           
8.0960000000           -0.6429153558          0.0258897246           0.5273165096           -0.0051765410          0.5267795714           -0.0139756105          0.0844661414           0.0674777341           
8.5957500000           -0.6429768674          0.0266417716           0.5274669223           -0.0059372835          0.5266979466           -0.0151919161          0.0863829596           0.0638831437           
9.0955000000           -0.6430616908          0.0270568718           0.5274111848           -0.0068995305          0.5265442297           -0.0162825703          0.0881106433           0.0605298407           
9.5952500000           -0.6425720623          0.0271690315           0.5272951062           -0.0078318083          0.5266058668           -0.0175311992          0.0894332907           0.0573833072           
10.0950000000          -0.6426996354          0.0288222685           0.5277035190           -0.0098145372          0.5263780428           -0.0184342808          0.0906222435           0.0543415493           
10.5947500000          -0.6426313041          0.0283260076           0.5272720329           -0.0097477081          0.5263628637           -0.0193790853          0.0916870551           0.0517434152           
11.0945000000          -0.6427159694          0.0293343392           0.5278463159           -0.0110097439          0.5258144956           -0.0199469055          0.0923938748           0.0492979611           
11.5942500000          -0.6428699488          0.0305627999           0.5269234888           -0.0122750954          0.5258467388           -0.0208672167          0.0929346513           0.0470024109           
12.0940000000          -0.6419385424          0.0307812268           0.5263924192           -0.0127865906          0.5262994951           -0.0226316844          0.0933388703           0.0449946828           
12.5937500000          -0.6422598294          0.0317826061           0.5268387929           -0.0137793616          0.5260086948           -0.0233304371          0.0938776008           0.0430076967           
13.0935000000          -0.6421030330          0.0327162759           0.5270317718           -0.0148364447          0.5259016999           -0.0240200775          0.0941136728           0.0411013806           
13.5932500000          -0.6422536983          0.0332849075           0.5266201702           -0.0154941148          0.5257091506           -0.0251176563          0.0944242339           0.0395125984           
14.0930000000          -0.6414242421          0.0339062171           0.5272634490           -0.0168589611          0.5260252222           -0.0259296363          0.0945616781           0.0379535002           
14.5927500000          -0.6421217590          0.0344541619           0.5267351519           -0.0176566156          0.5253133522           -0.0265995842          0.0946437804           0.0364607483           
15.0925000000          -0.6421189073          0.0355890463           0.5265364395           -0.0180897572          0.5254469929           -0.0272931137          0.0947249281           0.0351344365           
15.5922500000          -0.6409621850          0.0366055452           0.5264142243           -0.0195292416          0.5254781752           -0.0283147675          0.0948162033           0.0339403738           
16.0920000000          -0.6410705784          0.0367354057           0.5261095307           -0.0195777239          0.5252729063           -0.0292035934          0.0946501052           0.0327592569           
16.5917500000          -0.6417909788          0.0374804254           0.5260482344           -0.0206488061          0.5251071859           -0.0299893091          0.0945238044           0.0316611398           
17.0915000000          -0.6409128530          0.0377943170           0.5262576994           -0.0214656648          0.5248210278           -0.0309094570          0.0944303682           0.0306980953           
17.5912500000          -0.6412652554          0.0387806971           0.5253461353           -0.0222972176          0.5247425522           -0.0316366026          0.0943393405           0.0297636062           
18.0910000000          -0.6412765495          0.0395735825           0.5253839274           -0.0229536817          0.5254475230           -0.0324053584          0.0941617870           0.0289570185           
18.5907500000          -0.6412143536          0.0403513782           0.5262447031           -0.0239625153          0.5246102883           -0.0331897614          0.0939370356           0.0281423476           
19.0905000000          -0.6410219879          0.0408809331           0.5260672483           -0.0243479422          0.5241272790           -0.0340826073          0.0939689149           0.0274484372           
19.5902500000          -0.6405315393          0.0417741318           0.5247174798           -0.0256922927          0.5253230332           -0.0353081770          0.0935090038           0.0267677756           
20.0900000000          -0.6409798613          0.0421870029           0.5250385082           -0.0260060341          0.5246184278           -0.0355337868          0.0932819043           0.0261967449           
20.5897500000          -0.6411885398          0.0432294235           0.5254351390           -0.0270605477          0.5243055484           -0.0362406508          0.0934162957           0.0256414174           
21.0895000000          -0.6406030401          0.0439518713           0.5250238836           -0.0281634534          0.5238932926           -0.0377170284          0.0929993973           0.0250292623           
21.5892500000          -0.6406900537          0.0445896911           0.5249354717           -0.0285349567          0.5237958218           -0.0380183288          0.0929158961           0.0246042431           
22.0890000000          -0.6401776505          0.0450888317           0.5247540216           -0.0294090768          0.5230039002           -0.0387636481          0.0926012225           0.0241030698           
22.5887500000          -0.6405233470          0.0463010487           0.5253360715           -0.0302793812          0.5236661480           -0.0398221523          0.0923804292           0.0238751710           
23.0885000000          -0.6398484356          0.0465670915           0.5245445868           -0.0308838334          0.5233003323           -0.0403234055          0.0922251470           0.0234672978           
23.5882500000          -0.6404434656          0.0468450524           0.5241477280           -0.0313475643          0.5239606529           -0.0411862547          0.0919788379           0.0230786669           
24.0880000000          -0.6399190938          0.0477630407           0.5242822590           -0.0322850155          0.5233036722           -0.0419194245          0.0917675246           0.0228689788           
24.5877500000          -0.6392091725          0.0480616523           0.5234435112           -0.0325041378          0.5233101915           -0.0427821387          0.0914970823           0.0225808739           
25.0875000000          -0.6394581133          0.0486882102           0.5233268210           -0.0335773902          0.5230891658           -0.0435559876          0.0913270311           0.0222938885           
25.5872500000          -0.6401843558          0.0499347200           0.5239826140           -0.0342936799          0.5226285101           -0.0444206383          0.0911393962           0.0220529920           
26.0870000000          -0.6398205378          0.0507758144           0.5247295645           -0.0348591851          0.5224195623           -0.0450455763          0.0907050247           0.0219443527           
26.5867500000          -0.6393058786          0.0514124298           0.5241966542           -0.0350977742          0.5225352578           -0.0458270901          0.0906157060           0.0216921861           
27.0865000000          -0.6396391473          0.0528279560           0.5242792244           -0.0368726763          0.5226868803           -0.0464259867          0.0904642879           0.0216427694           
27.5862500000          -0.6398750370          0.0531574112           0.5239042887           -0.0377636506          0.5221592907           -0.0470765713          0.0901351894           0.0216228868           
28.0860000000          -0.6395282334          0.0538528328           0.5247569873           -0.0385585124          0.5222019571           -0.0476605408          0.0899437615           0.0215993718           
28.5857500000          -0.6398394287          0.0551228384           0.5246724008           -0.0395521546          0.5225822666           -0.0489794739          0.0899192057           0.0215436835           
29.0855000000          -0.6395407018          0.0555761576           0.5240682847           -0.0393220878          0.5226532292           -0.0495810095          0.0896271838           0.0214953436           
29.5852500000          -0.6387992968          0.0563949620           0.5240379479           -0.0404343981          0.5222505478           -0.0502589918          0.0894627281           0.0214452165           
30.0850000000          -0.6395650975          0.0572633916           0.5245322130           -0.0413097747          0.5224914681           -0.0512247769          0.0893460653           0.0214172253           
30.5847500000          -0.6387691966          0.0577193613           0.5231395105           -0.0420544021          0.5213913221           -0.0512999078          0.0890604817           0.0213957057           
31.0845000000          -0.6391011261          0.0585481406           0.5235067762           -0.0429471372          0.5223200287           -0.0526297381          0.0890797237           0.0214660819           
31.5842500000          -0.6390076971          0.0590601242           0.5226898144           -0.0434792927          0.5221677996           -0.0534414038          0.0889495580           0.0215064427           
32.0840000000          -0.6399291452          0.0603679513           0.5239188267           -0.0445459569          0.5217117344           -0.0540505012          0.0887328212           0.0214517345           
32.5837500000          -0.6387817076          0.0608548372           0.5244360042           -0.0455069111          0.5212205890           -0.0546616648          0.0886071311           0.0214901224           
33.0835000000          -0.6379820041          0.0613609631           0.5236350489           -0.0461296964          0.5217931380           -0.0555883982          0.0884664549           0.0215368372           
33.5832500000          -0.6392550292          0.0625412694           0.5239119961           -0.0469989027          0.5208747989           -0.0562258305          0.0881644557           0.0215118509           
34.0830000000          -0.6390885454          0.0632611849           0.5234556884           -0.0476834853          0.5207352445           -0.0569163013          0.0881040342           0.0216160476           
34.5827500000          -0.6379166344          0.0637296332           0.5233450138           -0.0484385028          0.5214091939           -0.0578502398          0.0879840558           0.0216500391           
35.0825000000          -0.6390676637          0.0646972204           0.5221848497           -0.0490373754          0.5211239438           -0.0585400088          0.0877695177           0.0217918268           
35.5822500000          -0.6378521009          0.0652754482           0.5221311761           -0.0497182259          0.5207318229           -0.0593857332          0.0877509962           0.0219020202           
36.0820000000          -0.6379101202          0.0659974569           0.5215584454           -0.0504852008          0.5214552755           -0.0600971574          0.0876758936           0.0220136555           
36.5817500000          -0.6375405406          0.0668117768           0.5219457870           -0.0511118466          0.5208508762           -0.0610171692          0.0871970607           0.0220501263           
37.0815000000          -0.6389522747          0.0677630961           0.5217216697           -0.0521141414          0.5194854529           -0.0614745661          0.0871699413           0.0221550298           
37.5812500000          -0.6374898163          0.0683674071           0.5220651269           -0.0527279614          0.5195577781           -0.0622704118          0.0870670663           0.0222995223           
38.0810000000          -0.6374528350          0.0692166347           0.5226835700           -0.0535192556          0.5204663420           -0.0632172947          0.0870297207           0.0224839224           
38.5807500000          -0.6374487535          0.0698560255           0.5219703237           -0.0543923642          0.5196488868           -0.0637137862          0.0869130812           0.0227052998           
39.0805000000          -0.6371006727          0.0705962644           0.5224772309           -0.0548892257          0.5192205850           -0.0645215754          0.0866929845           0.0227372882           
39.5802500000          -0.6375869774          0.0714606685           0.5206865604           -0.0558081416          0.5193595375           -0.0653318416          0.0867209550           0.0229619576           
40.0800000000          -0.6374225993          0.0718621778           0.5198298253           -0.0563266990          0.5195154304           -0.0660965295          0.0865996541           0.0231598350           
40.5797500000          -0.6361673534          0.0731382101           0.5205288997           -0.0571734603          0.5187291995           -0.0667545128          0.0864314463           0.0232863551           
41.0795000000          -0.6363026289          0.0734589343           0.5214639427           -0.0577269875          0.5187385473           -0.0675321622          0.0862743834           0.0234919023           
41.5792500000          -0.6359682931          0.0745823983           0.5209117924           -0.0587549604          0.5185700699           -0.0682765236          0.0862185786           0.0236890468           
42.0790000000          -0.6363098849          0.0753074357           0.5203153196           -0.0594175981          0.5185330163           -0.0690023357          0.0861977070           0.0238880008           
42.5787500000          -0.6360356489          0.0761552084           0.5208733782           -0.0601668093          0.5188092987           -0.0699103500          0.0861377972           0.0241947940           
43.0785000000          -0.6371762284          0.0766157146           0.5202609896           -0.0612725598          0.5190765202           -0.0706093345          0.0861110341           0.0243905385           
43.5782500000          -0.6359860324          0.0775891477           0.5198489119           -0.0614901450          0.5183310297           -0.0712179965          0.0860185648           0.0246386075           
44.0780000000          -0.6354750228          0.0777768509           0.5203452253           -0.0624081930          0.5178887588           -0.0719656057          0.0859708751           0.0247820855           
44.5777500000          -0.6362935496          0.0789285867           0.5199018015           -0.0634218244          0.5172911190           -0.0730375109          0.0858604684           0.0249535685           
45.0775000000          -0.6359316423          0.0798053072           0.5197576080           -0.0639567882          0.5179677706           -0.0733151748          0.0858758490           0.0252641830           
45.5772500000          -0.6348540013          0.0799839059           0.5194818408           -0.0647459566          0.5176606302           -0.0740743294          0.0858159851           0.0253405397           
46.0770000000          -0.6347034579          0.0813162974           0.5196553634           -0.0652107923          0.5176187644           -0.0753034485          0.0857765100           0.0256423052           
46.5767500000          -0.6363357058          0.0822621856           0.5190581612           -0.0662203334          0.5170129726           -0.0753071440          0.0857608337           0.0259188319           
47.0765000000          -0.6354406162          0.0825495933           0.5201785935           -0.0665279176          0.5173469421           -0.0761859048          0.0856461296           0.0261208364           
