# MHz S RI R 50 
! S-Parameters data 
! Freq   reS11   imS11   reS21   imS21   reS12   imS12   reS22   imS22 
0.1000000000           -0.7006552411          0.1145916306           -0.4397723458          -0.1592404462          -0.4403381359          -0.1431695830          0.6506473938           0.2297357463           
0.5997500000           -0.6608796831          0.0488910230           -0.5015526656          -0.0601145849          -0.5035707831          -0.0505297388          0.7504590587           0.0922918126           
1.0995000000           -0.6541382750          0.0326336051           -0.5128503848          -0.0342026423          -0.5145858484          -0.0235342789          0.7678088340           0.0525412124           
1.5992500000           -0.6508801884          0.0282719313           -0.5182080578          -0.0255165940          -0.5187591908          -0.0145687819          0.7748200093           0.0395470674           
2.0990000000           -0.6489292819          0.0262091996           -0.5206441314          -0.0200754079          -0.5219458965          -0.0091995700          0.7799509725           0.0321411931           
2.5987500000           -0.6478102057          0.0251029660           -0.5221022569          -0.0161878016          -0.5236147268          -0.0051389406          0.7829026110           0.0266112956           
3.0985000000           -0.6462396384          0.0245613909           -0.5236649148          -0.0130362911          -0.5239335914          -0.0018048000          0.7839767259           0.0222583218           
3.5982500000           -0.6458881057          0.0241753889           -0.5243199082          -0.0105384309          -0.5249427287          0.0004896443           0.7856670385           0.0187910985           
4.0980000000           -0.6457419523          0.0247670554           -0.5246231907          -0.0079172214          -0.5255292283          0.0030550983           0.7873450353           0.0163332417           
4.5977500000           -0.6458175794          0.0244983882           -0.5252052859          -0.0062697206          -0.5256259249          0.0053486726           0.7863459173           0.0127675298           
5.0975000000           -0.6457325948          0.0242755152           -0.5250903935          -0.0044014842          -0.5260841438          0.0067841896           0.7874827207           0.0111433736           
5.5972500000           -0.6443184412          0.0257322845           -0.5254929668          -0.0026379416          -0.5274642463          0.0080855486           0.7885615601           0.0090956053           
6.0970000000           -0.6441822129          0.0256794857           -0.5262252065          -0.0011506102          -0.5268237178          0.0096256783           0.7880341522           0.0073237011           
6.5967500000           -0.6447856504          0.0260050799           -0.5253113251          0.0000649832           -0.5265134103          0.0110205998           0.7886252419           0.0057418132           
7.0965000000           -0.6445807943          0.0263453224           -0.5256891786          0.0010075794           -0.5257176909          0.0125879548           0.7888014914           0.0037483181           
7.5962500000           -0.6439990594          0.0270717488           -0.5255877067          0.0024552077           -0.5269057417          0.0136581388           0.7891749535           0.0024943957           
8.0960000000           -0.6436857589          0.0278511430           -0.5254934596          0.0037082637           -0.5267036040          0.0149802634           0.7883736348           0.0003367179           
8.5957500000           -0.6435773977          0.0282865851           -0.5257832833          0.0046969194           -0.5266044388          0.0157552023           0.7887956281           -0.0002227027          
9.0955000000           -0.6436878591          0.0289301455           -0.5258880300          0.0053223515           -0.5265399503          0.0169457206           0.7894039608           -0.0015826172          
9.5952500000           -0.6433576254          0.0291103119           -0.5255003889          0.0064433247           -0.5267195095          0.0187968035           0.7890045462           -0.0031187497          
10.0950000000          -0.6433912927          0.0302568424           -0.5257253984          0.0082915443           -0.5262237847          0.0192967394           0.7895839455           -0.0039455708          
10.5947500000          -0.6433066968          0.0298866099           -0.5261043654          0.0091884114           -0.5263100805          0.0206894463           0.7899949737           -0.0062909712          
11.0945000000          -0.6433139857          0.0309157121           -0.5260209299          0.0099320904           -0.5262351980          0.0215922176           0.7892646006           -0.0063399822          
11.5942500000          -0.6432085334          0.0323097029           -0.5253079503          0.0112015594           -0.5260295857          0.0218327137           0.7893374978           -0.0072903552          
12.0940000000          -0.6426597565          0.0324648759           -0.5261737749          0.0126684749           -0.5259873496          0.0231715507           0.7890049768           -0.0093621131          
12.5937500000          -0.6429645512          0.0332711160           -0.5254499652          0.0132160517           -0.5262938000          0.0242603595           0.7892904651           -0.0106394030          
13.0935000000          -0.6425399799          0.0341968143           -0.5252888473          0.0145815202           -0.5259849930          0.0250538991           0.7884107635           -0.0115686734          
13.5932500000          -0.6423515476          0.0344429359           -0.5254379980          0.0153175019           -0.5258806104          0.0261258955           0.7890778605           -0.0119566048          
14.0930000000          -0.6428946653          0.0355480052           -0.5253286475          0.0159437305           -0.5259921894          0.0272092920           0.7890956951           -0.0135755616          
14.5927500000          -0.6420536687          0.0362884167           -0.5249707659          0.0171762596           -0.5255133813          0.0280519735           0.7893815546           -0.0146889949          
15.0925000000          -0.6422583975          0.0370820041           -0.5251654629          0.0176150930           -0.5262913984          0.0285959181           0.7887933408           -0.0160807723          
15.5922500000          -0.6419006437          0.0379481101           -0.5256450276          0.0187477505           -0.5262245984          0.0297369061           0.7879809896           -0.0167876019          
16.0920000000          -0.6416727446          0.0380973395           -0.5248166787          0.0188578853           -0.5253116194          0.0304817470           0.7887095252           -0.0176827718          
16.5917500000          -0.6419944520          0.0388500443           -0.5248183198          0.0201797327           -0.5257439660          0.0318316784           0.7882763759           -0.0186061523          
17.0915000000          -0.6419707851          0.0402778769           -0.5246184245          0.0213136081           -0.5254579671          0.0326218672           0.7884158253           -0.0190315805          
17.5912500000          -0.6416620736          0.0405736688           -0.5246386303          0.0213982942           -0.5249707520          0.0332774426           0.7888093079           -0.0202770535          
18.0910000000          -0.6414430180          0.0412764584           -0.5248948341          0.0224567031           -0.5259699585          0.0337593965           0.7881515233           -0.0212934358          
18.5907500000          -0.6414675157          0.0421566861           -0.5245115877          0.0236604035           -0.5245317405          0.0349109701           0.7879657032           -0.0225837784          
19.0905000000          -0.6415374137          0.0427493204           -0.5248895517          0.0244441741           -0.5247939654          0.0357813629           0.7889934137           -0.0234990178          
19.5902500000          -0.6418871956          0.0431446321           -0.5245799502          0.0250241470           -0.5247826003          0.0368657010           0.7885142477           -0.0245745338          
20.0900000000          -0.6408813679          0.0443067967           -0.5242741041          0.0258137777           -0.5239860188          0.0376475572           0.7882933248           -0.0249050934          
20.5897500000          -0.6414648552          0.0454883080           -0.5237668869          0.0270100146           -0.5243403221          0.0388600479           0.7882944972           -0.0263338914          
21.0895000000          -0.6417058401          0.0459776798           -0.5241208505          0.0279628433           -0.5239146181          0.0393156967           0.7878339877           -0.0270571540          
21.5892500000          -0.6407254245          0.0459730418           -0.5233191510          0.0281584244           -0.5239178317          0.0404533945           0.7882768350           -0.0281893277          
22.0890000000          -0.6402468384          0.0470575530           -0.5237713203          0.0294497024           -0.5245922988          0.0412091337           0.7879957494           -0.0292515492          
22.5887500000          -0.6404145013          0.0473231719           -0.5238354826          0.0297494667           -0.5236499982          0.0415346637           0.7870862506           -0.0295448501          
23.0885000000          -0.6403407377          0.0485300634           -0.5233813759          0.0311475196           -0.5239737703          0.0433186978           0.7883369730           -0.0313319920          
23.5882500000          -0.6400778030          0.0483215651           -0.5232943374          0.0311207297           -0.5235065172          0.0427779669           0.7870912786           -0.0302004813          
24.0880000000          -0.6408216544          0.0495356134           -0.5232142922          0.0322842009           -0.5239693756          0.0440213575           0.7878299784           -0.0329910582          
24.5877500000          -0.6409008582          0.0501632290           -0.5236421864          0.0332450573           -0.5239224885          0.0449295234           0.7881001026           -0.0327944512          
25.0875000000          -0.6403613208          0.0511756808           -0.5231135052          0.0340192919           -0.5229642748          0.0457093204           0.7864394088           -0.0334242600          
25.5872500000          -0.6403976023          0.0515905969           -0.5240367275          0.0344918578           -0.5234381963          0.0464723708           0.7882423579           -0.0353513970          
26.0870000000          -0.6409292381          0.0531792521           -0.5242242416          0.0350420305           -0.5234165745          0.0476099670           0.7875573598           -0.0361706558          
26.5867500000          -0.6403871930          0.0542415794           -0.5247068860          0.0365060230           -0.5243655637          0.0486130109           0.7897240121           -0.0367615851          
27.0865000000          -0.6402634490          0.0545051059           -0.5236926150          0.0370239917           -0.5233345822          0.0492511643           0.7887423063           -0.0378665119          
27.5862500000          -0.6397161773          0.0551289986           -0.5239246790          0.0377932802           -0.5240646599          0.0501815790           0.7891060988           -0.0387755435          
28.0860000000          -0.6395946942          0.0559859428           -0.5241094853          0.0385869518           -0.5233504609          0.0504464535           0.7884353103           -0.0391900405          
28.5857500000          -0.6398463252          0.0570497129           -0.5241107310          0.0397949044           -0.5229669671          0.0515799387           0.7885814370           -0.0402172623          
29.0855000000          -0.6399773600          0.0578412009           -0.5243841025          0.0407720235           -0.5233169849          0.0521836789           0.7882984279           -0.0414353086          
29.5852500000          -0.6392102054          0.0580033990           -0.5237530546          0.0413222231           -0.5228486747          0.0532407606           0.7887180317           -0.0430092325          
30.0850000000          -0.6400511557          0.0588923171           -0.5242545494          0.0425570327           -0.5232378872          0.0542409582           0.7892155868           -0.0441237232          
30.5847500000          -0.6399740992          0.0597939582           -0.5239716374          0.0434392137           -0.5228765927          0.0547357462           0.7887173500           -0.0450219817          
31.0845000000          -0.6394520467          0.0603314553           -0.5230842395          0.0439603160           -0.5232035860          0.0558412670           0.7894217978           -0.0467592286          
31.5842500000          -0.6387088487          0.0603035574           -0.5222845685          0.0445943038           -0.5230492333          0.0569404033           0.7896817971           -0.0477171014          
32.0840000000          -0.6396177620          0.0619823358           -0.5227383201          0.0456153596           -0.5227398669          0.0577367153           0.7880331119           -0.0483845931          
32.5837500000          -0.6395543857          0.0625342583           -0.5232466174          0.0467261261           -0.5230713129          0.0585549666           0.7887293927           -0.0497865847          
33.0835000000          -0.6386178601          0.0631249381           -0.5233825225          0.0477295581           -0.5227259229          0.0592617364           0.7885230646           -0.0508809508          
33.5832500000          -0.6385484467          0.0638627520           -0.5220731291          0.0481726531           -0.5222322616          0.0599384751           0.7874734796           -0.0517202097          
34.0830000000          -0.6381147032          0.0645834407           -0.5226767948          0.0491803362           -0.5219450573          0.0607231505           0.7853220860           -0.0523057001          
34.5827500000          -0.6379182026          0.0653054676           -0.5229187691          0.0499232772           -0.5213373950          0.0614874492           0.7856378194           -0.0533602896          
35.0825000000          -0.6381036113          0.0661436871           -0.5217904424          0.0504982528           -0.5205697808          0.0621349673           0.7857826313           -0.0544024156          
35.5822500000          -0.6380788433          0.0667865825           -0.5220700280          0.0512871636           -0.5211429774          0.0630047576           0.7865163921           -0.0552878600          
36.0820000000          -0.6378496615          0.0675937239           -0.5226876020          0.0522439306           -0.5202766368          0.0636600780           0.7853280920           -0.0561705120          
36.5817500000          -0.6376314742          0.0683027987           -0.5221180472          0.0529771508           -0.5212426606          0.0647483792           0.7854030469           -0.0570799789          
37.0815000000          -0.6376818664          0.0691098865           -0.5214344996          0.0536857103           -0.5218128502          0.0652905388           0.7855070192           -0.0580654958          
37.5812500000          -0.6378310309          0.0699322003           -0.5200466185          0.0542928286           -0.5216259594          0.0662708741           0.7871233901           -0.0587555502          
38.0810000000          -0.6391730526          0.0707776258           -0.5213770103          0.0551550829           -0.5205692711          0.0668637730           0.7843027791           -0.0598789006          
38.5807500000          -0.6370219742          0.0713177648           -0.5213714692          0.0559439090           -0.5204166062          0.0677134941           0.7855703563           -0.0601637242          
39.0805000000          -0.6368924185          0.0725839025           -0.5202303259          0.0567772597           -0.5197780489          0.0684854036           0.7853087242           -0.0612034442          
39.5802500000          -0.6368778098          0.0731388453           -0.5208405691          0.0574677994           -0.5189246627          0.0694684757           0.7844337527           -0.0621132633          
40.0800000000          -0.6374141289          0.0737689802           -0.5197744326          0.0578568059           -0.5193678282          0.0698062326           0.7850109721           -0.0629035493          
40.5797500000          -0.6385174899          0.0746725141           -0.5196063701          0.0587039867           -0.5189458825          0.0705305997           0.7831183716           -0.0635289362          
41.0795000000          -0.6374572111          0.0751704634           -0.5198536598          0.0593969456           -0.5202722224          0.0712337102           0.7841145132           -0.0647662873          
41.5792500000          -0.6365635951          0.0758125795           -0.5197869957          0.0601641324           -0.5199512625          0.0722061166           0.7841064754           -0.0658876653          
42.0790000000          -0.6370152117          0.0767906451           -0.5198905382          0.0607652408           -0.5185858087          0.0730561601           0.7828908515           -0.0660019704          
42.5787500000          -0.6369236704          0.0773179884           -0.5204798356          0.0617292296           -0.5195442955          0.0742004526           0.7843982162           -0.0671408140          
43.0785000000          -0.6376544174          0.0786267256           -0.5197432194          0.0625827255           -0.5189410431          0.0746650322           0.7828466346           -0.0683389878          
43.5782500000          -0.6364914781          0.0792421675           -0.5198966153          0.0635822165           -0.5183671196          0.0752350426           0.7817816922           -0.0695286252          
44.0780000000          -0.6356742309          0.0796969135           -0.5190700125          0.0641135509           -0.5176248366          0.0763495284           0.7828201853           -0.0694559461          
44.5777500000          -0.6358968702          0.0808883423           -0.5187376166          0.0650598187           -0.5177522649          0.0769461692           0.7822776239           -0.0706504345          
45.0775000000          -0.6361682019          0.0815700972           -0.5193878213          0.0658099014           -0.5185386697          0.0775946714           0.7828912279           -0.0708029420          
45.5772500000          -0.6352664625          0.0819330557           -0.5185045708          0.0661678687           -0.5182999179          0.0781788773           0.7825033543           -0.0726253954          
46.0770000000          -0.6359354159          0.0829461606           -0.5185851291          0.0670115998           -0.5182592708          0.0799641268           0.7815474431           -0.0735613862          
46.5767500000          -0.6357887674          0.0840359849           -0.5188748117          0.0681094057           -0.5169686199          0.0801101055           0.7808631379           -0.0731928407          
47.0765000000          -0.6355896254          0.0844184600           -0.5185330753          0.0682641476           -0.5173380525          0.0801436358           0.7811956152           -0.0741725048          
