# MHz S RI R 50 
! S-Parameters data 
! Freq   reS11   imS11   reS21   imS21   reS12   imS12   reS22   imS22 
0.1000000000           -0.6991535025          0.1129585678           -0.4423341619          -0.1574705106          -0.4397018300          -0.1419179980          -0.3318807646          0.2509701268           
0.5997500000           -0.6608020013          0.0467279646           -0.5024015523          -0.0585679343          -0.5002709004          -0.0505134090          -0.1950264024          0.1651828918           
1.0995000000           -0.6534473876          0.0309485526           -0.5132220385          -0.0329896574          -0.5125134586          -0.0244694472          -0.1181280076          0.1511026910           
1.5992500000           -0.6507224772          0.0266582533           -0.5174736400          -0.0243163431          -0.5174721086          -0.0155480408          -0.0730435407          0.1479885170           
2.0990000000           -0.6487844790          0.0246842831           -0.5207097397          -0.0192149988          -0.5202112087          -0.0100902954          -0.0397305618          0.1438637162           
2.5987500000           -0.6475402263          0.0236658121           -0.5221886137          -0.0156126168          -0.5221134989          -0.0063385041          -0.0137629125          0.1375099074           
3.0985000000           -0.6461438268          0.0231993727           -0.5233291517          -0.0122566829          -0.5230510843          -0.0032099381          0.0064623214           0.1301443047           
3.5982500000           -0.6457536962          0.0227169195           -0.5243299501          -0.0100706562          -0.5235766517          -0.0006232791          0.0225388286           0.1226587787           
4.0980000000           -0.6458465472          0.0229404949           -0.5253013088          -0.0081925234          -0.5238898433          0.0015289033           0.0350077476           0.1148274911           
4.5977500000           -0.6454192281          0.0230568543           -0.5247452594          -0.0055959120          -0.5252068584          0.0033666910           0.0452785020           0.1074642089           
5.0975000000           -0.6453330514          0.0231805520           -0.5255993746          -0.0040820012          -0.5246875208          0.0050266650           0.0532193428           0.1004727413           
5.5972500000           -0.6448338731          0.0238286170           -0.5258618686          -0.0025236723          -0.5258232487          0.0065190726           0.0599620335           0.0945602486           
6.0970000000           -0.6442621394          0.0241274457           -0.5268798989          -0.0012637264          -0.5254778445          0.0084054659           0.0652541804           0.0882991914           
6.5967500000           -0.6446172602          0.0247927989           -0.5256818840          0.0001083960           -0.5248598200          0.0096025508           0.0697927484           0.0830273534           
7.0965000000           -0.6442251952          0.0250730392           -0.5260640332          0.0006730185           -0.5256572251          0.0107316970           0.0733112397           0.0779251508           
7.5962500000           -0.6439610785          0.0260614356           -0.5260825464          0.0024263931           -0.5256396212          0.0117124593           0.0763279678           0.0734000824           
8.0960000000           -0.6436897163          0.0266238849           -0.5266615959          0.0033734947           -0.5256382322          0.0127005509           0.0787128131           0.0691240055           
8.5957500000           -0.6436535606          0.0271246113           -0.5257282013          0.0050301913           -0.5257678540          0.0140531363           0.0808892434           0.0655339090           
9.0955000000           -0.6432158456          0.0272161018           -0.5260067746          0.0057397123           -0.5257576009          0.0153350358           0.0826668805           0.0618057801           
9.5952500000           -0.6433273112          0.0276699140           -0.5259286783          0.0063640327           -0.5252070123          0.0162250119           0.0841743212           0.0586004362           
10.0950000000          -0.6434813123          0.0291570540           -0.5264996448          0.0083560345           -0.5251959136          0.0171804497           0.0855075982           0.0556043961           
10.5947500000          -0.6433723971          0.0289708360           -0.5267240689          0.0088135253           -0.5254751321          0.0183496572           0.0864964447           0.0527905230           
11.0945000000          -0.6427158007          0.0297922181           -0.5268492007          0.0105418429           -0.5249764173          0.0195383462           0.0873800265           0.0501600610           
11.5942500000          -0.6434808780          0.0312739608           -0.5260155576          0.0113138405           -0.5257029449          0.0204265773           0.0879504916           0.0478561299           
12.0940000000          -0.6426998386          0.0319664527           -0.5255284946          0.0118258209           -0.5244575326          0.0213494403           0.0886865300           0.0456233915           
12.5937500000          -0.6426699263          0.0320659721           -0.5256747701          0.0125917165           -0.5253009709          0.0227225312           0.0890710393           0.0435303351           
13.0935000000          -0.6428790511          0.0330301825           -0.5254797049          0.0137406483           -0.5250274290          0.0231884238           0.0894174313           0.0416021111           
13.5932500000          -0.6416444756          0.0337607458           -0.5258329124          0.0147227840           -0.5250449175          0.0240270105           0.0897564754           0.0398244102           
14.0930000000          -0.6426147317          0.0345860889           -0.5260141757          0.0157107542           -0.5246405920          0.0247498773           0.0898616726           0.0380854521           
14.5927500000          -0.6419506492          0.0348419582           -0.5254899932          0.0165127523           -0.5245501385          0.0258809154           0.0900066732           0.0366089015           
15.0925000000          -0.6418214227          0.0359307470           -0.5251799434          0.0172801916           -0.5247008558          0.0267570454           0.0901911950           0.0350290305           
15.5922500000          -0.6409663267          0.0365929236           -0.5250095537          0.0178703700           -0.5249703987          0.0274304804           0.0902123538           0.0338016878           
16.0920000000          -0.6415254261          0.0371089172           -0.5257335331          0.0186700119           -0.5247338890          0.0281151134           0.0901186929           0.0325185312           
16.5917500000          -0.6420703852          0.0378274357           -0.5247565554          0.0193450183           -0.5244688104          0.0291798649           0.0901886468           0.0313536965           
17.0915000000          -0.6415572545          0.0391396646           -0.5252099227          0.0205473333           -0.5240984253          0.0303010280           0.0900281419           0.0302201735           
17.5912500000          -0.6412611580          0.0392373718           -0.5252898688          0.0210807485           -0.5240963696          0.0309575323           0.0898281631           0.0292046226           
18.0910000000          -0.6416888671          0.0400077103           -0.5257927809          0.0218984704           -0.5242988930          0.0315592535           0.0898379990           0.0282345879           
18.5907500000          -0.6415974348          0.0412025801           -0.5251635066          0.0228792705           -0.5236408145          0.0324283252           0.0896212466           0.0273457018           
19.0905000000          -0.6413866057          0.0416412096           -0.5255750541          0.0235641472           -0.5234316228          0.0332475448           0.0894964013           0.0265999530           
19.5902500000          -0.6411800256          0.0417466160           -0.5249063409          0.0245553477           -0.5236856881          0.0345552260           0.0894772697           0.0258225057           
20.0900000000          -0.6411113554          0.0431564127           -0.5245872265          0.0250644294           -0.5234556339          0.0349346015           0.0891643238           0.0251043690           
20.5897500000          -0.6413072946          0.0440541012           -0.5248375014          0.0264053268           -0.5232692622          0.0359251808           0.0889379333           0.0244715422           
21.0895000000          -0.6414409890          0.0450959452           -0.5245886104          0.0271398519           -0.5230419989          0.0367953040           0.0887136563           0.0237828009           
21.5892500000          -0.6412945843          0.0452158875           -0.5237915523          0.0279252442           -0.5229529161          0.0375189990           0.0887677828           0.0233186413           
22.0890000000          -0.6401236461          0.0453841692           -0.5241590579          0.0282812621           -0.5221379657          0.0382087577           0.0883505600           0.0226322521           
22.5887500000          -0.6410365185          0.0467063962           -0.5243442301          0.0293458507           -0.5227423649          0.0389771948           0.0882712118           0.0222372135           
23.0885000000          -0.6407830832          0.0473334997           -0.5235848061          0.0299873063           -0.5228462473          0.0402268669           0.0879738909           0.0217802907           
23.5882500000          -0.6402664452          0.0477137361           -0.5237678025          0.0298206667           -0.5228848783          0.0401429295           0.0877745240           0.0213180549           
24.0880000000          -0.6399083358          0.0486885853           -0.5232463649          0.0313918196           -0.5221558911          0.0413923954           0.0876609813           0.0209412124           
24.5877500000          -0.6397904525          0.0495960764           -0.5233216361          0.0321287816           -0.5226315672          0.0416539529           0.0873358080           0.0206625856           
25.0875000000          -0.6400774003          0.0495511544           -0.5228966634          0.0324905070           -0.5229202308          0.0429687506           0.0871435318           0.0203082480           
25.5872500000          -0.6394240999          0.0502455178           -0.5229661904          0.0329342528           -0.5219665602          0.0436806611           0.0868599306           0.0200711567           
26.0870000000          -0.6391067993          0.0512576713           -0.5235292993          0.0333965062           -0.5219206681          0.0439804245           0.0866350874           0.0197761249           
26.5867500000          -0.6399908142          0.0529342490           -0.5237777104          0.0348664563           -0.5214733744          0.0449862537           0.0864272960           0.0194758797           
27.0865000000          -0.6400807499          0.0536270491           -0.5239400349          0.0359654141           -0.5222538340          0.0461558910           0.0863215719           0.0193274666           
27.5862500000          -0.6395311906          0.0539280990           -0.5236270247          0.0365617704           -0.5217634935          0.0461657202           0.0859286211           0.0191308650           
28.0860000000          -0.6398246132          0.0548004543           -0.5236138888          0.0372984871           -0.5212829618          0.0469108026           0.0858145780           0.0192045598           
28.5857500000          -0.6398642613          0.0558970147           -0.5232344246          0.0379304598           -0.5214407483          0.0478672200           0.0856127843           0.0190067039           
29.0855000000          -0.6392117399          0.0562948043           -0.5233917532          0.0384177867           -0.5216187596          0.0485383822           0.0853983329           0.0188328908           
29.5852500000          -0.6390135697          0.0569505747           -0.5237284156          0.0393991037           -0.5213791212          0.0491866446           0.0853333989           0.0187801848           
30.0850000000          -0.6399475763          0.0580224785           -0.5243883027          0.0405668397           -0.5214724376          0.0500810702           0.0851345984           0.0186373524           
30.5847500000          -0.6397446485          0.0588146482           -0.5230244656          0.0407938080           -0.5213114452          0.0508553678           0.0848799313           0.0185642701           
31.0845000000          -0.6400474578          0.0595260771           -0.5235886415          0.0420030400           -0.5218362912          0.0519219394           0.0849851966           0.0185296035           
31.5842500000          -0.6397794571          0.0599147292           -0.5230685104          0.0426407431           -0.5214170550          0.0525767995           0.0847443473           0.0184038972           
32.0840000000          -0.6400235759          0.0611645500           -0.5234581302          0.0434816018           -0.5210738284          0.0531995032           0.0846725509           0.0184135629           
32.5837500000          -0.6387275996          0.0616516656           -0.5233793270          0.0442580874           -0.5207341815          0.0539220016           0.0843935504           0.0183196090           
33.0835000000          -0.6387798281          0.0622681664           -0.5221967313          0.0448164300           -0.5211186116          0.0547815888           0.0842486469           0.0182723842           
33.5832500000          -0.6390649452          0.0632912527           -0.5234819442          0.0459225446           -0.5209042900          0.0554644906           0.0841139472           0.0182020932           
34.0830000000          -0.6390385478          0.0640589537           -0.5231032966          0.0465473899           -0.5202084755          0.0561248185           0.0840060622           0.0182327747           
34.5827500000          -0.6381483685          0.0645932009           -0.5223206871          0.0471920549           -0.5209269682          0.0570361810           0.0838761828           0.0181749739           
35.0825000000          -0.6389193470          0.0654434576           -0.5223562806          0.0478748081           -0.5204206237          0.0577349629           0.0836839432           0.0182017593           
35.5822500000          -0.6395166936          0.0663883607           -0.5222136184          0.0485618698           -0.5208156687          0.0586178899           0.0837091037           0.0182701377           
36.0820000000          -0.6385504775          0.0669370114           -0.5210129446          0.0493621294           -0.5206340555          0.0592225428           0.0835412888           0.0182606426           
36.5817500000          -0.6383979544          0.0677855861           -0.5222196788          0.0500523492           -0.5204341204          0.0600796708           0.0831727088           0.0182481886           
37.0815000000          -0.6387818631          0.0686357755           -0.5218704150          0.0507676053           -0.5193356273          0.0605313809           0.0830885439           0.0182868578           
37.5812500000          -0.6379276332          0.0691873612           -0.5219772537          0.0515367214           -0.5198984869          0.0614915033           0.0831006226           0.0184578371           
38.0810000000          -0.6380703013          0.0702967684           -0.5222349289          0.0521680188           -0.5201697670          0.0622591265           0.0829449340           0.0184695747           
38.5807500000          -0.6377352303          0.0708559803           -0.5212736711          0.0532010128           -0.5191191545          0.0628264655           0.0826520821           0.0185239734           
39.0805000000          -0.6367536133          0.0715241299           -0.5217878609          0.0538021407           -0.5191186836          0.0636228696           0.0826108740           0.0186216641           
39.5802500000          -0.6373897037          0.0724639989           -0.5203190831          0.0546979143           -0.5189069978          0.0645105179           0.0825007524           0.0187083723           
40.0800000000          -0.6369667679          0.0729252208           -0.5193337985          0.0550773821           -0.5191344859          0.0650651818           0.0825637831           0.0188505444           
40.5797500000          -0.6368853056          0.0742192480           -0.5203332628          0.0557714923           -0.5183997194          0.0659238562           0.0822303467           0.0189198713           
41.0795000000          -0.6365904846          0.0746857476           -0.5210961389          0.0567017571           -0.5181984548          0.0667192922           0.0821547304           0.0189948688           
41.5792500000          -0.6361987488          0.0755364984           -0.5204447136          0.0572090539           -0.5183350121          0.0674052672           0.0821386332           0.0191614208           
42.0790000000          -0.6363942553          0.0763751513           -0.5202982758          0.0580472241           -0.5182696080          0.0681207658           0.0821574164           0.0193935326           
42.5787500000          -0.6362142930          0.0776132839           -0.5202164233          0.0591799919           -0.5182131163          0.0688468893           0.0820706708           0.0194713720           
43.0785000000          -0.6372450950          0.0774781799           -0.5198531938          0.0597193469           -0.5188763272          0.0694325351           0.0819647171           0.0196353406           
43.5782500000          -0.6360058795          0.0782611976           -0.5203929092          0.0609376147           -0.5182351991          0.0700334161           0.0819122104           0.0197453290           
44.0780000000          -0.6355989576          0.0791863391           -0.5196421210          0.0607693581           -0.5175815200          0.0709149789           0.0818540887           0.0198700492           
44.5777500000          -0.6364553086          0.0803742569           -0.5201906460          0.0618160900           -0.5173120074          0.0720075977           0.0817700813           0.0199808900           
45.0775000000          -0.6360020385          0.0809271388           -0.5193847048          0.0622209862           -0.5178538348          0.0722366432           0.0817470939           0.0202058839           
45.5772500000          -0.6348825278          0.0807199812           -0.5188919187          0.0630642526           -0.5171259692          0.0730011548           0.0816478171           0.0202153646           
46.0770000000          -0.6355552415          0.0824276834           -0.5191261536          0.0638760824           -0.5177494743          0.0741625077           0.0816711175           0.0204676706           
46.5767500000          -0.6357466721          0.0831712368           -0.5198669379          0.0648908791           -0.5172975072          0.0748829186           0.0816166718           0.0206081984           
47.0765000000          -0.6359761757          0.0833974688           -0.5196833685          0.0653901070           -0.5167860449          0.0752377461           0.0815761489           0.0207687036           
