# MHz S RI R 50 
! S-Parameters data 
! Freq   reS11   imS11   reS21   imS21   reS12   imS12   reS22   imS22 
0.1000000000           -0.6993652545          0.1151337226           0.4409016412           0.1604894123           0.4407100007           0.1428633706           0.6523794861           0.2295309874           
0.5997500000           -0.6605725350          0.0488355341           0.5020962918           0.0600339019           0.5039490200           0.0500565999           0.7518558055           0.0922446122           
1.0995000000           -0.6531947007          0.0328734070           0.5129762854           0.0341688902           0.5141859230           0.0230591780           0.7678944905           0.0528182807           
1.5992500000           -0.6505289631          0.0287143382           0.5171300287           0.0253505333           0.5186428898           0.0141697647           0.7746924497           0.0400040388           
2.0990000000           -0.6482211953          0.0264672318           0.5209127328           0.0202883199           0.5213378940           0.0088118018           0.7803323580           0.0329547108           
2.5987500000           -0.6471707089          0.0255031491           0.5221144174           0.0165124685           0.5233420373           0.0050475060           0.7830975772           0.0278073806           
3.0985000000           -0.6459730970          0.0248491530           0.5235132197           0.0134447480           0.5242319424           0.0018136250           0.7840512196           0.0236616028           
3.5982500000           -0.6458763576          0.0242816579           0.5239491112           0.0108956949           0.5247837313           -0.0006217449          0.7862801870           0.0206880814           
4.0980000000           -0.6452431728          0.0250885987           0.5243702499           0.0086534558           0.5253421044           -0.0027625010          0.7871474478           0.0178612970           
4.5977500000           -0.6450563965          0.0248446905           0.5248396662           0.0069742157           0.5254497299           -0.0050079458          0.7860652967           0.0146781096           
5.0975000000           -0.6454406664          0.0249372795           0.5250119154           0.0051424549           0.5255810504           -0.0064811297          0.7873444990           0.0131399666           
5.5972500000           -0.6438263024          0.0257724679           0.5249920892           0.0035512360           0.5266491622           -0.0078224046          0.7889035268           0.0120108490           
6.0970000000           -0.6443644105          0.0261129317           0.5257438658           0.0022143489           0.5267968890           -0.0090099923          0.7882650042           0.0096631046           
6.5967500000           -0.6440236139          0.0266936429           0.5254420976           0.0012349756           0.5259666922           -0.0106958312          0.7888959679           0.0088505702           
7.0965000000           -0.6438470623          0.0268362935           0.5254892405           0.0001317664           0.5255811415           -0.0120558172          0.7883448644           0.0072075887           
7.5962500000           -0.6434742331          0.0277916763           0.5257560397           -0.0010553713          0.5265396392           -0.0128762746          0.7895404800           0.0057024765           
8.0960000000           -0.6426881419          0.0287779582           0.5253192403           -0.0026951967          0.5266723510           -0.0140609561          0.7887339937           0.0045838725           
8.5957500000           -0.6432122231          0.0289613540           0.5251235738           -0.0037447163          0.5263036598           -0.0148807688          0.7887832947           0.0037446073           
9.0955000000           -0.6421860887          0.0290729131           0.5250897105           -0.0045643611          0.5261723506           -0.0155478670          0.7892568977           0.0027285312           
9.5952500000           -0.6425552461          0.0297486068           0.5259178070           -0.0058328593          0.5262476323           -0.0173196617          0.7889497992           0.0009776696           
10.0950000000          -0.6425004827          0.0310102841           0.5257355860           -0.0072869189          0.5261359704           -0.0181114166          0.7895280556           0.0000269822           
10.5947500000          -0.6418477940          0.0311810175           0.5256648376           -0.0074943586          0.5262784639           -0.0193461886          0.7894932121           -0.0013955542          
11.0945000000          -0.6421426231          0.0312719455           0.5259487319           -0.0083629158          0.5259776629           -0.0198470747          0.7894252770           -0.0011038976          
11.5942500000          -0.6423457391          0.0329813677           0.5251544500           -0.0099350312          0.5259741205           -0.0203340651          0.7889314457           -0.0028522312          
12.0940000000          -0.6419792172          0.0332223016           0.5251284584           -0.0104810811          0.5261484053           -0.0224899417          0.7893797685           -0.0034496563          
12.5937500000          -0.6423246722          0.0343107342           0.5252098736           -0.0112148433          0.5263257958           -0.0233074194          0.7885951509           -0.0043648252          
13.0935000000          -0.6420872953          0.0351604314           0.5253560094           -0.0120049096          0.5258541601           -0.0235863689          0.7885296462           -0.0049351556          
13.5932500000          -0.6420564649          0.0353724366           0.5251129138           -0.0126762914          0.5252858808           -0.0239778801          0.7895977771           -0.0069338343          
14.0930000000          -0.6419390059          0.0360956170           0.5251549147           -0.0139930871          0.5257792474           -0.0249858319          0.7885320485           -0.0072605002          
14.5927500000          -0.6408328394          0.0369549905           0.5239400510           -0.0144375684          0.5254505828           -0.0263800446          0.7892531462           -0.0079948406          
15.0925000000          -0.6411687220          0.0378728049           0.5243045373           -0.0153076458          0.5256168585           -0.0271762693          0.7885416187           -0.0095061568          
15.5922500000          -0.6413012903          0.0387044581           0.5246259976           -0.0162969731          0.5253680211           -0.0276832433          0.7888748215           -0.0096855677          
16.0920000000          -0.6408074563          0.0393112401           0.5247611001           -0.0166594660          0.5247734731           -0.0283406298          0.7892083220           -0.0104549667          
16.5917500000          -0.6407762038          0.0398715844           0.5242703332           -0.0178447215          0.5251807878           -0.0294671390          0.7888399253           -0.0112303872          
17.0915000000          -0.6410379153          0.0408456709           0.5243719906           -0.0185325049          0.5251370549           -0.0300540055          0.7882643082           -0.0118697837          
17.5912500000          -0.6410218253          0.0415911489           0.5238262233           -0.0190445358          0.5247734947           -0.0313499330          0.7880811216           -0.0121697639          
18.0910000000          -0.6411180907          0.0422561372           0.5247982634           -0.0202067325          0.5252179188           -0.0313461985          0.7885126910           -0.0139528847          
18.5907500000          -0.6403549655          0.0422914408           0.5235819532           -0.0210000685          0.5239210591           -0.0326737472          0.7885292208           -0.0138399506          
19.0905000000          -0.6406677442          0.0441593789           0.5242589662           -0.0213321722          0.5240418428           -0.0334881390          0.7895163529           -0.0149973439          
19.5902500000          -0.6405458738          0.0436532512           0.5233210490           -0.0224571979          0.5239089051           -0.0345219211          0.7876349083           -0.0153067258          
20.0900000000          -0.6408195026          0.0453538068           0.5235987838           -0.0231868875          0.5239625936           -0.0347671884          0.7890377575           -0.0163452731          
20.5897500000          -0.6407176888          0.0464215056           0.5229034350           -0.0243649104          0.5238705757           -0.0359925393          0.7884463885           -0.0175520413          
21.0895000000          -0.6398092141          0.0465375265           0.5232727047           -0.0247888501          0.5237882053           -0.0368887944          0.7875238028           -0.0176900954          
21.5892500000          -0.6399608379          0.0474740683           0.5236688860           -0.0256076968          0.5234541428           -0.0377442930          0.7890849098           -0.0194971394          
22.0890000000          -0.6398775952          0.0477741840           0.5237932599           -0.0264371161          0.5233869001           -0.0383332662          0.7892442903           -0.0190280514          
22.5887500000          -0.6391724716          0.0483809867           0.5233863934           -0.0266698603          0.5238750546           -0.0389820634          0.7884459516           -0.0198990865          
23.0885000000          -0.6392262906          0.0491868318           0.5230053771           -0.0276968072          0.5233083265           -0.0402991832          0.7884519477           -0.0203446773          
23.5882500000          -0.6400672123          0.0500918939           0.5228356090           -0.0276858108          0.5235171572           -0.0394876282          0.7878001587           -0.0206279228          
24.0880000000          -0.6397633846          0.0506318244           0.5229151488           -0.0282160393          0.5230876920           -0.0410119041          0.7884094761           -0.0221589909          
24.5877500000          -0.6389072673          0.0513325080           0.5224505121           -0.0294715605          0.5234768629           -0.0418484320          0.7883321798           -0.0218742618          
25.0875000000          -0.6390255240          0.0523424918           0.5226039273           -0.0299019038          0.5224578328           -0.0422753648          0.7883887626           -0.0225019456          
25.5872500000          -0.6389834364          0.0526337669           0.5229685422           -0.0303272495          0.5226566041           -0.0432247364          0.7888432007           -0.0235460918          
26.0870000000          -0.6393734684          0.0546577775           0.5240031257           -0.0310956252          0.5232278367           -0.0439624653          0.7880213679           -0.0237700113          
26.5867500000          -0.6392760944          0.0548882895           0.5240212077           -0.0328087914          0.5235095828           -0.0448759141          0.7897868514           -0.0250267518          
27.0865000000          -0.6385156324          0.0555667002           0.5229755251           -0.0329471298          0.5228134483           -0.0452691895          0.7889209160           -0.0261864846          
27.5862500000          -0.6390164818          0.0566107527           0.5232188916           -0.0340904459          0.5232211507           -0.0463560836          0.7893288762           -0.0259984009          
28.0860000000          -0.6392052459          0.0579353872           0.5235466702           -0.0348905497          0.5226252457           -0.0466031998          0.7889199038           -0.0269259042          
28.5857500000          -0.6380835707          0.0575293346           0.5230558120           -0.0359210306          0.5224898967           -0.0481538658          0.7891869590           -0.0277505786          
29.0855000000          -0.6396463332          0.0589957764           0.5231132326           -0.0361193395          0.5227881469           -0.0484293597          0.7888477432           -0.0283710563          
29.5852500000          -0.6386452705          0.0595082392           0.5228413180           -0.0367982698          0.5233926689           -0.0496808207          0.7914909314           -0.0308478114          
30.0850000000          -0.6386076440          0.0600281665           0.5237942329           -0.0383545963          0.5228226283           -0.0502647701          0.7895145830           -0.0306809958          
30.5847500000          -0.6389204143          0.0607607135           0.5226868901           -0.0386963754          0.5219892599           -0.0506938590          0.7892415259           -0.0314638500          
31.0845000000          -0.6385423970          0.0615617065           0.5227196283           -0.0396547319          0.5220361269           -0.0516046504          0.7898970830           -0.0326527041          
31.5842500000          -0.6385220636          0.0618344818           0.5225038939           -0.0405314355          0.5222869009           -0.0526303019          0.7899516174           -0.0339565140          
32.0840000000          -0.6390964638          0.0632684957           0.5230377299           -0.0413748971          0.5215949495           -0.0531938172          0.7886696942           -0.0342971517          
32.5837500000          -0.6376343044          0.0635154396           0.5233600283           -0.0423252446          0.5218646308           -0.0541412434          0.7893873902           -0.0354132064          
33.0835000000          -0.6380906888          0.0644191136           0.5213203926           -0.0425827447          0.5226209401           -0.0550674923          0.7887924306           -0.0362245962          
33.5832500000          -0.6377021203          0.0651533734           0.5220359677           -0.0435541609          0.5205865253           -0.0553666262          0.7881153872           -0.0368942266          
34.0830000000          -0.6372562246          0.0659687720           0.5221916177           -0.0443407026          0.5202634633           -0.0560239857          0.7889784111           -0.0378499681          
34.5827500000          -0.6375872360          0.0667337232           0.5207857353           -0.0447636465          0.5200021472           -0.0567854373          0.7865275775           -0.0382735028          
35.0825000000          -0.6371537250          0.0673614021           0.5207591708           -0.0455521667          0.5204190210           -0.0575301978          0.7868554732           -0.0390577933          
35.5822500000          -0.6378127419          0.0683274095           0.5209794786           -0.0462201315          0.5205808636           -0.0583369914          0.7872207761           -0.0397495688          
36.0820000000          -0.6363078181          0.0689468367           0.5212059413           -0.0469261479          0.5201620668           -0.0589829144          0.7871792272           -0.0406272295          
36.5817500000          -0.6362068766          0.0697184322           0.5209194728           -0.0476952275          0.5207467419           -0.0598569591          0.7861411440           -0.0413478431          
37.0815000000          -0.6371375680          0.0706795222           0.5202146166           -0.0482649663          0.5209406118           -0.0604721182          0.7882821997           -0.0417965465          
37.5812500000          -0.6361865332          0.0711943516           0.5203099076           -0.0489703116          0.5203149970           -0.0611980313          0.7877913239           -0.0425525171          
38.0810000000          -0.6373010176          0.0722718032           0.5202737054           -0.0496573047          0.5189629812           -0.0618009324          0.7856356450           -0.0431876805          
38.5807500000          -0.6353427310          0.0727257419           0.5198946212           -0.0503959410          0.5190003219           -0.0625916154          0.7859541296           -0.0434328956          
39.0805000000          -0.6371429355          0.0735254397           0.5204152238           -0.0510720859          0.5200996854           -0.0630987349          0.7869693546           -0.0444342505          
39.5802500000          -0.6364071629          0.0744528595           0.5193661893           -0.0518096853          0.5196589533           -0.0641856935          0.7860666660           -0.0451028736          
40.0800000000          -0.6366344230          0.0749716661           0.5190693573           -0.0520543864          0.5197022579           -0.0646086940          0.7865710215           -0.0455278685          
40.5797500000          -0.6372644214          0.0759406569           0.5194164348           -0.0528300129          0.5190915942           -0.0650710024          0.7854211487           -0.0461030028          
41.0795000000          -0.6365964579          0.0766584366           0.5191630477           -0.0537146273          0.5190295992           -0.0659246465          0.7859876764           -0.0468033604          
41.5792500000          -0.6350979091          0.0776589213           0.5186261895           -0.0543970293          0.5188116024           -0.0666308960          0.7858441447           -0.0475163881          
42.0790000000          -0.6355165962          0.0782251931           0.5184335172           -0.0550993432          0.5174077104           -0.0672988361          0.7849795668           -0.0480135462          
42.5787500000          -0.6360247030          0.0789779171           0.5188937365           -0.0560111479          0.5182998139           -0.0683155337          0.7860128338           -0.0485333721          
43.0785000000          -0.6362455692          0.0795327076           0.5191128060           -0.0564355795          0.5186593876           -0.0688484475          0.7854560508           -0.0488186303          
43.5782500000          -0.6345312654          0.0805595044           0.5190638404           -0.0575322283          0.5179162152           -0.0693449240          0.7849862648           -0.0498702773          
44.0780000000          -0.6357525684          0.0810175695           0.5183175016           -0.0582242218          0.5175362178           -0.0700811581          0.7850366532           -0.0500244759          
44.5777500000          -0.6350927794          0.0823002193           0.5183452729           -0.0586681780          0.5164934286           -0.0710749971          0.7838328587           -0.0513840897          
45.0775000000          -0.6343877177          0.0828346943           0.5184006036           -0.0592326468          0.5171280502           -0.0711983343          0.7843419802           -0.0514918462          
45.5772500000          -0.6341543575          0.0832699795           0.5178868494           -0.0601120530          0.5172483243           -0.0725298380          0.7844019444           -0.0528268476          
46.0770000000          -0.6340328892          0.0846396457           0.5169787706           -0.0600644105          0.5166575326           -0.0733162948          0.7840238465           -0.0534333259          
46.5767500000          -0.6345121728          0.0851237972           0.5182483943           -0.0614955471          0.5167354814           -0.0733666109          0.7832370100           -0.0538302200          
47.0765000000          -0.6350034251          0.0855209234           0.5172875097           -0.0616681197          0.5165978576           -0.0741544105          0.7843279141           -0.0535140984          
