# MHz S RI R 50 
! S-Parameters data 
! Freq   reS11   imS11   reS21   imS21   reS12   imS12   reS22   imS22 
1.0000000000           0.0051321983           0.0000357628           0.0998191833           -0.0004959106          0.0998306274           -0.0004806519          0.0041365623           0.0000438690           
2.0000000000           0.0051507950           0.0000581741           0.0998153687           -0.0009498596          0.0998039246           -0.0009689331          0.0041532516           0.0000722408           
3.0000000000           0.0051493645           0.0000600815           0.0997962952           -0.0014152527          0.0997848511           -0.0014152527          0.0041654110           0.0000989437           
4.0000000000           0.0051686764           0.0000693798           0.0997657776           -0.0018806458          0.0997848511           -0.0018959045          0.0041956902           0.0001304150           
5.0000000000           0.0051739216           0.0000755787           0.0997505188           -0.0023460388          0.0997772217           -0.0023612976          0.0041916370           0.0001444817           
6.0000000000           0.0051853657           0.0000839233           0.0997505188           -0.0028190613          0.0997428894           -0.0028228760          0.0041985512           0.0001680851           
7.0000000000           0.0051939487           0.0000813007           0.0997428894           -0.0032882690          0.0997276306           -0.0032806396          0.0042107105           0.0001788139           
8.0000000000           0.0051956177           0.0000848770           0.0997085571           -0.0037307739          0.0997085571           -0.0037536621          0.0042223930           0.0001988411           
9.0000000000           0.0052065849           0.0000910759           0.0996932983           -0.0041961670          0.0996932983           -0.0042114258          0.0042300224           0.0002136230           
10.0000000000          0.0052189827           0.0000901222           0.0996551514           -0.0046539307          0.0996780396           -0.0046691895          0.0042462349           0.0002398491           
11.0000000000          0.0052247047           0.0000929832           0.0996475220           -0.0051345825          0.0996704102           -0.0051422119          0.0042524338           0.0002489090           
12.0000000000          0.0052280426           0.0000996590           0.0996170044           -0.0055770874          0.0996246338           -0.0055999756          0.0042686462           0.0002584457           
13.0000000000          0.0052380562           0.0001058578           0.0995941162           -0.0060577393          0.0995941162           -0.0060729980          0.0042738914           0.0002675056           
14.0000000000          0.0052413940           0.0001025200           0.0995483398           -0.0065078735          0.0995635986           -0.0065307617          0.0042915344           0.0002884865           
15.0000000000          0.0052475929           0.0001006126           0.0995330811           -0.0069808960          0.0995407104           -0.0070037842          0.0042982101           0.0003042221           
16.0000000000          0.0052583218           0.0000851154           0.0994796753           -0.0074348450          0.0995025635           -0.0074386597          0.0043144226           0.0003106594           
17.0000000000          0.0052728653           0.0000870228           0.0994567871           -0.0079231262          0.0994644165           -0.0079193115          0.0043196678           0.0003273487           
18.0000000000          0.0052897930           0.0000915527           0.0994110107           -0.0083885193          0.0994186401           -0.0083885193          0.0043232441           0.0003380775           
19.0000000000          0.0052826405           0.0000972748           0.0993576050           -0.0088462830          0.0993881226           -0.0088539124          0.0043368340           0.0003619194           
20.0000000000          0.0052864552           0.0000951290           0.0993423462           -0.0092887878          0.0993347168           -0.0093116760          0.0043482780           0.0003659725           
21.0000000000          0.0053002834           0.0000891685           0.0992736816           -0.0097770691          0.0993041992           -0.0097770691          0.0043768883           0.0003736019           
22.0000000000          0.0053048134           0.0000855923           0.0992507935           -0.0102348328          0.0992507935           -0.0102272034          0.0043783188           0.0003929138           
23.0000000000          0.0053155422           0.0000658035           0.0991973877           -0.0107078552          0.0992050171           -0.0107002258          0.0043885708           0.0004079342           
24.0000000000          0.0053040981           0.0000660419           0.0991439819           -0.0111427307          0.0991439819           -0.0111656189          0.0043950081           0.0004067421           
25.0000000000          0.0053226948           0.0000741482           0.0990905762           -0.0116233826          0.0991172791           -0.0116310120          0.0044164658           0.0004162788           
26.0000000000          0.0053329468           0.0000774860           0.0990295410           -0.0120811462          0.0990524292           -0.0120887756          0.0044369698           0.0004265308           
27.0000000000          0.0053434372           0.0000689030           0.0989761353           -0.0125465393          0.0989761353           -0.0125389099          0.0044562817           0.0004365444           
28.0000000000          0.0053462982           0.0000565052           0.0989227295           -0.0130195618          0.0989303589           -0.0130043030          0.0044679642           0.0004365444           
29.0000000000          0.0053565502           0.0000476837           0.0988540649           -0.0134620667          0.0988693237           -0.0134696960          0.0044677258           0.0004627705           
30.0000000000          0.0053534508           0.0000300407           0.0987854004           -0.0139274597          0.0987930298           -0.0139350891          0.0044777393           0.0004744530           
31.0000000000          0.0053598881           0.0000245571           0.0987243652           -0.0143775940          0.0987091064           -0.0143928528          0.0044736862           0.0004808903           
32.0000000000          0.0053532124           0.0000405312           0.0986480713           -0.0148429871          0.0986709595           -0.0148582458          0.0044965744           0.0004706383           
33.0000000000          0.0053567886           0.0000355244           0.0985946655           -0.0153007507          0.0985946655           -0.0153160095          0.0045032501           0.0005049706           
34.0000000000          0.0053560734           0.0000295639           0.0985107422           -0.0157737732          0.0985107422           -0.0157737732          0.0045058727           0.0005168915           
35.0000000000          0.0053606033           0.0000162125           0.0984191895           -0.0162391663          0.0984420776           -0.0162391663          0.0045273304           0.0005266666           
36.0000000000          0.0053434372           0.0000116825           0.0983581543           -0.0167045593          0.0983581543           -0.0166969299          0.0045301914           0.0005214214           
37.0000000000          0.0053598881           -0.0000038147          0.0982742310           -0.0171470642          0.0982971191           -0.0171699524          0.0045397282           0.0005445480           
38.0000000000          0.0053474903           -0.0000092983          0.0981903076           -0.0176277161          0.0982055664           -0.0176200867          0.0045552254           0.0005562305           
39.0000000000          0.0053672791           -0.0000238419          0.0980987549           -0.0180702209          0.0981216431           -0.0180702209          0.0045454502           0.0005793571           
40.0000000000          0.0053479671           -0.0000228882          0.0980072021           -0.0185356140          0.0980377197           -0.0185279846          0.0045814514           0.0005848408           
41.0000000000          0.0053448677           -0.0000338554          0.0979309082           -0.0189857483          0.0979385376           -0.0189704895          0.0045723915           0.0005888939           
42.0000000000          0.0053570271           -0.0000333786          0.0978546143           -0.0194435120          0.0978546143           -0.0194282532          0.0045790672           0.0006146431           
43.0000000000          0.0053429604           -0.0000445843          0.0977478027           -0.0198936462          0.0977554321           -0.0199012756          0.0045845509           0.0006136894           
44.0000000000          0.0053451061           -0.0000476837          0.0976562500           -0.0203666687          0.0976715088           -0.0203437805          0.0046067238           0.0006275177           
45.0000000000          0.0053339005           -0.0000634193          0.0975646973           -0.0208168030          0.0975646973           -0.0208091736          0.0046086311           0.0006253719           
46.0000000000          0.0053424835           -0.0000596046          0.0974655151           -0.0212593079          0.0974807739           -0.0212821960          0.0046217442           0.0006504059           
47.0000000000          0.0053396225           -0.0000767708          0.0973510742           -0.0217323303          0.0973587036           -0.0217323303          0.0046322346           0.0006525517           
48.0000000000          0.0053269863           -0.0000841618          0.0972518921           -0.0221595764          0.0972595215           -0.0221672058          0.0046617985           0.0006639957           
49.0000000000          0.0053379536           -0.0001049042          0.0971603394           -0.0226402283          0.0971527100           -0.0226325989          0.0046641827           0.0006804466           
50.0000000000          0.0053372383           -0.0000982285          0.0970458984           -0.0230903625          0.0970573425           -0.0230751038          0.0046925545           0.0006883144           
51.0000000000          0.0053379536           -0.0001163483          0.0969314575           -0.0235481262          0.0969429016           -0.0235404968          0.0046780109           0.0006971359           
!$Notes
!GR 20 dB Pad.
!Fresh cal checked with "T check". 
!$State
!Measurement Parameters
!  Measurement Points=51
!  Start Frequency =1 MHz
!  Stop Frequency =51 MHz
!  IF BW=10 Hz
!  Sweep Time=5.2s
!  Averaging: Off
!  Correction = Yes
!  Source Pwr=0 dBm
!  Port 1 Attenuation=0 dB
!  Port 2 Attenuation=0 dB
!  Delay S11 S21=0ps 0 ps
!  Delay S12 S22=0ps 0 ps
!Measurement Time= 14.8 s
