# MHz S RI R 50 
! S-Parameters data 
! Freq   reS11   imS11   reS21   imS21   reS12   imS12   reS22   imS22 
1.0000000000           -0.4877166748          0.2863006592           0.5138244629           0.2810058594           0.5112609863           0.2809753418           -0.4884033203          0.2886962891           
2.0000000000           -0.3797607422          0.1808013916           0.6214294434           0.1694030762           0.6192932129           0.1701049805           -0.3796539307          0.1849670410           
3.0000000000           -0.3543243408          0.1342926025           0.6468505859           0.1173400879           0.6449584961           0.1177673340           -0.3540191650          0.1399536133           
4.0000000000           -0.3444519043          0.1115264893           0.6565246582           0.0887756348           0.6548156738           0.0892944336           -0.3439178467          0.1186828613           
5.0000000000           -0.3394470215          0.0993499756           0.6615600586           0.0709838867           0.6597900391           0.0714721680           -0.3386383057          0.1081695557           
6.0000000000           -0.3362884521          0.0928344727           0.6647033691           0.0585937500           0.6628723145           0.0592651367           -0.3352966309          0.1031951904           
7.0000000000           -0.3339233398          0.0895080566           0.6668090820           0.0496826172           0.6650085449           0.0502014160           -0.3327789307          0.1016235352           
8.0000000000           -0.3320312500          0.0883483887           0.6685180664           0.0427551270           0.6666870117           0.0433959961           -0.3306579590          0.1020355225           
9.0000000000           -0.3302917480          0.0884094238           0.6698913574           0.0371704102           0.6679077148           0.0378112793           -0.3286590576          0.1037750244           
10.0000000000          -0.3288269043          0.0894470215           0.6712036133           0.0325012207           0.6692810059           0.0332336426           -0.3267517090          0.1063537598           
11.0000000000          -0.3274230957          0.0912017822           0.6723632813           0.0285339355           0.6703491211           0.0293884277           -0.3248443604          0.1097869873           
12.0000000000          -0.3258666992          0.0935974121           0.6735229492           0.0249938965           0.6716003418           0.0258483887           -0.3229064941          0.1136322021           
13.0000000000          -0.3243560791          0.0962829590           0.6746520996           0.0220031738           0.6726989746           0.0230102539           -0.3209075928          0.1179809570           
14.0000000000          -0.3227386475          0.0993347168           0.6759643555           0.0192565918           0.6738891602           0.0202941895           -0.3188171387          0.1224517822           
15.0000000000          -0.3210906982          0.1027069092           0.6770629883           0.0166320801           0.6752319336           0.0178833008           -0.3166351318          0.1271667480           
16.0000000000          -0.3194580078          0.1060485840           0.6781616211           0.0151672363           0.6763916016           0.0155029297           -0.3144073486          0.1316680908           
17.0000000000          -0.3176269531          0.1096801758           0.6795349121           0.0131530762           0.6777954102           0.0133361816           -0.3120269775          0.1365966797           
18.0000000000          -0.3157806396          0.1133575439           0.6808166504           0.0108947754           0.6791381836           0.0113220215           -0.3096160889          0.1416168213           
19.0000000000          -0.3137054443          0.1170654297           0.6821899414           0.0087585449           0.6806030273           0.0091857910           -0.3070526123          0.1467742920           
20.0000000000          -0.3116607666          0.1209259033           0.6836853027           0.0068969727           0.6817626953           0.0072937012           -0.3044128418          0.1517639160           
21.0000000000          -0.3094635010          0.1247558594           0.6851196289           0.0048522949           0.6833496094           0.0053405762           -0.3016357422          0.1568450928           
22.0000000000          -0.3072814941          0.1285247803           0.6867980957           0.0029602051           0.6851501465           0.0034179688           -0.2986297607          0.1618499756           
23.0000000000          -0.3050384521          0.1324157715           0.6884155273           0.0010681152           0.6866149902           0.0015258789           -0.2957153320          0.1669921875           
24.0000000000          -0.3025665283          0.1362762451           0.6901550293           -0.0008544922          0.6882324219           -0.0004882813          -0.2926635742          0.1719360352           
25.0000000000          -0.3002014160          0.1400756836           0.6916809082           -0.0028381348          0.6899108887           -0.0023498535          -0.2895507813          0.1768493652           
26.0000000000          -0.2976989746          0.1438140869           0.6931457520           -0.0048522949          0.6914978027           -0.0042724609          -0.2863159180          0.1817169189           
27.0000000000          -0.2951507568          0.1476135254           0.6948852539           -0.0069885254          0.6931762695           -0.0063171387          -0.2831420898          0.1865081787           
28.0000000000          -0.2925262451          0.1513214111           0.6966552734           -0.0089721680          0.6947631836           -0.0083312988          -0.2798004150          0.1913146973           
29.0000000000          -0.2898101807          0.1549987793           0.6982421875           -0.0110168457          0.6965942383           -0.0103149414          -0.2764892578          0.1960144043           
30.0000000000          -0.2870178223          0.1587219238           0.7000427246           -0.0131530762          0.6985168457           -0.0124511719          -0.2730407715          0.2006072998           
31.0000000000          -0.2841491699          0.1622924805           0.7018737793           -0.0155334473          0.7002563477           -0.0147094727          -0.2694091797          0.2050323486           
32.0000000000          -0.2813415527          0.1658630371           0.7037048340           -0.0177001953          0.7020874023           -0.0169372559          -0.2658691406          0.2094879150           
33.0000000000          -0.2785034180          0.1694183350           0.7053833008           -0.0199584961          0.7039184570           -0.0192871094          -0.2623291016          0.2139739990           
34.0000000000          -0.2754364014          0.1729736328           0.7072448730           -0.0223083496          0.7056274414           -0.0214233398          -0.2586059570          0.2183074951           
35.0000000000          -0.2725067139          0.1762695313           0.7090759277           -0.0247802734          0.7075500488           -0.0240173340          -0.2547760010          0.2225494385           
36.0000000000          -0.2692871094          0.1797180176           0.7109069824           -0.0273437500          0.7094726563           -0.0263977051          -0.2509613037          0.2266540527           
37.0000000000          -0.2662506104          0.1830596924           0.7127685547           -0.0296020508          0.7113342285           -0.0288696289          -0.2471084595          0.2306671143           
38.0000000000          -0.2630004883          0.1862792969           0.7145385742           -0.0322265625          0.7131958008           -0.0315551758          -0.2432632446          0.2346572876           
39.0000000000          -0.2598419189          0.1894226074           0.7163696289           -0.0350341797          0.7151489258           -0.0342712402          -0.2392883301          0.2384643555           
40.0000000000          -0.2565155029          0.1925811768           0.7182006836           -0.0377807617          0.7168579102           -0.0369567871          -0.2354354858          0.2421951294           
41.0000000000          -0.2532501221          0.1956176758           0.7200317383           -0.0407409668          0.7188415527           -0.0397338867          -0.2314910889          0.2458953857           
42.0000000000          -0.2498779297          0.1984710693           0.7218322754           -0.0436096191          0.7206420898           -0.0424499512          -0.2275695801          0.2493591309           
43.0000000000          -0.2466201782          0.2014923096           0.7235717773           -0.0464782715          0.7223815918           -0.0454711914          -0.2236175537          0.2527770996           
44.0000000000          -0.2432403564          0.2043228149           0.7253723145           -0.0494079590          0.7242736816           -0.0484313965          -0.2195129395          0.2560577393           
45.0000000000          -0.2398529053          0.2069854736           0.7271728516           -0.0526428223          0.7260131836           -0.0515747070          -0.2155914307          0.2592315674           
46.0000000000          -0.2364044189          0.2097320557           0.7288208008           -0.0557250977          0.7277526855           -0.0546875000          -0.2117309570          0.2623443604           
47.0000000000          -0.2330551147          0.2123718262           0.7302856445           -0.0589294434          0.7294311523           -0.0578613281          -0.2077941895          0.2653961182           
48.0000000000          -0.2295150757          0.2148895264           0.7321166992           -0.0621032715          0.7310791016           -0.0611572266          -0.2037963867          0.2683868408           
49.0000000000          -0.2260818481          0.2174148560           0.7334899902           -0.0655517578          0.7327880859           -0.0644836426          -0.1997985840          0.2713470459           
50.0000000000          -0.2226028442          0.2197875977           0.7352294922           -0.0688781738          0.7344055176           -0.0679016113          -0.1959075928          0.2740020752           
51.0000000000          -0.2191848755          0.2221298218           0.7369079590           -0.0724487305          0.7360229492           -0.0713500977          -0.1920013428          0.2766723633           
!$Notes
!SAB KLM 1:4 Balun
!$State
!Measurement Parameters
!  Measurement Points=51
!  Start Frequency =1 MHz
!  Stop Frequency =51 MHz
!  IF BW=10 Hz
!  Sweep Time=5.2s
!  Averaging: Off
!  Correction = Yes
!  Source Pwr=0 dBm
!  Port 1 Attenuation=0 dB
!  Port 2 Attenuation=0 dB
!  Delay S11 S21=0ps 0 ps
!  Delay S12 S22=0ps 0 ps
!Measurement Time= 14.9 s
