# MHz S RI R 50 
! S-Parameters data 
! Freq   reS11   imS11   reS21   imS21   reS12   imS12   reS22   imS22 
1.0000000000           -0.3490099618          0.0682360814           0.6830179513           -0.0357588848          0.6829337879           -0.0356354387          0.6302128382           0.1021552624           
1.1250000000           -0.3489689862          0.0682335654           0.6830033230           -0.0357512693          0.6829209719           -0.0356275699          0.6302576880           0.1021424289           
1.2500000000           -0.3487152571          0.0680277395           0.6827501371           -0.0357977927          0.6826442681           -0.0356828939          0.6306259438           0.1012790871           
1.3750000000           -0.3477863368          0.0672239189           0.6817135233           -0.0359697676          0.6816586435           -0.0358671179          0.6318315917           0.0978416216           
1.5000000000           -0.3463210394          0.0659377575           0.6802185845           -0.0363521048          0.6801391899           -0.0362458805          0.6339653596           0.0918892072           
1.6250000000           -0.3446216366          0.0646305098           0.6784779133           -0.0369258356          0.6783618373           -0.0368399443          0.6366732477           0.0850138299           
1.7500000000           -0.3430050645          0.0636748790           0.6770030710           -0.0376445053          0.6769472473           -0.0375663477          0.6392152488           0.0784930344           
1.8750000000           -0.3416525425          0.0631848904           0.6758900884           -0.0385063905          0.6758543603           -0.0384168711          0.6413835633           0.0728657019           
2.0000000000           -0.3404975972          0.0630729880           0.6749149652           -0.0394589392          0.6750242110           -0.0393457720          0.6431452385           0.0680891917           
2.1250000000           -0.3395161328          0.0632610036           0.6740406610           -0.0405164990          0.6743409185           -0.0403610905          0.6445576249           0.0639932281           
2.2500000000           -0.3385962780          0.0637022531           0.6732788335           -0.0416411908          0.6737853182           -0.0414720087          0.6457163059           0.0603733737           
2.3750000000           -0.3377338889          0.0643358209           0.6727989770           -0.0428248673          0.6731752444           -0.0426848838          0.6466517615           0.0571778753           
2.5000000000           -0.3369678863          0.0651472866           0.6723584200           -0.0440740210          0.6724655790           -0.0439677842          0.6473481529           0.0543017735           
2.6250000000           -0.3363347503          0.0661009421           0.6719182998           -0.0454027768          0.6717929193           -0.0453067364          0.6480234418           0.0517610257           
2.7500000000           -0.3357543722          0.0671701800           0.6715345913           -0.0467678729          0.6712550582           -0.0466622503          0.6487123333           0.0495265443           
2.8750000000           -0.3351212930          0.0683181253           0.6710995157           -0.0481955512          0.6708067552           -0.0480613146          0.6494553623           0.0475197703           
3.0000000000           -0.3344049026          0.0695574434           0.6705764235           -0.0496623010          0.6704122297           -0.0494904740          0.6500828801           0.0456705226           
3.1250000000           -0.3336737270          0.0708690158           0.6700964718           -0.0511283772          0.6699039371           -0.0509909927          0.6504642447           0.0439211296           
3.2500000000           -0.3330247788          0.0722695667           0.6696782098           -0.0526026189          0.6694194403           -0.0525329350          0.6508733035           0.0423538563           
3.3750000000           -0.3324395302          0.0737193112           0.6693251740           -0.0540819540          0.6691864694           -0.0540466067          0.6513398546           0.0409404466           
3.5000000000           -0.3318793968          0.0752100218           0.6688806934           -0.0556095986          0.6689941860           -0.0555869227          0.6517438761           0.0396142881           
3.6250000000           -0.3313145826          0.0767268172           0.6684324361           -0.0571396919          0.6687244766           -0.0571423082          0.6521592231           0.0384117792           
3.7500000000           -0.3307182932          0.0782791085           0.6682091114           -0.0587037826          0.6683846172           -0.0587124361          0.6524840336           0.0372802380           
3.8750000000           -0.3301121919          0.0799048772           0.6680839876           -0.0602912672          0.6680526961           -0.0603063965          0.6528435448           0.0362349230           
4.0000000000           -0.3295290247          0.0815389371           0.6679207634           -0.0619135228          0.6676742446           -0.0619441415          0.6531657072           0.0352485858           
4.1250000000           -0.3288888684          0.0831953057           0.6674642465           -0.0635343807          0.6672899930           -0.0635559097          0.6533011773           0.0342851582           
4.2500000000           -0.3282858511          0.0848706232           0.6668796463           -0.0652101828          0.6669107153           -0.0651689045          0.6535907059           0.0334620745           
4.3750000000           -0.3276606259          0.0865701512           0.6664124810           -0.0668525004          0.6666722788           -0.0667952398          0.6540255668           0.0327089178           
4.5000000000           -0.3270379092          0.0882825667           0.6660571176           -0.0684566723          0.6663532102           -0.0684205386          0.6543103375           0.0319236373           
4.6250000000           -0.3264863774          0.0900330927           0.6659637656           -0.0700680118          0.6658472450           -0.0701301803          0.6545479169           0.0311840186           
4.7500000000           -0.3259254867          0.0918098077           0.6658197690           -0.0717168308          0.6653935014           -0.0718555130          0.6547103572           0.0304974378           
4.8750000000           -0.3253487420          0.0935886996           0.6655781284           -0.0733856396          0.6651123908           -0.0735592848          0.6548970934           0.0298687684           
5.0000000000           -0.3247913009          0.0953972850           0.6652691255           -0.0750578505          0.6647708700           -0.0752311306          0.6550371520           0.0292280718           
5.1250000000           -0.3242117131          0.0971899803           0.6649206605           -0.0767433888          0.6644783660           -0.0768795640          0.6553005153           0.0286601340           
5.2500000000           -0.3236010318          0.0989942602           0.6645136768           -0.0783778944          0.6642644294           -0.0784970835          0.6557016976           0.0281571605           
5.3750000000           -0.3229338235          0.1008133824           0.6642500675           -0.0800369784          0.6639900206           -0.0801171426          0.6560053345           0.0276872865           
5.5000000000           -0.3222530586          0.1026222055           0.6638613416           -0.0816928464          0.6636641059           -0.0817807347          0.6562969308           0.0272416544           
5.6250000000           -0.3216276456          0.1044414725           0.6635720590           -0.0833649673          0.6633963556           -0.0834055639          0.6564162772           0.0267454355           
5.7500000000           -0.3209836789          0.1062796370           0.6633634187           -0.0850024445          0.6630828870           -0.0851148877          0.6565667400           0.0262686577           
5.8750000000           -0.3202887628          0.1081229808           0.6630708702           -0.0867118786          0.6627459714           -0.0868607208          0.6566911823           0.0258370252           
6.0000000000           -0.3195501966          0.1099549289           0.6626103380           -0.0884147560          0.6623704954           -0.0886024854          0.6568027107           0.0254090202           
6.1250000000           -0.3188280333          0.1117875959           0.6620377851           -0.0900745884          0.6619259031           -0.0903439290          0.6568445626           0.0249534704           
6.2500000000           -0.3181138957          0.1136439808           0.6617061599           -0.0917538060          0.6615685122           -0.0920203031          0.6569742441           0.0245919969           
6.3750000000           -0.3173705655          0.1155095213           0.6614256702           -0.0934428701          0.6612763853           -0.0936712002          0.6572412055           0.0242512465           
6.5000000000           -0.3166847148          0.1173504916           0.6611631459           -0.0951530728          0.6609650280           -0.0953215385          0.6575729591           0.0239797202           
6.6250000000           -0.3159612520          0.1192119774           0.6607790404           -0.0968666863          0.6605751489           -0.0970174543          0.6577232084           0.0236379142           
6.7500000000           -0.3151859646          0.1210678569           0.6604066833           -0.0985660863          0.6602109312           -0.0987460758          0.6577991584           0.0233096165           
6.8750000000           -0.3144417088          0.1229225470           0.6600274906           -0.1002878974          0.6598842568           -0.1004672499          0.6579916979           0.0230471833           
7.0000000000           -0.3137180584          0.1247840415           0.6596360136           -0.1020572841          0.6595151852           -0.1021621344          0.6581753332           0.0227824093           
7.1250000000           -0.3130136378          0.1266553704           0.6593687641           -0.1037475709          0.6591944807           -0.1038491449          0.6583201442           0.0224787009           
7.2500000000           -0.3122543261          0.1285028729           0.6590873260           -0.1054241959          0.6587738612           -0.1055400668          0.6585163928           0.0222232548           
7.3750000000           -0.3114604820          0.1303499698           0.6587038446           -0.1071397493          0.6583494496           -0.1072701258          0.6586374750           0.0219808067           
7.5000000000           -0.3106659435          0.1322050954           0.6582952948           -0.1088378386          0.6579479015           -0.1089807632          0.6588164345           0.0217420355           
7.6250000000           -0.3098740111          0.1340756078           0.6579095690           -0.1105456076          0.6575274970           -0.1106334571          0.6589050722           0.0214790207           
7.7500000000           -0.3091105181          0.1359578967           0.6574587434           -0.1122381872          0.6570855247           -0.1123578647          0.6589898174           0.0212422805           
7.8750000000           -0.3083283284          0.1378403715           0.6570603377           -0.1139328832          0.6566540329           -0.1141092387          0.6589838320           0.0210190104           
8.0000000000           -0.3074696845          0.1397014308           0.6565522381           -0.1156255099          0.6563324699           -0.1158367076          0.6591127394           0.0207548467           
8.1250000000           -0.3065830719          0.1415609624           0.6561375832           -0.1173396061          0.6560620389           -0.1174788147          0.6593497277           0.0205895003           
8.2500000000           -0.3057747059          0.1434285029           0.6558840314           -0.1190369554          0.6556097552           -0.1191497159          0.6595841502           0.0203834108           
8.3750000000           -0.3049883363          0.1452802253           0.6555082323           -0.1207428814          0.6550748063           -0.1208952845          0.6597187535           0.0201340827           
8.5000000000           -0.3041671156          0.1471167820           0.6549420625           -0.1224838750          0.6545244641           -0.1226519020          0.6598250727           0.0198802782           
8.6250000000           -0.3032508251          0.1489175962           0.6544034129           -0.1242377380          0.6540741030           -0.1243621450          0.6599569176           0.0196475524           
8.7500000000           -0.3023433508          0.1507308657           0.6540144069           -0.1259603153          0.6536382519           -0.1261093167          0.6600925362           0.0194406395           
8.8750000000           -0.3014594423          0.1525628233           0.6537101254           -0.1275870503          0.6533033745           -0.1278405927          0.6602756770           0.0192031589           
9.0000000000           -0.3005835610          0.1544140238           0.6534123233           -0.1293299677          0.6529487342           -0.1295738138          0.6603868892           0.0189721601           
9.1250000000           -0.2996764238          0.1562677472           0.6530340543           -0.1310873115          0.6525213031           -0.1312777800          0.6605627295           0.0187815321           
9.2500000000           -0.2987853730          0.1580996443           0.6525980447           -0.1327563176          0.6520549379           -0.1329137573          0.6607627227           0.0186654476           
9.3750000000           -0.2978976745          0.1599281544           0.6521787232           -0.1344128707          0.6516454972           -0.1346002423          0.6610071231           0.0185942969           
9.5000000000           -0.2969833057          0.1617283841           0.6516049620           -0.1360983238          0.6511867783           -0.1363641015          0.6611879610           0.0184519122           
9.6250000000           -0.2960670608          0.1635508059           0.6511108785           -0.1378368749          0.6507895571           -0.1380463386          0.6613074396           0.0182917463           
9.7500000000           -0.2951386196          0.1653431090           0.6506638292           -0.1395590805          0.6502848109           -0.1397301275          0.6614075979           0.0181476543           
9.8750000000           -0.2941290318          0.1671141940           0.6502019797           -0.1411994999          0.6496683713           -0.1413372947          0.6614395768           0.0179741930           
10.0000000000          -0.2931335501          0.1689024587           0.6496743026           -0.1428768807          0.6490919726           -0.1430488662          0.6615956958           0.0177771301           
10.1250000000          -0.2922091412          0.1707139197           0.6491398387           -0.1445735035          0.6485104206           -0.1446982241          0.6618214523           0.0176941574           
10.2500000000          -0.2912998874          0.1725563105           0.6486309089           -0.1462049184          0.6479502145           -0.1463357914          0.6619846564           0.0175656955           
10.3750000000          -0.2903366570          0.1743526111           0.6482292253           -0.1478873849          0.6474465265           -0.1479826440          0.6621383900           0.0173606891           
10.5000000000          -0.2892962485          0.1761356370           0.6477598200           -0.1495712339          0.6470488236           -0.1496582585          0.6622322232           0.0171919878           
10.6250000000          -0.2882008533          0.1779050824           0.6472851499           -0.1512626973          0.6466335406           -0.1514123407          0.6623530812           0.0170815229           
10.7500000000          -0.2871022987          0.1796622124           0.6467742676           -0.1529636873          0.6462579965           -0.1531085619          0.6624198983           0.0169433469           
10.8750000000          -0.2860885731          0.1814405235           0.6463126161           -0.1546318486          0.6457699104           -0.1548064080          0.6624738754           0.0168167922           
11.0000000000          -0.2851180649          0.1831925786           0.6458490395           -0.1563025685          0.6452929482           -0.1564846242          0.6626390281           0.0167243224           
11.1250000000          -0.2840991349          0.1849435896           0.6454116576           -0.1579639483          0.6447549630           -0.1581950116          0.6628573108           0.0166107075           
11.2500000000          -0.2830457818          0.1866865352           0.6448474756           -0.1596316684          0.6442286512           -0.1598841308          0.6630227746           0.0164911485           
11.3750000000          -0.2819261842          0.1884335485           0.6441198370           -0.1613444080          0.6437480391           -0.1615431501          0.6632442088           0.0163446464           
11.5000000000          -0.2808174935          0.1901603360           0.6434682445           -0.1630733605          0.6432009278           -0.1632268888          0.6633815603           0.0161992314           
11.6250000000          -0.2797082097          0.1918958083           0.6429297891           -0.1647272818          0.6425867815           -0.1649335591          0.6635041096           0.0160623020           
11.7500000000          -0.2786233272          0.1936405028           0.6424819548           -0.1663647862          0.6420606147           -0.1666055702          0.6636438358           0.0159127242           
11.8750000000          -0.2775239995          0.1953540064           0.6420131835           -0.1679901052          0.6415217641           -0.1682565528          0.6638508380           0.0157957124           
12.0000000000          -0.2764041089          0.1970529190           0.6414827230           -0.1696566423          0.6409888934           -0.1698984323          0.6640162539           0.0157628105           
12.1250000000          -0.2752672619          0.1987736217           0.6409208361           -0.1713825076          0.6403078950           -0.1715281144          0.6641233127           0.0156588241           
12.2500000000          -0.2741575892          0.2004775883           0.6404876219           -0.1730863125          0.6396868717           -0.1732276769          0.6641189201           0.0155086379           
12.3750000000          -0.2730473589          0.2021642996           0.6400840796           -0.1747184646          0.6391740532           -0.1749035142          0.6642082834           0.0153838027           
12.5000000000          -0.2718818491          0.2038562746           0.6395044977           -0.1763257661          0.6386134612           -0.1765217534          0.6643602659           0.0152871020           
12.6250000000          -0.2706827741          0.2055163315           0.6387868430           -0.1780396409          0.6380293756           -0.1781169734          0.6644942968           0.0151889311           
12.7500000000          -0.2695059032          0.2072041310           0.6381504369           -0.1796964045          0.6374250890           -0.1797569536          0.6646980720           0.0151187501           
