# MHz S RI R 50 
! S-Parameters data 
! Freq   reS11   imS11   reS21   imS21   reS12   imS12   reS22   imS22 
1.0000000000           0.0234375000           0.5656127930           0.5238342285           0.2835388184           0.5216674805           0.2842712402           -0.7330932617          0.1665954590           
2.0000000000           0.2523498535           0.3307189941           0.6405029297           0.1581115723           0.6390991211           0.1594238281           -0.6713867188          0.1236877441           
3.0000000000           0.3065185547           0.2107543945           0.6680908203           0.0915527344           0.6671142578           0.0926513672           -0.6554870605          0.1102294922           
4.0000000000           0.3257141113           0.1391143799           0.6779785156           0.0497741699           0.6771545410           0.0508117676           -0.6480407715          0.1093444824           
5.0000000000           0.3334960938           0.0897369385           0.6820983887           0.0192565918           0.6812133789           0.0202636719           -0.6432495117          0.1141967773           
6.0000000000           0.3361816406           0.0520782471           0.6835632324           -0.0051879883          0.6826477051           -0.0040588379          -0.6390075684          0.1220397949           
7.0000000000           0.3362426758           0.0216369629           0.6837158203           -0.0260009766          0.6828613281           -0.0249023438          -0.6349182129          0.1315612793           
8.0000000000           0.3345336914           -0.0043945313          0.6829528809           -0.0444946289          0.6821594238           -0.0434570313          -0.6307373047          0.1419677734           
9.0000000000           0.3316345215           -0.0271759033          0.6817321777           -0.0614624023          0.6809692383           -0.0603332520          -0.6263732910          0.1529541016           
10.0000000000          0.3277893066           -0.0478820801          0.6800231934           -0.0775756836          0.6792602539           -0.0761413574          -0.6217041016          0.1643371582           
11.0000000000          0.3231964111           -0.0666503906          0.6778869629           -0.0926208496          0.6773071289           -0.0911560059          -0.6167602539          0.1757507324           
12.0000000000          0.3178558350           -0.0841827393          0.6755371094           -0.1069641113          0.6747131348           -0.1056518555          -0.6112670898          0.1871948242           
13.0000000000          0.3119049072           -0.1005401611          0.6726684570           -0.1208801270          0.6720581055           -0.1192932129          -0.6056823730          0.1987304688           
14.0000000000          0.3054351807           -0.1159515381          0.6695556641           -0.1343383789          0.6689453125           -0.1328430176          -0.5997924805          0.2101440430           
15.0000000000          0.2983551025           -0.1305541992          0.6661987305           -0.1474304199          0.6657714844           -0.1459960938          -0.5934448242          0.2212524414           
16.0000000000          0.2908630371           -0.1445007324          0.6626281738           -0.1589965820          0.6622009277           -0.1587524414          -0.5869750977          0.2311706543           
17.0000000000          0.2828063965           -0.1575927734          0.6590270996           -0.1714782715          0.6585083008           -0.1710815430          -0.5803833008          0.2419433594           
18.0000000000          0.2743530273           -0.1703186035          0.6549377441           -0.1837158203          0.6544799805           -0.1833801270          -0.5734558105          0.2524108887           
19.0000000000          0.2652130127           -0.1823730469          0.6505126953           -0.1959228516          0.6503601074           -0.1954345703          -0.5663757324          0.2625122070           
20.0000000000          0.2558898926           -0.1938934326          0.6461791992           -0.2076721191          0.6457824707           -0.2071838379          -0.5589904785          0.2723693848           
21.0000000000          0.2460327148           -0.2048416138          0.6416931152           -0.2193603516          0.6412048340           -0.2188720703          -0.5515136719          0.2820129395           
22.0000000000          0.2357711792           -0.2151641846          0.6366577148           -0.2306823730          0.6362915039           -0.2302551270          -0.5437316895          0.2913513184           
23.0000000000          0.2252044678           -0.2251358032          0.6315002441           -0.2420043945          0.6311645508           -0.2416992188          -0.5360107422          0.3004760742           
24.0000000000          0.2141113281           -0.2345504761          0.6261596680           -0.2531433105          0.6258239746           -0.2527770996          -0.5280151367          0.3091125488           
25.0000000000          0.2026748657           -0.2434310913          0.6206665039           -0.2640686035          0.6203308105           -0.2637023926          -0.5199279785          0.3175964355           
26.0000000000          0.1909332275           -0.2520446777          0.6148681641           -0.2748107910          0.6145324707           -0.2744750977          -0.5119323730          0.3255310059           
27.0000000000          0.1787109375           -0.2599334717          0.6088256836           -0.2854309082          0.6084899902           -0.2851257324          -0.5037841797          0.3333129883           
28.0000000000          0.1661682129           -0.2673797607          0.6026000977           -0.2960205078          0.6021728516           -0.2955017090          -0.4956512451          0.3406372070           
29.0000000000          0.1532135010           -0.2743072510          0.5960388184           -0.3063659668          0.5960388184           -0.3058166504          -0.4875335693          0.3478546143           
30.0000000000          0.1400756836           -0.2805328369          0.5895080566           -0.3164062500          0.5892944336           -0.3160400391          -0.4792785645          0.3547668457           
31.0000000000          0.1264343262           -0.2864227295          0.5824584961           -0.3265380859          0.5823669434           -0.3262634277          -0.4711151123          0.3611907959           
32.0000000000          0.1126556396           -0.2916107178          0.5754394531           -0.3363647461          0.5754394531           -0.3360900879          -0.4628448486          0.3676300049           
33.0000000000          0.0985107422           -0.2963867188          0.5681457520           -0.3459472656          0.5680541992           -0.3458251953          -0.4546966553          0.3738098145           
34.0000000000          0.0842132568           -0.3004913330          0.5607299805           -0.3555297852          0.5606384277           -0.3551025391          -0.4464874268          0.3796234131           
35.0000000000          0.0695800781           -0.3041229248          0.5529785156           -0.3649291992          0.5529785156           -0.3647460938          -0.4382476807          0.3852844238           
36.0000000000          0.0547943115           -0.3068237305          0.5450439453           -0.3740539551          0.5451049805           -0.3738098145          -0.4301452637          0.3906097412           
37.0000000000          0.0398101807           -0.3092498779          0.5371398926           -0.3830871582          0.5371398926           -0.3827209473          -0.4222106934          0.3957519531           
38.0000000000          0.0246276855           -0.3109283447          0.5287780762           -0.3918151855          0.5288085938           -0.3915100098          -0.4141082764          0.4006652832           
39.0000000000          0.0092010498           -0.3120269775          0.5202026367           -0.4006347656          0.5204467773           -0.4001770020          -0.4063873291          0.4053649902           
40.0000000000          -0.0063629150          -0.3124389648          0.5115661621           -0.4089965820          0.5117797852           -0.4086914063          -0.3984527588          0.4098663330           
41.0000000000          -0.0218658447          -0.3122406006          0.5025939941           -0.4172363281          0.5027160645           -0.4168701172          -0.3907623291          0.4140472412           
42.0000000000          -0.0375061035          -0.3112945557          0.4935150146           -0.4251708984          0.4936981201           -0.4248504639          -0.3832550049          0.4181976318           
43.0000000000          -0.0532531738          -0.3097686768          0.4842834473           -0.4329528809          0.4844360352           -0.4326171875          -0.3757324219          0.4219207764           
44.0000000000          -0.0690612793          -0.3076171875          0.4748535156           -0.4405364990          0.4749298096           -0.4400787354          -0.3684387207          0.4257507324           
45.0000000000          -0.0848541260          -0.3047180176          0.4651336670           -0.4480895996          0.4652252197           -0.4476623535          -0.3611755371          0.4291687012           
46.0000000000          -0.1005706787          -0.3011016846          0.4554290771           -0.4550781250          0.4554901123           -0.4547119141          -0.3541412354          0.4326477051           
47.0000000000          -0.1162719727          -0.2968292236          0.4453277588           -0.4619598389          0.4454956055           -0.4615173340          -0.3470458984          0.4359130859           
48.0000000000          -0.1318054199          -0.2919921875          0.4352874756           -0.4685974121          0.4354553223           -0.4682006836          -0.3401031494          0.4390563965           
49.0000000000          -0.1474761963          -0.2863616943          0.4248352051           -0.4749298096          0.4251403809           -0.4746093750          -0.3332824707          0.4422149658           
50.0000000000          -0.1628265381          -0.2801208496          0.4145965576           -0.4810180664          0.4146423340           -0.4808044434          -0.3264617920          0.4451751709           
51.0000000000          -0.1779785156          -0.2731781006          0.4039001465           -0.4871063232          0.4040069580           -0.4866943359          -0.3198852539          0.4480285645           
!$Notes
!SAB Ferrite Rod Balun
!$State
!Measurement Parameters
!  Measurement Points=51
!  Start Frequency =1 MHz
!  Stop Frequency =51 MHz
!  IF BW=10 Hz
!  Sweep Time=5.2s
!  Averaging: Off
!  Correction = Yes
!  Source Pwr=0 dBm
!  Port 1 Attenuation=0 dB
!  Port 2 Attenuation=0 dB
!  Delay S11 S21=0ps 0 ps
!  Delay S12 S22=0ps 0 ps
!Measurement Time= 14.2 s
