# MHz S RI R 50 
! S-Parameters data 
! Freq   reS11   imS11   reS21   imS21   reS12   imS12   reS22   imS22 
1.0000000000           -0.4301147461          0.0205688477           0.8547973633           -0.0184936523          0.8541259766           -0.0180664063          0.2831726074           0.0218811035           
2.0000000000           -0.4302673340          0.0381164551           0.8491210938           -0.0398254395          0.8486633301           -0.0387268066          0.2826385498           0.0396270752           
3.0000000000           -0.4285736084          0.0565185547           0.8459167480           -0.0587158203          0.8455200195           -0.0576171875          0.2884979248           0.0582580566           
4.0000000000           -0.4258880615          0.0749969482           0.8420410156           -0.0773315430          0.8418884277           -0.0762939453          0.2968750000           0.0754547119           
5.0000000000           -0.4223022461          0.0931243896           0.8372802734           -0.0955810547          0.8370666504           -0.0942382813          0.3069915771           0.0909729004           
6.0000000000           -0.4181518555          0.1110992432           0.8317565918           -0.1131591797          0.8316650391           -0.1115417480          0.3184814453           0.1047058105           
7.0000000000           -0.4132995605          0.1287536621           0.8256225586           -0.1298828125          0.8253784180           -0.1282958984          0.3310241699           0.1165161133           
8.0000000000           -0.4078063965          0.1461486816           0.8192138672           -0.1458740234          0.8191528320           -0.1441650391          0.3440246582           0.1264648438           
9.0000000000           -0.4017028809          0.1631164551           0.8121948242           -0.1611938477          0.8122558594           -0.1594238281          0.3573913574           0.1344604492           
10.0000000000          -0.3949279785          0.1799011230           0.8052978516           -0.1759643555          0.8052978516           -0.1741333008          0.3708496094           0.1405639648           
11.0000000000          -0.3880920410          0.1960449219           0.7976074219           -0.1903076172          0.7979125977           -0.1879272461          0.3836059570           0.1455688477           
12.0000000000          -0.3804626465          0.2119750977           0.7901611328           -0.2039184570          0.7903442383           -0.2016601563          0.3962402344           0.1489868164           
13.0000000000          -0.3723144531          0.2276306152           0.7822875977           -0.2171630859          0.7828369141           -0.2144775391          0.4082641602           0.1513671875           
14.0000000000          -0.3638000488          0.2427978516           0.7744140625           -0.2298583984          0.7750854492           -0.2272338867          0.4197387695           0.1527099609           
15.0000000000          -0.3547973633          0.2575988770           0.7664794922           -0.2421264648          0.7672119141           -0.2394409180          0.4304809570           0.1533813477           
16.0000000000          -0.3454589844          0.2721557617           0.7588500977           -0.2517089844          0.7598876953           -0.2514648438          0.4401245117           0.1546630859           
17.0000000000          -0.3356323242          0.2861633301           0.7509155273           -0.2631225586          0.7520141602           -0.2631225586          0.4498291016           0.1542968750           
18.0000000000          -0.3253173828          0.2998046875           0.7427978516           -0.2741699219          0.7440185547           -0.2740478516          0.4588623047           0.1531982422           
19.0000000000          -0.3146362305          0.3129272461           0.7346191406           -0.2853393555          0.7359008789           -0.2850341797          0.4674072266           0.1519165039           
20.0000000000          -0.3034667969          0.3255920410           0.7265014648           -0.2957153320          0.7277221680           -0.2953491211          0.4756469727           0.1503906250           
21.0000000000          -0.2920227051          0.3378601074           0.7182006836           -0.3059082031          0.7197265625           -0.3057250977          0.4832153320           0.1485595703           
22.0000000000          -0.2803039551          0.3494262695           0.7099609375           -0.3159179688          0.7115478516           -0.3155517578          0.4904785156           0.1466064453           
23.0000000000          -0.2681884766          0.3608093262           0.7016601563           -0.3256835938          0.7029418945           -0.3254394531          0.4973144531           0.1444091797           
24.0000000000          -0.2558593750          0.3714904785           0.6931762695           -0.3348999023          0.6947631836           -0.3347167969          0.5038452148           0.1423950195           
25.0000000000          -0.2431640625          0.3818969727           0.6849975586           -0.3440551758          0.6865234375           -0.3441162109          0.5102539063           0.1398315430           
26.0000000000          -0.2303771973          0.3913879395           0.6763916016           -0.3530273438          0.6780395508           -0.3528442383          0.5161743164           0.1373291016           
27.0000000000          -0.2173156738          0.4006652832           0.6679077148           -0.3617553711          0.6696777344           -0.3616333008          0.5219116211           0.1347656250           
28.0000000000          -0.2041320801          0.4094543457           0.6595458984           -0.3700561523          0.6611938477           -0.3701171875          0.5273437500           0.1321411133           
29.0000000000          -0.1907348633          0.4175415039           0.6508789063           -0.3782958984          0.6528320313           -0.3784179688          0.5324096680           0.1291503906           
30.0000000000          -0.1771850586          0.4252014160           0.6422119141           -0.3862915039          0.6442260742           -0.3865356445          0.5373535156           0.1262817383           
31.0000000000          -0.1633605957          0.4325561523           0.6334838867           -0.3941650391          0.6355590820           -0.3942871094          0.5420532227           0.1237182617           
32.0000000000          -0.1495971680          0.4389648438           0.6249389648           -0.4016113281          0.6270751953           -0.4018554688          0.5468139648           0.1208496094           
33.0000000000          -0.1355590820          0.4452209473           0.6161499023           -0.4089965820          0.6184692383           -0.4093017578          0.5514526367           0.1179199219           
34.0000000000          -0.1216430664          0.4506835938           0.6075439453           -0.4161987305          0.6098022461           -0.4165649414          0.5559692383           0.1148071289           
35.0000000000          -0.1077575684          0.4558410645           0.5987548828           -0.4230957031          0.6009521484           -0.4237060547          0.5601806641           0.1115722656           
36.0000000000          -0.0938110352          0.4603576660           0.5900878906           -0.4299316406          0.5922851563           -0.4303588867          0.5640869141           0.1083984375           
37.0000000000          -0.0797729492          0.4645996094           0.5815124512           -0.4364929199          0.5835876465           -0.4371032715          0.5681762695           0.1051025391           
38.0000000000          -0.0658721924          0.4681701660           0.5727233887           -0.4426269531          0.5747985840           -0.4432678223          0.5717468262           0.1018676758           
39.0000000000          -0.0519256592          0.4713439941           0.5641174316           -0.4487915039          0.5661926270           -0.4494628906          0.5753479004           0.0985412598           
40.0000000000          -0.0379180908          0.4740295410           0.5553283691           -0.4548034668          0.5574340820           -0.4555053711          0.5787963867           0.0952148438           
41.0000000000          -0.0242004395          0.4760894775           0.5465698242           -0.4605102539          0.5488281250           -0.4612426758          0.5820007324           0.0918884277           
42.0000000000          -0.0103454590          0.4777984619           0.5379943848           -0.4660644531          0.5401000977           -0.4668579102          0.5852966309           0.0883178711           
43.0000000000          0.0030822754           0.4791564941           0.5292663574           -0.4713745117          0.5314636230           -0.4722595215          0.5881652832           0.0847778320           
44.0000000000          0.0166778564           0.4801483154           0.5205383301           -0.4765014648          0.5228881836           -0.4775695801          0.5911865234           0.0812072754           
45.0000000000          0.0299682617           0.4805297852           0.5120544434           -0.4816589355          0.5141296387           -0.4828186035          0.5938415527           0.0775756836           
46.0000000000          0.0432739258           0.4804687500           0.5035095215           -0.4864807129          0.5056152344           -0.4876708984          0.5963745117           0.0740661621           
47.0000000000          0.0565185547           0.4801025391           0.4949035645           -0.4912719727          0.4970397949           -0.4926147461          0.5988159180           0.0702209473           
48.0000000000          0.0693359375           0.4794311523           0.4863891602           -0.4956054688          0.4883880615           -0.4969787598          0.6013183594           0.0666198730           
49.0000000000          0.0820922852           0.4783325195           0.4778594971           -0.4999847412          0.4798583984           -0.5015258789          0.6036376953           0.0628967285           
50.0000000000          0.0948181152           0.4767456055           0.4694824219           -0.5042724609          0.4715576172           -0.5057067871          0.6058654785           0.0590820313           
51.0000000000          0.1069335938           0.4747924805           0.4611511230           -0.5083923340          0.4629821777           -0.5100097656          0.6079101563           0.0552062988           
!$Notes
!Commercial Balun #1
!SAB 
!$State
!Measurement Parameters
!  Measurement Points=51
!  Start Frequency =1 MHz
!  Stop Frequency =51 MHz
!  IF BW=10 Hz
!  Sweep Time=5.2s
!  Averaging: Off
!  Correction = Yes
!  Source Pwr=0 dBm
!  Port 1 Attenuation=0 dB
!  Port 2 Attenuation=0 dB
!  Delay S11 S21=0ps 0 ps
!  Delay S12 S22=0ps 0 ps
!Measurement Time= 14.7 s
