# MHz S RI R 50 
! S-Parameters data 
! Freq   reS11   imS11   reS21   imS21   reS12   imS12   reS22   imS22 
1.0000000000           0.0344848633           0.5680541992           0.5186157227           0.2772827148           0.5186767578           0.2771606445           -0.7377929688          0.1525268555           
2.0000000000           0.2617187500           0.3279113770           0.6321105957           0.1496276855           0.6321411133           0.1494140625           -0.6802368164          0.1012878418           
3.0000000000           0.3141174316           0.2058105469           0.6578369141           0.0812988281           0.6577758789           0.0809936523           -0.6664123535          0.0797729492           
4.0000000000           0.3317108154           0.1331024170           0.6661071777           0.0375976563           0.6662597656           0.0373840332           -0.6611938477          0.0705261230           
5.0000000000           0.3381347656           0.0829162598           0.6687316895           0.0054626465           0.6687316895           0.0052490234           -0.6586608887          0.0669860840           
6.0000000000           0.3393554688           0.0447540283           0.6690368652           -0.0207519531          0.6688537598           -0.0210266113          -0.6572570801          0.0664062500           
7.0000000000           0.3380279541           0.0138854980           0.6676940918           -0.0432434082          0.6676635742           -0.0435791016          -0.6564331055          0.0674133301           
8.0000000000           0.3349304199           -0.0124359131          0.6653442383           -0.0636596680          0.6653137207           -0.0639038086          -0.6559448242          0.0697021484           
9.0000000000           0.3305358887           -0.0355529785          0.6624450684           -0.0823669434          0.6624755859           -0.0826416016          -0.6556701660          0.0727233887           
10.0000000000          0.3251800537           -0.0560607910          0.6587829590           -0.0998535156          0.6590270996           -0.1002502441          -0.6553344727          0.0763549805           
11.0000000000          0.3188629150           -0.0749206543          0.6549072266           -0.1166687012          0.6549987793           -0.1169433594          -0.6553649902          0.0801696777           
12.0000000000          0.3118438721           -0.0922851563          0.6502380371           -0.1326904297          0.6502990723           -0.1329040527          -0.6553649902          0.0844421387           
13.0000000000          0.3041076660           -0.1082000732          0.6453552246           -0.1480102539          0.6452941895           -0.1484375000          -0.6553039551          0.0890197754           
14.0000000000          0.2957611084           -0.1230010986          0.6399536133           -0.1628723145          0.6398620605           -0.1631469727          -0.6553344727          0.0936584473           
15.0000000000          0.2868194580           -0.1367492676          0.6342468262           -0.1774291992          0.6341552734           -0.1777343750          -0.6555175781          0.0987243652           
16.0000000000          0.2772369385           -0.1495513916          0.6278991699           -0.1917724609          0.6279602051           -0.1915588379          -0.6556091309          0.1041870117           
17.0000000000          0.2673339844           -0.1614379883          0.6213989258           -0.2056579590          0.6212768555           -0.2054443359          -0.6557312012          0.1094055176           
18.0000000000          0.2567291260           -0.1724243164          0.6143798828           -0.2188415527          0.6143188477           -0.2187500000          -0.6558532715          0.1149597168           
19.0000000000          0.2459182739           -0.1824874878          0.6072998047           -0.2318420410          0.6070556641           -0.2317199707          -0.6561584473          0.1206054688           
20.0000000000          0.2345199585           -0.1918334961          0.5995483398           -0.2445373535          0.5993041992           -0.2444458008          -0.6563720703          0.1261901855           
21.0000000000          0.2227401733           -0.2002487183          0.5913696289           -0.2567443848          0.5911254883           -0.2566833496          -0.6565246582          0.1321716309           
22.0000000000          0.2107620239           -0.2078399658          0.5830078125           -0.2687683105          0.5827331543           -0.2687377930          -0.6567077637          0.1381835938           
23.0000000000          0.1985092163           -0.2145462036          0.5742492676           -0.2806091309          0.5740661621           -0.2805480957          -0.6568298340          0.1441650391           
24.0000000000          0.1858596802           -0.2205200195          0.5649719238           -0.2921447754          0.5647277832           -0.2920227051          -0.6572265625          0.1504516602           
25.0000000000          0.1732788086           -0.2254028320          0.5556030273           -0.3031616211          0.5553894043           -0.3029785156          -0.6573791504          0.1566772461           
26.0000000000          0.1604690552           -0.2296447754          0.5459289551           -0.3139038086          0.5458068848           -0.3137512207          -0.6575317383          0.1630859375           
27.0000000000          0.1474761963           -0.2329940796          0.5357666016           -0.3243713379          0.5357055664           -0.3242797852          -0.6578063965          0.1697692871           
28.0000000000          0.1345520020           -0.2355270386          0.5254211426           -0.3345336914          0.5253295898           -0.3344726563          -0.6578369141          0.1764221191           
29.0000000000          0.1215667725           -0.2371139526          0.5147399902           -0.3443298340          0.5145568848           -0.3441772461          -0.6579284668          0.1832275391           
30.0000000000          0.1086273193           -0.2379074097          0.5036926270           -0.3536987305          0.5036010742           -0.3536682129          -0.6578674316          0.1901550293           
31.0000000000          0.0958557129           -0.2377243042          0.4924468994           -0.3629302979          0.4922943115           -0.3626708984          -0.6579284668          0.1972351074           
32.0000000000          0.0834732056           -0.2366180420          0.4808959961           -0.3715515137          0.4808502197           -0.3714447021          -0.6577148438          0.2045593262           
33.0000000000          0.0713195801           -0.2349319458          0.4692687988           -0.3800048828          0.4691467285           -0.3798065186          -0.6577758789          0.2119750977           
34.0000000000          0.0592803955           -0.2323226929          0.4570465088           -0.3880004883          0.4569702148           -0.3879394531          -0.6575927734          0.2195739746           
35.0000000000          0.0478134155           -0.2289962769          0.4446868896           -0.3958587646          0.4446563721           -0.3956146240          -0.6573486328          0.2271118164           
36.0000000000          0.0367584229           -0.2247924805          0.4322509766           -0.4031677246          0.4321289063           -0.4030303955          -0.6571655273          0.2350769043           
37.0000000000          0.0262374878           -0.2199020386          0.4193572998           -0.4102172852          0.4193878174           -0.4100341797          -0.6567382813          0.2429809570           
38.0000000000          0.0163345337           -0.2142410278          0.4062500000           -0.4168853760          0.4063110352           -0.4166870117          -0.6562500000          0.2511596680           
39.0000000000          0.0070343018           -0.2080612183          0.3928985596           -0.4231262207          0.3928833008           -0.4228820801          -0.6558227539          0.2595520020           
40.0000000000          -0.0013961792          -0.2011260986          0.3793334961           -0.4290466309          0.3793945313           -0.4288177490          -0.6549377441          0.2678833008           
41.0000000000          -0.0090713501          -0.1935577393          0.3657684326           -0.4345855713          0.3656311035           -0.4343261719          -0.6542358398          0.2765197754           
42.0000000000          -0.0158843994          -0.1856613159          0.3517150879           -0.4397888184          0.3517608643           -0.4395294189          -0.6532897949          0.2854003906           
43.0000000000          -0.0217590332          -0.1773071289          0.3375396729           -0.4445037842          0.3374786377           -0.4442443848          -0.6521606445          0.2942810059           
44.0000000000          -0.0266494751          -0.1686782837          0.3229217529           -0.4489288330          0.3230590820           -0.4486541748          -0.6508483887          0.3034057617           
45.0000000000          -0.0304565430          -0.1598358154          0.3082885742           -0.4529266357          0.3082733154           -0.4527740479          -0.6494750977          0.3127746582           
46.0000000000          -0.0331878662          -0.1508636475          0.2934722900           -0.4566040039          0.2934417725           -0.4564514160          -0.6479797363          0.3222351074           
47.0000000000          -0.0346603394          -0.1417846680          0.2781677246           -0.4597015381          0.2782897949           -0.4596862793          -0.6459350586          0.3319396973           
48.0000000000          -0.0350189209          -0.1330261230          0.2629089355           -0.4626159668          0.2628173828           -0.4624481201          -0.6440734863          0.3416442871           
49.0000000000          -0.0341262817          -0.1243820190          0.2471923828           -0.4649963379          0.2472229004           -0.4647827148          -0.6418151855          0.3517150879           
50.0000000000          -0.0319747925          -0.1161575317          0.2312316895           -0.4670257568          0.2312164307           -0.4667358398          -0.6393737793          0.3619689941           
51.0000000000          -0.0285110474          -0.1084976196          0.2150726318           -0.4685974121          0.2151184082           -0.4682312012          -0.6365966797          0.3723144531           
!$Notes
!SAB  1:1 Voltage Balun. Large Red Core. Cal 3 hours ago certified with T check at the time.
!$State
!Measurement Parameters
!  Measurement Points=51
!  Start Frequency =1 MHz
!  Stop Frequency =51 MHz
!  IF BW=10 Hz
!  Sweep Time=5.2s
!  Averaging: Off
!  Correction = Yes
!  Source Pwr=0 dBm
!  Port 1 Attenuation=0 dB
!  Port 2 Attenuation=0 dB
!  Delay S11 S21=0ps 0 ps
!  Delay S12 S22=0ps 0 ps
!Measurement Time= 14.6 s
