# MHz S RI R 50 
! S-Parameters data 
! Freq   reS11   imS11   reS21   imS21   reS12   imS12   reS22   imS22 
1.0000000000           0.3282165527           0.0021972656           0.6726074219           -0.0324707031          0.6743774414           -0.0324401855          0.3262329102           0.0157318115           
2.0000000000           0.3286743164           -0.0186462402          0.6697082520           -0.0418090820          0.6716003418           -0.0416870117          0.3278198242           0.0086669922           
3.0000000000           0.3278350830           -0.0347290039          0.6681518555           -0.0557250977          0.6699829102           -0.0557250977          0.3287200928           0.0061187744           
4.0000000000           0.3259735107           -0.0498352051          0.6663513184           -0.0708923340          0.6682128906           -0.0709838867          0.3294067383           0.0047454834           
5.0000000000           0.3234405518           -0.0641326904          0.6642150879           -0.0864868164          0.6660156250           -0.0866088867          0.3300323486           0.0037231445           
6.0000000000           0.3200378418           -0.0782470703          0.6617736816           -0.1023254395          0.6633911133           -0.1023559570          0.3306884766           0.0028381348           
7.0000000000           0.3160552979           -0.0920867920          0.6589660645           -0.1180725098          0.6604919434           -0.1183166504          0.3312683105           0.0025482178           
8.0000000000           0.3113861084           -0.1054382324          0.6556396484           -0.1337890625          0.6573181152           -0.1340637207          0.3318481445           0.0018920898           
9.0000000000           0.3060455322           -0.1185150146          0.6521301270           -0.1495361328          0.6537475586           -0.1499938965          0.3325042725           0.0011291504           
10.0000000000          0.3000793457           -0.1314544678          0.6480712891           -0.1654663086          0.6497192383           -0.1657714844          0.3330688477           0.0005493164           
11.0000000000          0.2934417725           -0.1439514160          0.6436767578           -0.1810913086          0.6454162598           -0.1814880371          0.3337860107           0.0000000000           
12.0000000000          0.2862091064           -0.1560974121          0.6388854980           -0.1966247559          0.6404724121           -0.1972045898          0.3343658447           -0.0006713867          
13.0000000000          0.2783203125           -0.1679687500          0.6336669922           -0.2121276855          0.6354675293           -0.2127380371          0.3351593018           -0.0012664795          
14.0000000000          0.2700195313           -0.1793212891          0.6282958984           -0.2274780273          0.6299133301           -0.2281494141          0.3359222412           -0.0019073486          
15.0000000000          0.2610321045           -0.1903686523          0.6222839355           -0.2426147461          0.6241455078           -0.2434082031          0.3365936279           -0.0024261475          
16.0000000000          0.2516784668           -0.2008972168          0.6162414551           -0.2571411133          0.6178894043           -0.2585754395          0.3373260498           -0.0027770996          
17.0000000000          0.2417068481           -0.2111740112          0.6098022461           -0.2720947266          0.6113891602           -0.2736511230          0.3381195068           -0.0034790039          
18.0000000000          0.2312698364           -0.2206802368          0.6028747559           -0.2868957520          0.6043701172           -0.2885131836          0.3388366699           -0.0042419434          
19.0000000000          0.2203292847           -0.2297363281          0.5954895020           -0.3014831543          0.5970764160           -0.3033752441          0.3397369385           -0.0051727295          
20.0000000000          0.2090072632           -0.2384948730          0.5879211426           -0.3160705566          0.5892639160           -0.3177490234          0.3405914307           -0.0059967041          
21.0000000000          0.1972427368           -0.2466049194          0.5800170898           -0.3303833008          0.5812988281           -0.3323364258          0.3414154053           -0.0070800781          
22.0000000000          0.1850280762           -0.2541809082          0.5715637207           -0.3446044922          0.5728149414           -0.3464050293          0.3423919678           -0.0079498291          
23.0000000000          0.1725311279           -0.2612609863          0.5627441406           -0.3586120605          0.5639038086           -0.3605346680          0.3433074951           -0.0090942383          
24.0000000000          0.1596679688           -0.2676391602          0.5538024902           -0.3724365234          0.5546875000           -0.3743896484          0.3442687988           -0.0101928711          
25.0000000000          0.1463317871           -0.2735443115          0.5444030762           -0.3860168457          0.5453491211           -0.3879699707          0.3451843262           -0.0114440918          
26.0000000000          0.1328582764           -0.2787628174          0.5344848633           -0.3993225098          0.5353393555           -0.4013977051          0.3459930420           -0.0127410889          
27.0000000000          0.1188659668           -0.2833099365          0.5242919922           -0.4124755859          0.5250854492           -0.4146423340          0.3469696045           -0.0140075684          
28.0000000000          0.1048583984           -0.2873229980          0.5138549805           -0.4255676270          0.5144958496           -0.4276733398          0.3477478027           -0.0156097412          
29.0000000000          0.0906372070           -0.2906341553          0.5029602051           -0.4381408691          0.5036315918           -0.4403686523          0.3486022949           -0.0171356201          
30.0000000000          0.0761108398           -0.2932891846          0.4918670654           -0.4505004883          0.4922943115           -0.4528503418          0.3493804932           -0.0186920166          
31.0000000000          0.0614776611           -0.2952270508          0.4802398682           -0.4628448486          0.4806671143           -0.4650115967          0.3501586914           -0.0202941895          
32.0000000000          0.0465850830           -0.2965545654          0.4683532715           -0.4747161865          0.4687805176           -0.4769439697          0.3509216309           -0.0219573975          
33.0000000000          0.0318603516           -0.2970428467          0.4561309814           -0.4862060547          0.4564361572           -0.4886016846          0.3517761230           -0.0235595703          
34.0000000000          0.0167846680           -0.2969055176          0.4435119629           -0.4977111816          0.4437255859           -0.4997253418          0.3525390625           -0.0254364014          
35.0000000000          0.0018463135           -0.2960205078          0.4306640625           -0.5087280273          0.4307556152           -0.5108947754          0.3532257080           -0.0272827148          
36.0000000000          -0.0130462646          -0.2944641113          0.4175109863           -0.5193176270          0.4174194336           -0.5215454102          0.3539581299           -0.0292205811          
37.0000000000          -0.0279693604          -0.2921905518          0.4041137695           -0.5296936035          0.4038391113           -0.5317382813          0.3545989990           -0.0311737061          
38.0000000000          -0.0428619385          -0.2891845703          0.3902587891           -0.5396118164          0.3900146484           -0.5416564941          0.3551330566           -0.0332183838          
39.0000000000          -0.0576629639          -0.2854461670          0.3761291504           -0.5492858887          0.3759155273           -0.5512084961          0.3557434082           -0.0352783203          
40.0000000000          -0.0721588135          -0.2811889648          0.3618164063           -0.5585937500          0.3614501953           -0.5603942871          0.3561401367           -0.0372467041          
41.0000000000          -0.0866241455          -0.2760009766          0.3471374512           -0.5675354004          0.3468322754           -0.5693054199          0.3563995361           -0.0395050049          
42.0000000000          -0.1009368896          -0.2702026367          0.3322753906           -0.5762023926          0.3318786621           -0.5777282715          0.3567504883           -0.0417633057          
43.0000000000          -0.1148376465          -0.2637329102          0.3170166016           -0.5840759277          0.3165893555           -0.5858154297          0.3568572998           -0.0441131592          
44.0000000000          -0.1286010742          -0.2565460205          0.3017883301           -0.5917968750          0.3011474609           -0.5935668945          0.3570556641           -0.0464172363          
45.0000000000          -0.1419067383          -0.2487335205          0.2862243652           -0.5991516113          0.2853698730           -0.6007080078          0.3569793701           -0.0487670898          
46.0000000000          -0.1548919678          -0.2402343750          0.2704467773           -0.6058959961          0.2695617676           -0.6076049805          0.3569488525           -0.0511016846          
47.0000000000          -0.1677551270          -0.2311553955          0.2543640137           -0.6123046875          0.2534179688           -0.6139221191          0.3568115234           -0.0535278320          
48.0000000000          -0.1799621582          -0.2214660645          0.2381591797           -0.6182556152          0.2371520996           -0.6198425293          0.3567810059           -0.0559082031          
49.0000000000          -0.1917572021          -0.2112274170          0.2218627930           -0.6237182617          0.2207946777           -0.6252136230          0.3565216064           -0.0582580566          
50.0000000000          -0.2032012939          -0.2003021240          0.2053833008           -0.6288452148          0.2042541504           -0.6300659180          0.3562469482           -0.0606231689          
51.0000000000          -0.2140502930          -0.1889495850          0.1885681152           -0.6336059570          0.1875610352           -0.6347656250          0.3557739258           -0.0632324219          
!$Notes
!SAB Choke Balun EMI snap on core
!$State
!Measurement Parameters
!  Measurement Points=51
!  Start Frequency =1 MHz
!  Stop Frequency =51 MHz
!  IF BW=10 Hz
!  Sweep Time=5.2s
!  Averaging: Off
!  Correction = Yes
!  Source Pwr=0 dBm
!  Port 1 Attenuation=0 dB
!  Port 2 Attenuation=0 dB
!  Delay S11 S21=0ps 0 ps
!  Delay S12 S22=0ps 0 ps
!Measurement Time= 14.3 s
