# MHz S RI R 50 
! S-Parameters data 
! Freq   reS11   imS11   reS21   imS21   reS12   imS12   reS22   imS22 
1.0000000000           0.0329360962           0.1007385254           -0.0751495361          -0.2014465332          -0.0744781494          -0.2009429932          -0.8507385254          0.4217529297           
2.0000000000           0.1078491211           0.1480865479           -0.2235107422          -0.2976379395          -0.2220764160          -0.2979431152          -0.5567321777          0.6366271973           
3.0000000000           0.1747741699           0.1521606445           -0.3558959961          -0.3078002930          -0.3547363281          -0.3090209961          -0.2932128906          0.6815185547           
4.0000000000           0.2221069336           0.1365661621           -0.4501342773          -0.2797851563          -0.4495849609          -0.2813720703          -0.1046752930          0.6500854492           
5.0000000000           0.2535095215           0.1152648926           -0.5131225586          -0.2402343750          -0.5128784180          -0.2420654297          0.0221557617           0.5956420898           
6.0000000000           0.2741394043           0.0935363770           -0.5548706055          -0.1997070313          -0.5551757813          -0.2017211914          0.1080322266           0.5392456055           
7.0000000000           0.2878417969           0.0730590820           -0.5832519531          -0.1621093750          -0.5838012695          -0.1638183594          0.1673583984           0.4879760742           
8.0000000000           0.2969665527           0.0544128418           -0.6025390625          -0.1278686523          -0.6035766602          -0.1296386719          0.2095336914           0.4432373047           
9.0000000000           0.3029479980           0.0374450684           -0.6162719727          -0.0969238281          -0.6174316406          -0.0984497070          0.2404174805           0.4049072266           
10.0000000000          0.3068847656           0.0218811035           -0.6259765625          -0.0686645508          -0.6273193359          -0.0701293945          0.2635498047           0.3720092773           
11.0000000000          0.3090515137           0.0075378418           -0.6326293945          -0.0427246094          -0.6340942383          -0.0440673828          0.2815551758           0.3436889648           
12.0000000000          0.3100585938           -0.0056457520          -0.6371459961          -0.0187988281          -0.6387939453          -0.0200805664          0.2957153320           0.3192138672           
13.0000000000          0.3101806641           -0.0180358887          -0.6401367188          0.0031738281           -0.6418457031          0.0020751953           0.3070068359           0.2979125977           
14.0000000000          0.3095397949           -0.0296173096          -0.6419067383          0.0241088867           -0.6436462402          0.0231018066           0.3164367676           0.2792358398           
15.0000000000          0.3083038330           -0.0405731201          -0.6427612305          0.0438232422           -0.6445007324          0.0427856445           0.3239746094           0.2627258301           
16.0000000000          0.3065338135           -0.0509948730          -0.6426696777          0.0617675781           -0.6446228027          0.0616149902           0.3300170898           0.2484436035           
17.0000000000          0.3042907715           -0.0609588623          -0.6422424316          0.0795288086           -0.6442565918          0.0795593262           0.3355712891           0.2354125977           
18.0000000000          0.3017272949           -0.0703277588          -0.6409912109          0.0966186523           -0.6430664063          0.0967407227           0.3403015137           0.2236938477           
19.0000000000          0.2987213135           -0.0793457031          -0.6393127441          0.1131286621           -0.6415100098          0.1133117676           0.3444519043           0.2130432129           
20.0000000000          0.2955627441           -0.0881347656          -0.6373291016          0.1290893555           -0.6393127441          0.1292114258           0.3482055664           0.2034912109           
21.0000000000          0.2920989990           -0.0964660645          -0.6348876953          0.1443786621           -0.6370239258          0.1448669434           0.3516235352           0.1948242188           
22.0000000000          0.2881774902           -0.1045684814          -0.6322326660          0.1593322754           -0.6342773438          0.1597290039           0.3546752930           0.1867370605           
23.0000000000          0.2841796875           -0.1123046875          -0.6289978027          0.1738891602           -0.6310119629          0.1744689941           0.3576049805           0.1794738770           
24.0000000000          0.2799224854           -0.1197967529          -0.6258544922          0.1880798340           -0.6276855469          0.1886596680           0.3601989746           0.1726379395           
25.0000000000          0.2753753662           -0.1270599365          -0.6222229004          0.2017517090           -0.6241149902          0.2025451660           0.3627319336           0.1661987305           
26.0000000000          0.2706909180           -0.1340332031          -0.6183166504          0.2153930664           -0.6202392578          0.2162475586           0.3650207520           0.1602783203           
27.0000000000          0.2657623291           -0.1407775879          -0.6141662598          0.2286682129           -0.6161804199          0.2296447754           0.3671264648           0.1548156738           
28.0000000000          0.2606353760           -0.1472625732          -0.6099548340          0.2417602539           -0.6117858887          0.2428283691           0.3691406250           0.1495056152           
29.0000000000          0.2552947998           -0.1535644531          -0.6052856445          0.2545776367           -0.6072082520          0.2558288574           0.3710327148           0.1445617676           
30.0000000000          0.2497177124           -0.1596755981          -0.6005249023          0.2671813965           -0.6023559570          0.2685546875           0.3729858398           0.1398315430           
31.0000000000          0.2440032959           -0.1654891968          -0.5955505371          0.2796936035           -0.5974426270          0.2810058594           0.3747863770           0.1353759766           
32.0000000000          0.2380523682           -0.1711578369          -0.5903930664          0.2918701172           -0.5921936035          0.2934265137           0.3764953613           0.1311645508           
33.0000000000          0.2321090698           -0.1764755249          -0.5848388672          0.3039550781           -0.5867614746          0.3055419922           0.3783569336           0.1271667480           
34.0000000000          0.2257614136           -0.1816635132          -0.5792846680          0.3158569336           -0.5810852051          0.3173217773           0.3800048828           0.1232910156           
35.0000000000          0.2193450928           -0.1865539551          -0.5734558105          0.3276062012           -0.5750427246          0.3291931152           0.3816986084           0.1194610596           
36.0000000000          0.2128067017           -0.1912460327          -0.5674743652          0.3391418457           -0.5690612793          0.3405456543           0.3832550049           0.1159515381           
37.0000000000          0.2060623169           -0.1957626343          -0.5613403320          0.3503417969           -0.5628051758          0.3520202637           0.3849334717           0.1123809814           
38.0000000000          0.1991806030           -0.1999816895          -0.5548706055          0.3615112305           -0.5562438965          0.3630371094           0.3864135742           0.1090087891           
39.0000000000          0.1921997070           -0.2039871216          -0.5483703613          0.3726501465           -0.5496215820          0.3743286133           0.3879547119           0.1057434082           
40.0000000000          0.1851425171           -0.2077560425          -0.5414428711          0.3833923340           -0.5426025391          0.3850708008           0.3893585205           0.1024627686           
41.0000000000          0.1778335571           -0.2113342285          -0.5345764160          0.3941040039           -0.5357666016          0.3958129883           0.3907470703           0.0992736816           
42.0000000000          0.1704330444           -0.2145156860          -0.5273437500          0.4046630859           -0.5285339355          0.4063720703           0.3921051025           0.0961303711           
43.0000000000          0.1630249023           -0.2176284790          -0.5200805664          0.4150695801           -0.5211486816          0.4167785645           0.3932800293           0.0931701660           
44.0000000000          0.1553649902           -0.2203979492          -0.5125427246          0.4252014160           -0.5136718750          0.4270629883           0.3945922852           0.0901031494           
45.0000000000          0.1475830078           -0.2229766846          -0.5048522949          0.4354248047           -0.5057678223          0.4372253418           0.3958129883           0.0871582031           
46.0000000000          0.1399383545           -0.2252655029          -0.4969177246          0.4451293945           -0.4977722168          0.4472198486           0.3969421387           0.0840759277           
47.0000000000          0.1319351196           -0.2273101807          -0.4886932373          0.4548797607           -0.4897918701          0.4570312500           0.3981475830           0.0812225342           
48.0000000000          0.1240005493           -0.2291717529          -0.4806365967          0.4644317627           -0.4814147949          0.4664306641           0.3992919922           0.0783233643           
49.0000000000          0.1159820557           -0.2307128906          -0.4721221924          0.4737854004           -0.4728851318          0.4759063721           0.4003295898           0.0755157471           
50.0000000000          0.1078109741           -0.2319335938          -0.4636993408          0.4830322266           -0.4642639160          0.4850006104           0.4014129639           0.0727081299           
51.0000000000          0.0996093750           -0.2330474854          -0.4549713135          0.4922943115           -0.4554138184          0.4942779541           0.4023742676           0.0698547363           
!$Notes
!SAB Choke Balun 2x Yellow Cores
!$State
!Measurement Parameters
!  Measurement Points=51
!  Start Frequency =1 MHz
!  Stop Frequency =51 MHz
!  IF BW=10 Hz
!  Sweep Time=5.2s
!  Averaging: Off
!  Correction = Yes
!  Source Pwr=0 dBm
!  Port 1 Attenuation=0 dB
!  Port 2 Attenuation=0 dB
!  Delay S11 S21=0ps 0 ps
!  Delay S12 S22=0ps 0 ps
!Measurement Time= 14.3 s
