# MHz S RI R 50 
! S-Parameters data 
! Freq   reS11   imS11   reS21   imS21   reS12   imS12   reS22   imS22 
1.0000000000           -0.4299621582          0.0205688477           0.8547363281           -0.0186157227          0.8540649414           -0.0182495117          0.2832641602           0.0219116211           
2.0000000000           -0.4301757813          0.0382080078           0.8491821289           -0.0399475098          0.8486022949           -0.0389709473          0.2826995850           0.0395812988           
3.0000000000           -0.4282989502          0.0566406250           0.8458557129           -0.0588989258          0.8453369141           -0.0578613281          0.2885437012           0.0581970215           
4.0000000000           -0.4256134033          0.0751495361           0.8417968750           -0.0775756836          0.8415832520           -0.0764770508          0.2968139648           0.0754241943           
5.0000000000           -0.4221496582          0.0933074951           0.8370361328           -0.0957641602          0.8367614746           -0.0944824219          0.3069152832           0.0909729004           
6.0000000000           -0.4179534912          0.1112823486           0.8313903809           -0.1133422852          0.8312377930           -0.1118469238          0.3183441162           0.1047821045           
7.0000000000           -0.4130554199          0.1289672852           0.8251953125           -0.1300048828          0.8250122070           -0.1285400391          0.3308410645           0.1165771484           
8.0000000000           -0.4075927734          0.1463928223           0.8186035156           -0.1460571289          0.8184814453           -0.1442871094          0.3438110352           0.1265563965           
9.0000000000           -0.4014892578          0.1634216309           0.8117065430           -0.1611938477          0.8117065430           -0.1594848633          0.3572082520           0.1345825195           
10.0000000000          -0.3951110840          0.1799316406           0.8042602539           -0.1762084961          0.8044433594           -0.1738281250          0.3702392578           0.1411132813           
11.0000000000          -0.3878479004          0.1963195801           0.7971801758           -0.1900634766          0.7973022461           -0.1879882813          0.3834838867           0.1458129883           
12.0000000000          -0.3800964355          0.2123107910           0.7894287109           -0.2036132813          0.7897949219           -0.2015991211          0.3960571289           0.1492309570           
13.0000000000          -0.3720397949          0.2279357910           0.7817382813           -0.2167358398          0.7822875977           -0.2144775391          0.4080200195           0.1516113281           
14.0000000000          -0.3634643555          0.2430419922           0.7739257813           -0.2294311523          0.7744750977           -0.2271728516          0.4195556641           0.1530761719           
15.0000000000          -0.3543701172          0.2579040527           0.7658691406           -0.2416992188          0.7667236328           -0.2393798828          0.4302978516           0.1536865234           
16.0000000000          -0.3450317383          0.2724304199           0.7583007813           -0.2515869141          0.7592163086           -0.2512817383          0.4401855469           0.1549072266           
17.0000000000          -0.3351440430          0.2864685059           0.7503662109           -0.2630615234          0.7514038086           -0.2626953125          0.4497680664           0.1544189453           
18.0000000000          -0.3248596191          0.3000793457           0.7423706055           -0.2741088867          0.7434692383           -0.2737426758          0.4589233398           0.1534423828           
19.0000000000          -0.3141479492          0.3131408691           0.7343139648           -0.2850341797          0.7354736328           -0.2846679688          0.4675292969           0.1521606445           
20.0000000000          -0.3031616211          0.3258666992           0.7261962891           -0.2954711914          0.7274169922           -0.2950439453          0.4756469727           0.1506958008           
21.0000000000          -0.2915954590          0.3379516602           0.7179565430           -0.3056640625          0.7194824219           -0.3054809570          0.4833984375           0.1488037109           
22.0000000000          -0.2800903320          0.3496093750           0.7098999023           -0.3156127930          0.7113037109           -0.3153076172          0.4907836914           0.1468505859           
23.0000000000          -0.2678527832          0.3609008789           0.7015991211           -0.3254394531          0.7027587891           -0.3253173828          0.4975585938           0.1445312500           
24.0000000000          -0.2554931641          0.3716430664           0.6931152344           -0.3348999023          0.6944580078           -0.3346557617          0.5039672852           0.1423950195           
25.0000000000          -0.2429199219          0.3819580078           0.6849365234           -0.3439941406          0.6863403320           -0.3436889648          0.5104980469           0.1399536133           
26.0000000000          -0.2300720215          0.3915405273           0.6763305664           -0.3528442383          0.6779785156           -0.3526000977          0.5164184570           0.1373901367           
27.0000000000          -0.2171325684          0.4008483887           0.6679077148           -0.3616943359          0.6696166992           -0.3613891602          0.5222778320           0.1348876953           
28.0000000000          -0.2038269043          0.4095764160           0.6594848633           -0.3701171875          0.6612548828           -0.3698730469          0.5275878906           0.1322021484           
29.0000000000          -0.1906127930          0.4176635742           0.6509399414           -0.3782348633          0.6527709961           -0.3782348633          0.5326538086           0.1292724609           
30.0000000000          -0.1770629883          0.4254150391           0.6422729492           -0.3862915039          0.6441650391           -0.3862915039          0.5377197266           0.1264648438           
31.0000000000          -0.1633605957          0.4325561523           0.6336059570           -0.3941650391          0.6355590820           -0.3941650391          0.5421752930           0.1236572266           
32.0000000000          -0.1495361328          0.4390869141           0.6250610352           -0.4016723633          0.6268920898           -0.4017333984          0.5469970703           0.1208496094           
33.0000000000          -0.1357421875          0.4452819824           0.6163330078           -0.4090576172          0.6182861328           -0.4093017578          0.5518188477           0.1177978516           
34.0000000000          -0.1217041016          0.4509277344           0.6077270508           -0.4163208008          0.6097412109           -0.4165039063          0.5562133789           0.1146850586           
35.0000000000          -0.1078186035          0.4559020996           0.5989379883           -0.4231567383          0.6010742188           -0.4235839844          0.5603027344           0.1115722656           
36.0000000000          -0.0938415527          0.4605407715           0.5902099609           -0.4299926758          0.5924072266           -0.4303588867          0.5643310547           0.1083984375           
37.0000000000          -0.0798797607          0.4647521973           0.5815429688           -0.4364624023          0.5836486816           -0.4369812012          0.5683593750           0.1050720215           
38.0000000000          -0.0659332275          0.4682312012           0.5727233887           -0.4426879883          0.5747985840           -0.4432067871          0.5718078613           0.1018066406           
39.0000000000          -0.0519714355          0.4715270996           0.5641174316           -0.4489135742          0.5663452148           -0.4493408203          0.5755310059           0.0985412598           
40.0000000000          -0.0381164551          0.4741363525           0.5553894043           -0.4549255371          0.5575561523           -0.4555664063          0.5789489746           0.0951538086           
41.0000000000          -0.0243988037          0.4763183594           0.5466918945           -0.4606323242          0.5487060547           -0.4612426758          0.5821228027           0.0917053223           
42.0000000000          -0.0106964111          0.4780731201           0.5380859375           -0.4662475586          0.5401611328           -0.4670410156          0.5852966309           0.0882873535           
43.0000000000          0.0028686523           0.4793395996           0.5293273926           -0.4715881348          0.5313720703           -0.4724731445          0.5881652832           0.0846557617           
44.0000000000          0.0164337158           0.4802703857           0.5206604004           -0.4767456055          0.5228881836           -0.4777526855          0.5912475586           0.0811157227           
45.0000000000          0.0299072266           0.4806213379           0.5121154785           -0.4818420410          0.5140380859           -0.4829101563          0.5938110352           0.0774230957           
46.0000000000          0.0430603027           0.4807434082           0.5035705566           -0.4867858887          0.5056152344           -0.4877929688          0.5964050293           0.0738830566           
47.0000000000          0.0560607910           0.4804382324           0.4949340820           -0.4914093018          0.4969024658           -0.4925994873          0.5990295410           0.0700683594           
48.0000000000          0.0691223145           0.4794921875           0.4863891602           -0.4960784912          0.4885101318           -0.4972229004          0.6013183594           0.0665588379           
49.0000000000          0.0818786621           0.4784240723           0.4779052734           -0.5003356934          0.4798583984           -0.5017700195          0.6036987305           0.0628356934           
50.0000000000          0.0944519043           0.4769592285           0.4694213867           -0.5046997070          0.4713745117           -0.5059204102          0.6058654785           0.0590209961           
51.0000000000          0.1068115234           0.4750061035           0.4610290527           -0.5088195801          0.4629821777           -0.5102539063          0.6078491211           0.0550842285           
!$Notes
!SAB Commercial Balun #1
!$State
!Measurement Parameters
!  Measurement Points=51
!  Start Frequency =1 MHz
!  Stop Frequency =51 MHz
!  IF BW=10 Hz
!  Sweep Time=5.2s
!  Averaging: Off
!  Correction = Yes
!  Source Pwr=0 dBm
!  Port 1 Attenuation=0 dB
!  Port 2 Attenuation=0 dB
!  Delay S11 S21=0ps 0 ps
!  Delay S12 S22=0ps 0 ps
!Measurement Time= 14.6 s
