# MHz S RI R 50 
! S-Parameters data 
! Freq   reS11   imS11   reS21   imS21   reS12   imS12   reS22   imS22 
1.0000000000           -0.3500061035          0.0687255859           0.6843872070           -0.0357666016          0.6849975586           -0.0357055664          0.6314697266           0.1023559570           
1.2500000000           -0.3457641602          0.0648651123           0.6803283691           -0.0368957520          0.6810302734           -0.0368652344          0.6382751465           0.0849609375           
1.5000000000           -0.3429870605          0.0635375977           0.6777648926           -0.0384216309          0.6784057617           -0.0383300781          0.6424865723           0.0729370117           
1.7500000000           -0.3408050537          0.0636901855           0.6759033203           -0.0403442383          0.6766357422           -0.0403747559          0.6455688477           0.0640563965           
2.0000000000           -0.3390808105          0.0648498535           0.6744995117           -0.0425720215          0.6754150391           -0.0427246094          0.6476135254           0.0571289063           
2.2500000000           -0.3375701904          0.0664825439           0.6733398438           -0.0452575684          0.6741943359           -0.0452880859          0.6491088867           0.0517883301           
2.5000000000           -0.3362579346          0.0688171387           0.6724853516           -0.0480041504          0.6732177734           -0.0480041504          0.6503295898           0.0475158691           
2.7500000000           -0.3349609375          0.0713195801           0.6715393066           -0.0508728027          0.6723632813           -0.0509033203          0.6513061523           0.0440368652           
3.0000000000           -0.3337097168          0.0741271973           0.6708984375           -0.0538024902          0.6717224121           -0.0538635254          0.6522216797           0.0411682129           
3.2500000000           -0.3325500488          0.0772247314           0.6701049805           -0.0569763184          0.6710205078           -0.0569152832          0.6528930664           0.0386352539           
3.5000000000           -0.3313598633          0.0802917480           0.6695251465           -0.0598754883          0.6702880859           -0.0599670410          0.6535949707           0.0363159180           
3.7500000000           -0.3300781250          0.0836181641           0.6687011719           -0.0630493164          0.6695861816           -0.0632324219          0.6540222168           0.0345764160           
4.0000000000           -0.3289184570          0.0870361328           0.6681823730           -0.0663757324          0.6689147949           -0.0664062500          0.6545715332           0.0330505371           
4.2500000000           -0.3277740479          0.0904388428           0.6676330566           -0.0695800781          0.6683959961           -0.0697326660          0.6550598145           0.0314025879           
4.5000000000           -0.3265228271          0.0939941406           0.6669921875           -0.0729064941          0.6676635742           -0.0730590820          0.6555175781           0.0302734375           
4.7500000000           -0.3252716064          0.0976257324           0.6663513184           -0.0761718750          0.6669311523           -0.0764465332          0.6559143066           0.0289916992           
5.0000000000           -0.3239440918          0.1012420654           0.6656188965           -0.0794982910          0.6665344238           -0.0795288086          0.6563415527           0.0280151367           
5.2500000000           -0.3227081299          0.1048889160           0.6650695801           -0.0828247070          0.6657714844           -0.0828857422          0.6566162109           0.0270996094           
5.5000000000           -0.3213806152          0.1085205078           0.6643981934           -0.0862121582          0.6651916504           -0.0862426758          0.6570434570           0.0262451172           
5.7500000000           -0.3200836182          0.1121978760           0.6638793945           -0.0895080566          0.6644592285           -0.0895996094          0.6574707031           0.0255126953           
6.0000000000           -0.3186492920          0.1158752441           0.6631164551           -0.0928955078          0.6638793945           -0.0930175781          0.6577453613           0.0249328613           
6.2500000000           -0.3171691895          0.1196289063           0.6624755859           -0.0962829590          0.6631774902           -0.0963439941          0.6580505371           0.0242614746           
6.5000000000           -0.3157196045          0.1233062744           0.6617126465           -0.0997314453          0.6624755859           -0.0996704102          0.6583557129           0.0236816406           
6.7500000000           -0.3142395020          0.1270599365           0.6608886719           -0.1029052734          0.6617126465           -0.1030883789          0.6585388184           0.0230712891           
7.0000000000           -0.3125915527          0.1306915283           0.6601257324           -0.1062927246          0.6609497070           -0.1063842773          0.6587829590           0.0226135254           
7.2500000000           -0.3110656738          0.1345214844           0.6594848633           -0.1098022461          0.6601257324           -0.1098937988          0.6591491699           0.0221862793           
7.5000000000           -0.3095245361          0.1382141113           0.6588439941           -0.1131286621          0.6593933105           -0.1132202148          0.6594238281           0.0217895508           
7.7500000000           -0.3078002930          0.1419067383           0.6579284668           -0.1165771484          0.6586608887           -0.1166381836          0.6595764160           0.0212097168           
8.0000000000           -0.3062133789          0.1457214355           0.6571350098           -0.1201477051          0.6578063965           -0.1199645996          0.6599121094           0.0210266113           
8.2500000000           -0.3044738770          0.1492767334           0.6563110352           -0.1233215332          0.6570434570           -0.1231994629          0.6602478027           0.0207214355           
8.5000000000           -0.3026733398          0.1529693604           0.6553955078           -0.1265563965          0.6560974121           -0.1268005371          0.6605224609           0.0203857422           
8.7500000000           -0.3009185791          0.1566619873           0.6546936035           -0.1299743652          0.6552734375           -0.1301574707          0.6607360840           0.0199279785           
9.0000000000           -0.2989959717          0.1603240967           0.6535339355           -0.1333923340          0.6544799805           -0.1333923340          0.6610412598           0.0196838379           
9.2500000000           -0.2971191406          0.1640014648           0.6527099609           -0.1367187500          0.6535949707           -0.1367492676          0.6614379883           0.0192565918           
9.5000000000           -0.2952728271          0.1676177979           0.6518554688           -0.1400146484          0.6527099609           -0.1401977539          0.6615905762           0.0191345215           
9.7500000000           -0.2933807373          0.1711883545           0.6510314941           -0.1434326172          0.6517944336           -0.1436157227          0.6618652344           0.0187683105           
10.0000000000          -0.2914123535          0.1747436523           0.6500549316           -0.1466674805          0.6505737305           -0.1468200684          0.6620178223           0.0187377930           
10.2500000000          -0.2894744873          0.1784210205           0.6492919922           -0.1502685547          0.6498718262           -0.1502380371          0.6623840332           0.0184020996           
10.5000000000          -0.2874145508          0.1818389893           0.6484069824           -0.1534423828          0.6486816406           -0.1534729004          0.6627807617           0.0182189941           
10.7500000000          -0.2852630615          0.1854705811           0.6471557617           -0.1567687988          0.6479492188           -0.1571044922          0.6630554199           0.0180053711           
11.0000000000          -0.2831573486          0.1890106201           0.6461181641           -0.1601257324          0.6466064453           -0.1601562500          0.6630859375           0.0178527832           
11.2500000000          -0.2809906006          0.1925354004           0.6451721191           -0.1635742188          0.6457214355           -0.1637268066          0.6633605957           0.0175170898           
11.5000000000          -0.2788696289          0.1961059570           0.6440734863           -0.1669616699          0.6446533203           -0.1669006348          0.6636657715           0.0174255371           
11.7500000000          -0.2765960693          0.1992950439           0.6429748535           -0.1700744629          0.6435852051           -0.1702575684          0.6639709473           0.0172119141           
12.0000000000          -0.2742462158          0.2028808594           0.6417846680           -0.1733398438          0.6423034668           -0.1735534668          0.6641540527           0.0169982910           
12.2500000000          -0.2720184326          0.2060852051           0.6405944824           -0.1766357422          0.6412658691           -0.1765136719          0.6644897461           0.0170593262           
12.5000000000          -0.2697753906          0.2095184326           0.6397399902           -0.1796264648          0.6401977539           -0.1800231934          0.6646728516           0.0168457031           
12.7500000000          -0.2673187256          0.2129211426           0.6386413574           -0.1829528809          0.6391601563           -0.1831970215          0.6649780273           0.0167846680           
13.0000000000          -0.2649383545          0.2162628174           0.6373291016           -0.1864013672          0.6376953125           -0.1867980957          0.6651611328           0.0163574219           
13.2500000000          -0.2623901367          0.2196502686           0.6360168457           -0.1898498535          0.6369018555           -0.1900329590          0.6656188965           0.0163269043           
13.5000000000          -0.2600402832          0.2229003906           0.6347656250           -0.1931152344          0.6357116699           -0.1932373047          0.6658325195           0.0161743164           
13.7500000000          -0.2574615479          0.2260894775           0.6336669922           -0.1961975098          0.6343078613           -0.1963806152          0.6661071777           0.0158996582           
14.0000000000          -0.2550201416          0.2292327881           0.6325988770           -0.1992492676          0.6329650879           -0.1997070313          0.6663818359           0.0159606934           
14.2500000000          -0.2523498535          0.2324218750           0.6311645508           -0.2025756836          0.6318359375           -0.2029418945          0.6666259766           0.0156860352           
14.5000000000          -0.2497711182          0.2357025146           0.6298217773           -0.2058105469          0.6304931641           -0.2062988281          0.6668090820           0.0156250000           
14.7500000000          -0.2472076416          0.2385864258           0.6285400391           -0.2087402344          0.6290893555           -0.2092285156          0.6670532227           0.0155639648           
15.0000000000          -0.2444305420          0.2418136597           0.6272583008           -0.2121582031          0.6278076172           -0.2127685547          0.6675109863           0.0151367188           
15.2500000000          -0.2419128418          0.2449493408           0.6260375977           -0.2155151367          0.6265258789           -0.2159423828          0.6677246094           0.0151977539           
15.5000000000          -0.2391967773          0.2480010986           0.6248168945           -0.2183837891          0.6252441406           -0.2186889648          0.6679687500           0.0151977539           
15.7500000000          -0.2363586426          0.2510375977           0.6234130859           -0.2216796875          0.6236572266           -0.2224731445          0.6683349609           0.0149536133           
16.0000000000          -0.2332458496          0.2521972656           0.6203613281           -0.2242431641          0.6209716797           -0.2236938477          0.6669921875           0.0148925781           
16.2500000000          -0.2304077148          0.2551574707           0.6190185547           -0.2274169922          0.6193847656           -0.2267456055          0.6673583984           0.0147094727           
16.5000000000          -0.2275390625          0.2580871582           0.6175537109           -0.2305908203          0.6179809570           -0.2299194336          0.6675415039           0.0145263672           
16.7500000000          -0.2247009277          0.2609863281           0.6161499023           -0.2337646484          0.6165161133           -0.2330932617          0.6678466797           0.0143432617           
17.0000000000          -0.2217407227          0.2638244629           0.6146240234           -0.2368164063          0.6150512695           -0.2362670898          0.6680908203           0.0142822266           
17.2500000000          -0.2188110352          0.2666320801           0.6130981445           -0.2400512695          0.6135253906           -0.2393798828          0.6684570313           0.0140991211           
17.5000000000          -0.2158508301          0.2694091797           0.6115112305           -0.2430419922          0.6119995117           -0.2424926758          0.6687011719           0.0139160156           
17.7500000000          -0.2128906250          0.2721557617           0.6100463867           -0.2462158203          0.6105957031           -0.2455444336          0.6689453125           0.0137939453           
18.0000000000          -0.2098388672          0.2748718262           0.6084594727           -0.2493286133          0.6088867188           -0.2487182617          0.6691894531           0.0135498047           
18.2500000000          -0.2067871094          0.2776184082           0.6068725586           -0.2523803711          0.6074218750           -0.2517700195          0.6694335938           0.0133666992           
18.5000000000          -0.2037048340          0.2802429199           0.6053466797           -0.2554321289          0.6057739258           -0.2548828125          0.6698608398           0.0131225586           
18.7500000000          -0.2005920410          0.2828674316           0.6037597656           -0.2584838867          0.6041870117           -0.2580566406          0.6700439453           0.0130004883           
19.0000000000          -0.1974792480          0.2854309082           0.6021728516           -0.2614746094          0.6026611328           -0.2609863281          0.6703491211           0.0128173828           
19.2500000000          -0.1943054199          0.2879943848           0.6004638672           -0.2645263672          0.6010131836           -0.2640380859          0.6706542969           0.0126953125           
19.5000000000          -0.1911315918          0.2904968262           0.5987548828           -0.2675170898          0.5993652344           -0.2669677734          0.6708984375           0.0125122070           
19.7500000000          -0.1879882813          0.2929077148           0.5971069336           -0.2705078125          0.5975952148           -0.2700195313          0.6710815430           0.0122680664           
20.0000000000          -0.1847839355          0.2953796387           0.5953979492           -0.2734985352          0.5958862305           -0.2730712891          0.6714477539           0.0120849609           
20.2500000000          -0.1815490723          0.2978210449           0.5937500000           -0.2765502930          0.5942993164           -0.2761230469          0.6717529297           0.0119018555           
20.5000000000          -0.1781921387          0.3001708984           0.5919799805           -0.2795410156          0.5925903320           -0.2790527344          0.6719360352           0.0117797852           
20.7500000000          -0.1748962402          0.3024902344           0.5902709961           -0.2824707031          0.5908203125           -0.2819824219          0.6721801758           0.0115966797           
21.0000000000          -0.1716003418          0.3047790527           0.5885620117           -0.2854003906          0.5891113281           -0.2849731445          0.6726074219           0.0114135742           
21.2500000000          -0.1682434082          0.3070678711           0.5868530273           -0.2884521484          0.5872802734           -0.2879638672          0.6729736328           0.0111694336           
21.5000000000          -0.1649475098          0.3092651367           0.5850830078           -0.2913818359          0.5855102539           -0.2908935547          0.6730346680           0.0109252930           
21.7500000000          -0.1615295410          0.3114318848           0.5831298828           -0.2942504883          0.5837402344           -0.2937011719          0.6734619141           0.0108642578           
22.0000000000          -0.1581115723          0.3135681152           0.5813598633           -0.2971191406          0.5819091797           -0.2966308594          0.6737670898           0.0106201172           
22.2500000000          -0.1546936035          0.3157043457           0.5795288086           -0.3000488281          0.5800781250           -0.2994995117          0.6740112305           0.0104980469           
22.5000000000          -0.1512451172          0.3178100586           0.5776977539           -0.3029785156          0.5781860352           -0.3023681641          0.6742553711           0.0103149414           
22.7500000000          -0.1478271484          0.3197631836           0.5758056641           -0.3057861328          0.5764160156           -0.3052978516          0.6745605469           0.0100708008           
23.0000000000          -0.1443176270          0.3218078613           0.5739746094           -0.3085937500          0.5744628906           -0.3081054688          0.6748657227           0.0098876953           
23.2500000000          -0.1408081055          0.3237304688           0.5720825195           -0.3114624023          0.5726318359           -0.3110351563          0.6751708984           0.0095214844           
23.5000000000          -0.1372985840          0.3256835938           0.5702514648           -0.3143920898          0.5707397461           -0.3138427734          0.6754150391           0.0093383789           
23.7500000000          -0.1337585449          0.3275146484           0.5681152344           -0.3171386719          0.5687866211           -0.3167114258          0.6757202148           0.0090942383           
24.0000000000          -0.1302185059          0.3294067383           0.5661621094           -0.3199462891          0.5668334961           -0.3195190430          0.6759033203           0.0089111328           
24.2500000000          -0.1266479492          0.3312377930           0.5642089844           -0.3226928711          0.5650024414           -0.3222656250          0.6762695313           0.0087890625           
24.5000000000          -0.1230773926          0.3329467773           0.5624389648           -0.3255004883          0.5629272461           -0.3249511719          0.6763916016           0.0086059570           
