# MHz S RI R 50 
! S-Parameters data 
! Freq   reS11   imS11   reS21   imS21   reS12   imS12   reS22   imS22 
1.0000000000           0.0381622314           0.0999755859           0.9629821777           -0.1138305664          0.9631042480           -0.1139831543          0.0356445313           0.1008682251           
2.0000000000           0.1124114990           0.1468811035           0.8907775879           -0.1771240234          0.8909301758           -0.1771240234          0.1049652100           0.1524505615           
3.0000000000           0.1784973145           0.1508331299           0.8262329102           -0.1986083984          0.8260803223           -0.1986694336          0.1670379639           0.1642150879           
4.0000000000           0.2250671387           0.1354827881           0.7800292969           -0.2017211914          0.7801513672           -0.2016906738          0.2111663818           0.1580657959           
5.0000000000           0.2558441162           0.1146087646           0.7485046387           -0.1992492676          0.7486877441           -0.1994628906          0.2409362793           0.1467285156           
6.0000000000           0.2759399414           0.0934143066           0.7269897461           -0.1967773438          0.7268676758           -0.1967773438          0.2611389160           0.1349792480           
7.0000000000           0.2893066406           0.0736389160           0.7116699219           -0.1953125000          0.7116699219           -0.1954956055          0.2753601074           0.1245422363           
8.0000000000           0.2981567383           0.0555419922           0.7001953125           -0.1956787109          0.7001953125           -0.1957397461          0.2856750488           0.1156616211           
9.0000000000           0.3040466309           0.0391845703           0.6914672852           -0.1973266602          0.6914672852           -0.1973876953          0.2934265137           0.1082458496           
10.0000000000          0.3076477051           0.0241699219           0.6842041016           -0.2004394531          0.6842041016           -0.2005615234          0.2994689941           0.1020202637           
11.0000000000          0.3097534180           0.0104064941           0.6781005859           -0.2046508789          0.6782226563           -0.2047729492          0.3043212891           0.0968627930           
12.0000000000          0.3107604980           -0.0022888184          0.6726074219           -0.2095947266          0.6726684570           -0.2096557617          0.3084106445           0.0925903320           
13.0000000000          0.3107299805           -0.0141906738          0.6679687500           -0.2155456543          0.6678466797           -0.2156372070          0.3119201660           0.0890197754           
14.0000000000          0.3101196289           -0.0252990723          0.6633911133           -0.2218627930          0.6634826660           -0.2218017578          0.3149108887           0.0859375000           
15.0000000000          0.3088226318           -0.0358581543          0.6592102051           -0.2287597656          0.6592102051           -0.2288208008          0.3176422119           0.0834503174           
16.0000000000          0.3069915771           -0.0457611084          0.6547851563           -0.2361145020          0.6548156738           -0.2360534668          0.3201293945           0.0812835693           
17.0000000000          0.3047943115           -0.0552062988          0.6506958008           -0.2437744141          0.6508178711           -0.2438354492          0.3224945068           0.0794219971           
18.0000000000          0.3021697998           -0.0642395020          0.6465148926           -0.2517395020          0.6466369629           -0.2517089844          0.3247070313           0.0778961182           
19.0000000000          0.2991333008           -0.0730133057          0.6425170898           -0.2598876953          0.6425476074           -0.2598876953          0.3267822266           0.0765228271           
20.0000000000          0.2957916260           -0.0812988281          0.6382446289           -0.2682495117          0.6383056641           -0.2682495117          0.3288574219           0.0753631592           
21.0000000000          0.2921447754           -0.0892486572          0.6340026855           -0.2767639160          0.6340332031           -0.2768554688          0.3309631348           0.0742645264           
22.0000000000          0.2882537842           -0.0968475342          0.6297302246           -0.2854919434          0.6297302246           -0.2856140137          0.3328704834           0.0733184814           
23.0000000000          0.2840118408           -0.1041717529          0.6251525879           -0.2942810059          0.6252746582           -0.2944946289          0.3348541260           0.0725097656           
24.0000000000          0.2796783447           -0.1112670898          0.6204833984           -0.3033447266          0.6206359863           -0.3033752441          0.3367767334           0.0718078613           
25.0000000000          0.2750549316           -0.1180572510          0.6158142090           -0.3123779297          0.6159973145           -0.3124084473          0.3387603760           0.0712280273           
26.0000000000          0.2701263428           -0.1246185303          0.6111145020           -0.3213500977          0.6111450195           -0.3214111328          0.3407135010           0.0705871582           
27.0000000000          0.2650604248           -0.1308898926          0.6060180664           -0.3304138184          0.6060791016           -0.3304748535          0.3426208496           0.0699615479           
28.0000000000          0.2596893311           -0.1369934082          0.6009216309           -0.3396606445          0.6011047363           -0.3397216797          0.3446960449           0.0693664551           
29.0000000000          0.2541351318           -0.1427154541          0.5954895020           -0.3487854004          0.5957641602           -0.3488159180          0.3465576172           0.0689086914           
30.0000000000          0.2484664917           -0.1483154297          0.5902099609           -0.3580017090          0.5902404785           -0.3581542969          0.3485870361           0.0682678223           
31.0000000000          0.2425765991           -0.1536026001          0.5845031738           -0.3671264648          0.5846252441           -0.3671264648          0.3505706787           0.0676422119           
32.0000000000          0.2365188599           -0.1587371826          0.5787658691           -0.3763427734          0.5789184570           -0.3763732910          0.3524322510           0.0670776367           
33.0000000000          0.2303619385           -0.1635589600          0.5730590820           -0.3854675293          0.5730895996           -0.3854980469          0.3544616699           0.0664062500           
34.0000000000          0.2239151001           -0.1681365967          0.5668029785           -0.3947448730          0.5670166016           -0.3947143555          0.3565368652           0.0657958984           
35.0000000000          0.2174377441           -0.1725540161          0.5605773926           -0.4038085938          0.5606079102           -0.4038085938          0.3585510254           0.0651245117           
36.0000000000          0.2106246948           -0.1766891479          0.5540466309           -0.4129028320          0.5542297363           -0.4128417969          0.3605651855           0.0644836426           
37.0000000000          0.2037353516           -0.1805343628          0.5474853516           -0.4219970703          0.5476989746           -0.4219970703          0.3625488281           0.0637207031           
38.0000000000          0.1968154907           -0.1841201782          0.5407104492           -0.4309692383          0.5408630371           -0.4309387207          0.3645935059           0.0629730225           
39.0000000000          0.1896896362           -0.1875076294          0.5336914063           -0.4397277832          0.5339660645           -0.4397888184          0.3666992188           0.0622558594           
40.0000000000          0.1823883057           -0.1906204224          0.5265197754           -0.4486999512          0.5267333984           -0.4486999512          0.3685760498           0.0613098145           
41.0000000000          0.1750946045           -0.1935348511          0.5193481445           -0.4574890137          0.5194702148           -0.4573059082          0.3706207275           0.0603637695           
42.0000000000          0.1675338745           -0.1962051392          0.5116882324           -0.4660949707          0.5119018555           -0.4659729004          0.3725585938           0.0594177246           
43.0000000000          0.1599502563           -0.1984786987          0.5041503906           -0.4747009277          0.5042724609           -0.4747619629          0.3745727539           0.0583496094           
44.0000000000          0.1521759033           -0.2006454468          0.4961395264           -0.4833374023          0.4964752197           -0.4833374023          0.3765258789           0.0571899414           
45.0000000000          0.1443710327           -0.2024765015          0.4882812500           -0.4918823242          0.4884185791           -0.4917602539          0.3785095215           0.0560913086           
46.0000000000          0.1365127563           -0.2040481567          0.4800109863           -0.5001831055          0.4802551270           -0.5001831055          0.3804779053           0.0548553467           
47.0000000000          0.1285552979           -0.2053756714          0.4715270996           -0.5084533691          0.4718933105           -0.5084228516          0.3823852539           0.0535583496           
48.0000000000          0.1205825806           -0.2064971924          0.4631958008           -0.5164184570          0.4632873535           -0.5164489746          0.3842468262           0.0522766113           
49.0000000000          0.1125030518           -0.2072525024          0.4544372559           -0.5246582031          0.4545593262           -0.5246582031          0.3861236572           0.0508422852           
50.0000000000          0.1042480469           -0.2077407837          0.4454345703           -0.5324707031          0.4455871582           -0.5324401855          0.3879852295           0.0492706299           
51.0000000000          0.0961151123           -0.2080001831          0.4364013672           -0.5403747559          0.4366149902           -0.5402526855          0.3897552490           0.0477905273           
!$Notes
!SAB choke balun, 2X yellow cores.
!Fresh cal (well 30 minutes ago) certified with T check. 
!$State
!Measurement Parameters
!  Measurement Points=51
!  Start Frequency =1 MHz
!  Stop Frequency =51 MHz
!  IF BW=10 Hz
!  Sweep Time=5.2s
!  Averaging: Off
!  Correction = Yes
!  Source Pwr=0 dBm
!  Port 1 Attenuation=0 dB
!  Port 2 Attenuation=0 dB
!  Delay S11 S21=0ps 0 ps
!  Delay S12 S22=0ps 0 ps
!Measurement Time= 14.6 s
