# MHz S RI R 50 
! S-Parameters data 
! Freq   reS11   imS11   reS21   imS21   reS12   imS12   reS22   imS22 
1.0000000000           -0.3504333496          0.0676422119           0.6834106445           -0.0350341797          0.6840209961           -0.0346984863          0.6282348633           0.1026916504           
2.0000000000           -0.3396453857          0.0639495850           0.6737365723           -0.0421142578          0.6745605469           -0.0419921875          0.6445617676           0.0574035645           
3.0000000000           -0.3343963623          0.0733184814           0.6701660156           -0.0534057617          0.6709899902           -0.0533142090          0.6494140625           0.0410766602           
4.0000000000           -0.3296508789          0.0862731934           0.6675415039           -0.0661010742          0.6686096191           -0.0661010742          0.6518554688           0.0329589844           
5.0000000000           -0.3246917725          0.1004180908           0.6650695801           -0.0792236328          0.6661376953           -0.0791931152          0.6536254883           0.0278930664           
6.0000000000           -0.3192291260          0.1151580811           0.6623840332           -0.0927734375          0.6632995605           -0.0927124023          0.6548767090           0.0245666504           
7.0000000000           -0.3133087158          0.1299438477           0.6596679688           -0.1063232422          0.6605834961           -0.1062316895          0.6560974121           0.0222778320           
8.0000000000           -0.3068542480          0.1447601318           0.6564941406           -0.1198120117          0.6574096680           -0.1198425293          0.6571655273           0.0206298828           
9.0000000000           -0.2997894287          0.1595153809           0.6531372070           -0.1333312988          0.6541748047           -0.1334533691          0.6582946777           0.0191650391           
10.0000000000          -0.2919921875          0.1740722656           0.6495666504           -0.1465148926          0.6505126953           -0.1468811035          0.6596374512           0.0180358887           
11.0000000000          -0.2837219238          0.1881713867           0.6453857422           -0.1602172852          0.6464233398           -0.1602783203          0.6603088379           0.0171813965           
12.0000000000          -0.2748260498          0.2019653320           0.6410522461           -0.1735839844          0.6420288086           -0.1737976074          0.6613159180           0.0162048340           
13.0000000000          -0.2653656006          0.2154388428           0.6364440918           -0.1867065430          0.6375732422           -0.1868286133          0.6624450684           0.0156555176           
14.0000000000          -0.2554016113          0.2283935547           0.6316223145           -0.1997375488          0.6326293945           -0.2000427246          0.6634826660           0.0149230957           
15.0000000000          -0.2448806763          0.2410736084           0.6263732910           -0.2127075195          0.6276245117           -0.2129821777          0.6645507813           0.0143737793           
16.0000000000          -0.2339019775          0.2531738281           0.6207275391           -0.2257995605          0.6221618652           -0.2257690430          0.6656494141           0.0136108398           
17.0000000000          -0.2223510742          0.2647552490           0.6151123047           -0.2384033203          0.6165466309           -0.2384643555          0.6669311523           0.0129394531           
18.0000000000          -0.2104492188          0.2758789063           0.6090393066           -0.2509765625          0.6105041504           -0.2509460449          0.6678771973           0.0122680664           
19.0000000000          -0.1979675293          0.2864685059           0.6027526855           -0.2632446289          0.6042175293           -0.2634887695          0.6690063477           0.0116271973           
20.0000000000          -0.1851806641          0.2964172363           0.5961914063           -0.2754211426          0.5976867676           -0.2755126953          0.6703186035           0.0107727051           
21.0000000000          -0.1719665527          0.3059234619           0.5893249512           -0.2875061035          0.5910644531           -0.2876281738          0.6714477539           0.0101928711           
22.0000000000          -0.1585083008          0.3147430420           0.5824584961           -0.2993164063          0.5837402344           -0.2993774414          0.6725463867           0.0095214844           
23.0000000000          -0.1445770264          0.3230895996           0.5751037598           -0.3109436035          0.5764160156           -0.3110656738          0.6738586426           0.0086364746           
24.0000000000          -0.1302795410          0.3306884766           0.5674743652           -0.3223876953          0.5688171387           -0.3225708008          0.6749572754           0.0079345703           
25.0000000000          -0.1157989502          0.3377838135           0.5597229004           -0.3334045410          0.5610351563           -0.3335571289          0.6761169434           0.0072021484           
26.0000000000          -0.1012268066          0.3440704346           0.5514831543           -0.3443908691          0.5530395508           -0.3445434570          0.6774597168           0.0063171387           
27.0000000000          -0.0861816406          0.3499298096           0.5434570313           -0.3552246094          0.5450134277           -0.3554992676          0.6787719727           0.0054321289           
28.0000000000          -0.0712127686          0.3548889160           0.5348815918           -0.3657531738          0.5364379883           -0.3658142090          0.6799011230           0.0045776367           
29.0000000000          -0.0557250977          0.3592834473           0.5263061523           -0.3759460449          0.5279541016           -0.3764343262          0.6810913086           0.0033569336           
30.0000000000          -0.0404052734          0.3631896973           0.5175170898           -0.3860778809          0.5191040039           -0.3866271973          0.6822204590           0.0023193359           
31.0000000000          -0.0248565674          0.3661041260           0.5083923340           -0.3961181641          0.5099487305           -0.3965454102          0.6834106445           0.0013122559           
32.0000000000          -0.0093231201          0.3685150146           0.4989776611           -0.4054260254          0.5007019043           -0.4060974121          0.6847229004           0.0003051758           
33.0000000000          0.0062713623           0.3704071045           0.4896392822           -0.4149017334          0.4913482666           -0.4155426025          0.6864318848           -0.0009460449          
34.0000000000          0.0221710205           0.3713226318           0.4801788330           -0.4241638184          0.4817810059           -0.4247131348          0.6877441406           -0.0022888184          
35.0000000000          0.0377960205           0.3718872070           0.4703369141           -0.4331512451          0.4719085693           -0.4338989258          0.6888427734           -0.0036010742          
36.0000000000          0.0534057617           0.3714752197           0.4604034424           -0.4418640137          0.4620513916           -0.4425354004          0.6901855469           -0.0050048828          
37.0000000000          0.0689239502           0.3706054688           0.4506072998           -0.4501342773          0.4519958496           -0.4509429932          0.6914978027           -0.0063171387          
38.0000000000          0.0845336914           0.3690643311           0.4401702881           -0.4582977295          0.4417266846           -0.4591217041          0.6925048828           -0.0077209473          
39.0000000000          0.0999603271           0.3668060303           0.4297637939           -0.4665679932          0.4313354492           -0.4671325684          0.6941223145           -0.0093688965          
40.0000000000          0.1151885986           0.3640594482           0.4192352295           -0.4741210938          0.4208374023           -0.4749755859          0.6952514648           -0.0108642578          
41.0000000000          0.1301879883           0.3604736328           0.4085998535           -0.4814758301          0.4101867676           -0.4823760986          0.6962890625           -0.0126647949          
42.0000000000          0.1451416016           0.3563842773           0.3979949951           -0.4889068604          0.3994445801           -0.4897766113          0.6975402832           -0.0144653320          
43.0000000000          0.1598205566           0.3517150879           0.3870544434           -0.4958343506          0.3885498047           -0.4968872070          0.6986389160           -0.0161743164          
44.0000000000          0.1741943359           0.3463745117           0.3761596680           -0.5024414063          0.3775329590           -0.5036315918          0.6996765137           -0.0181884766          
45.0000000000          0.1884460449           0.3404235840           0.3650512695           -0.5090637207          0.3664245605           -0.5103759766          0.7008972168           -0.0200500488          
46.0000000000          0.2023620605           0.3339538574           0.3538513184           -0.5153503418          0.3552856445           -0.5166625977          0.7018127441           -0.0219726563          
47.0000000000          0.2159118652           0.3269348145           0.3424377441           -0.5211486816          0.3438415527           -0.5227050781          0.7027587891           -0.0240783691          
48.0000000000          0.2291259766           0.3192749023           0.3312683105           -0.5270690918          0.3325500488           -0.5284118652          0.7036743164           -0.0260314941          
49.0000000000          0.2420654297           0.3112182617           0.3197021484           -0.5324096680          0.3210144043           -0.5340881348          0.7048339844           -0.0281677246          
50.0000000000          0.2544860840           0.3025512695           0.3081665039           -0.5375976563          0.3093872070           -0.5392761230          0.7058410645           -0.0303344727          
51.0000000000          0.2666625977           0.2933959961           0.2965393066           -0.5428161621          0.2976379395           -0.5445556641          0.7066650391           -0.0327148438          
!$Notes
!Balun SAB
!$State
!Measurement Parameters
!  Measurement Points=51
!  Start Frequency =1 MHz
!  Stop Frequency =51 MHz
!  IF BW=10 Hz
!  Sweep Time=5.2s
!  Averaging: Off
!  Correction = Yes
!  Source Pwr=0 dBm
!  Port 1 Attenuation=0 dB
!  Port 2 Attenuation=0 dB
!  Delay S11 S21=0ps 0 ps
!  Delay S12 S22=0ps 0 ps
!Measurement Time= 14.3 s
