# MHz S RI R 50 
! S-Parameters data 
! Freq   reS11   imS11   reS21   imS21   reS12   imS12   reS22   imS22 
1.0000000000           -0.0296020508          0.6079711914           0.4878540039           0.2927856445           0.4879760742           0.2927246094           -0.7501831055          0.1746215820           
2.0000000000           0.2333068848           0.3856811523           0.6195678711           0.1679687500           0.6195983887           0.1675109863           -0.6821899414          0.1379699707           
3.0000000000           0.2993164063           0.2686157227           0.6517028809           0.0960998535           0.6516113281           0.0956726074           -0.6633300781          0.1279296875           
4.0000000000           0.3244628906           0.2029113770           0.6629943848           0.0502319336           0.6629028320           0.0496520996           -0.6541748047          0.1306152344           
5.0000000000           0.3368377686           0.1610870361           0.6676635742           0.0165405273           0.6677551270           0.0160522461           -0.6478576660          0.1391601563           
6.0000000000           0.3439788818           0.1319885254           0.6696472168           -0.0105590820          0.6694946289           -0.0111389160          -0.6422119141          0.1506042480           
7.0000000000           0.3487091064           0.1103363037           0.6701049805           -0.0339965820          0.6700439453           -0.0346374512          -0.6368713379          0.1636352539           
8.0000000000           0.3521728516           0.0932922363           0.6695861816           -0.0551147461          0.6696166992           -0.0556640625          -0.6312866211          0.1778259277           
9.0000000000           0.3547973633           0.0793457031           0.6686096191           -0.0745544434          0.6685485840           -0.0751342773          -0.6253662109          0.1924438477           
10.0000000000          0.3569946289           0.0676422119           0.6670227051           -0.0929260254          0.6670227051           -0.0936584473          -0.6190795898          0.2073059082           
11.0000000000          0.3587341309           0.0572662354           0.6650695801           -0.1105651855          0.6649475098           -0.1113586426          -0.6124572754          0.2221984863           
12.0000000000          0.3603057861           0.0479431152           0.6626586914           -0.1276855469          0.6625061035           -0.1282958984          -0.6054077148          0.2372131348           
13.0000000000          0.3615417480           0.0394897461           0.6598205566           -0.1442871094          0.6596374512           -0.1451416016          -0.5979614258          0.2521362305           
14.0000000000          0.3626098633           0.0315551758           0.6566467285           -0.1605224609          0.6565551758           -0.1612243652          -0.5903015137          0.2667846680           
15.0000000000          0.3635101318           0.0240631104           0.6533508301           -0.1766967773          0.6530761719           -0.1773681641          -0.5820617676          0.2814636230           
16.0000000000          0.3641357422           0.0169067383           0.6492309570           -0.1934509277          0.6490478516           -0.1930541992          -0.5734252930          0.2967834473           
17.0000000000          0.3645935059           0.0100555420           0.6450500488           -0.2093200684          0.6447143555           -0.2087707520          -0.5644836426          0.3108825684           
18.0000000000          0.3648376465           0.0032196045           0.6402282715           -0.2248229980          0.6401672363           -0.2243652344          -0.5554199219          0.3248291016           
19.0000000000          0.3647766113           -0.0033874512          0.6353149414           -0.2403259277          0.6351623535           -0.2398986816          -0.5458374023          0.3380737305           
20.0000000000          0.3647003174           -0.0099639893          0.6299133301           -0.2554626465          0.6295166016           -0.2553405762          -0.5361022949          0.3513793945           
21.0000000000          0.3640747070           -0.0163421631          0.6239013672           -0.2707824707          0.6237182617           -0.2705078125          -0.5260925293          0.3643798828           
22.0000000000          0.3633117676           -0.0226135254          0.6177368164           -0.2859497070          0.6173095703           -0.2856140137          -0.5158081055          0.3767089844           
23.0000000000          0.3621978760           -0.0288848877          0.6109313965           -0.3010864258          0.6106262207           -0.3007507324          -0.5052795410          0.3887329102           
24.0000000000          0.3605499268           -0.0352172852          0.6035461426           -0.3161926270          0.6030578613           -0.3159179688          -0.4945983887          0.4006958008           
25.0000000000          0.3592071533           -0.0408172607          0.5959472656           -0.3308410645          0.5955810547           -0.3303527832          -0.4834899902          0.4121704102           
26.0000000000          0.3574371338           -0.0469360352          0.5878906250           -0.3455200195          0.5876464844           -0.3451232910          -0.4723052979          0.4232482910           
27.0000000000          0.3551330566           -0.0529022217          0.5791931152           -0.3600463867          0.5788269043           -0.3596191406          -0.4609069824          0.4338684082           
28.0000000000          0.3527069092           -0.0587158203          0.5701904297           -0.3745727539          0.5698547363           -0.3741760254          -0.4492950439          0.4440002441           
29.0000000000          0.3498229980           -0.0645904541          0.5602722168           -0.3890686035          0.5602111816           -0.3886108398          -0.4375915527          0.4539947510           
30.0000000000          0.3465270996           -0.0702209473          0.5502624512           -0.4031066895          0.5500793457           -0.4026184082          -0.4256591797          0.4633483887           
31.0000000000          0.3426971436           -0.0754852295          0.5395202637           -0.4170227051          0.5391540527           -0.4165039063          -0.4139709473          0.4722137451           
32.0000000000          0.3391265869           -0.0801086426          0.5282287598           -0.4302673340          0.5280456543           -0.4298706055          -0.4018554688          0.4809570313           
33.0000000000          0.3353881836           -0.0851898193          0.5169677734           -0.4436645508          0.5167236328           -0.4432373047          -0.3896789551          0.4893646240           
34.0000000000          0.3312225342           -0.0901794434          0.5048828125           -0.4570007324          0.5046081543           -0.4566040039          -0.3773803711          0.4971618652           
35.0000000000          0.3268432617           -0.0948638916          0.4921875000           -0.4699859619          0.4920349121           -0.4695892334          -0.3650207520          0.5042724609           
36.0000000000          0.3217926025           -0.0993041992          0.4790496826           -0.4825744629          0.4788513184           -0.4822235107          -0.3526306152          0.5112609863           
37.0000000000          0.3166198730           -0.1034088135          0.4653320313           -0.4951324463          0.4652099609           -0.4946594238          -0.3405456543          0.5177001953           
38.0000000000          0.3113403320           -0.1072082520          0.4509277344           -0.5072021484          0.4509582520           -0.5066223145          -0.3280944824          0.5239562988           
39.0000000000          0.3056488037           -0.1108245850          0.4360961914           -0.5188293457          0.4360046387           -0.5181579590          -0.3159179688          0.5296936035           
40.0000000000          0.2997741699           -0.1138916016          0.4206542969           -0.5300292969          0.4206542969           -0.5295410156          -0.3035278320          0.5348510742           
41.0000000000          0.2937011719           -0.1168518066          0.4049072266           -0.5409545898          0.4048461914           -0.5404052734          -0.2914428711          0.5397949219           
42.0000000000          0.2874755859           -0.1193542480          0.3883056641           -0.5513916016          0.3883666992           -0.5508422852          -0.2793579102          0.5442504883           
43.0000000000          0.2810668945           -0.1213073730          0.3713989258           -0.5612792969          0.3712768555           -0.5607299805          -0.2673339844          0.5483398438           
44.0000000000          0.2745056152           -0.1230468750          0.3536376953           -0.5708618164          0.3536987305           -0.5703125000          -0.2555541992          0.5521240234           
45.0000000000          0.2680053711           -0.1242065430          0.3355712891           -0.5798339844          0.3355712891           -0.5792236328          -0.2437133789          0.5554199219           
46.0000000000          0.2613525391           -0.1250000000          0.3168334961           -0.5881958008          0.3169555664           -0.5877075195          -0.2322387695          0.5587158203           
47.0000000000          0.2547302246           -0.1251525879          0.2976684570           -0.5958862305          0.2977294922           -0.5953369141          -0.2210693359          0.5612182617           
48.0000000000          0.2483825684           -0.1251068115          0.2781982422           -0.6029052734          0.2782592773           -0.6024169922          -0.2097778320          0.5635986328           
49.0000000000          0.2419738770           -0.1244354248          0.2581176758           -0.6093750000          0.2579956055           -0.6088256836          -0.1989746094          0.5657348633           
50.0000000000          0.2356719971           -0.1234130859          0.2373657227           -0.6150512695          0.2374877930           -0.6144409180          -0.1881103516          0.5677490234           
51.0000000000          0.2295074463           -0.1218109131          0.2161254883           -0.6201171875          0.2163085938           -0.6194458008          -0.1776733398          0.5690307617           
!$Notes
!SAB  1:1 Voltage Balun.  
!Large fabric wrapped balun with terminal plate. 
! Cal 6.5 hours ago certified with T check at the time.
!$State
!Measurement Parameters
!  Measurement Points=51
!  Start Frequency =1 MHz
!  Stop Frequency =51 MHz
!  IF BW=10 Hz
!  Sweep Time=5.2s
!  Averaging: Off
!  Correction = Yes
!  Source Pwr=0 dBm
!  Port 1 Attenuation=0 dB
!  Port 2 Attenuation=0 dB
!  Delay S11 S21=0ps 0 ps
!  Delay S12 S22=0ps 0 ps
!Measurement Time= 14.7 s
