# MHz S RI R 50 
! S-Parameters data 
! Freq   reS11   imS11   reS21   imS21   reS12   imS12   reS22   imS22 
1.0000000000           0.3300781250           0.0029754639           0.6697998047           -0.0330200195          0.6698303223           -0.0330810547          0.3297882080           0.0166931152           
2.0000000000           0.3309631348           -0.0180206299          0.6672058105           -0.0419921875          0.6672363281           -0.0420227051          0.3318176270           0.0095367432           
3.0000000000           0.3300323486           -0.0341796875          0.6655578613           -0.0556030273          0.6653442383           -0.0556640625          0.3326416016           0.0070495605           
4.0000000000           0.3281250000           -0.0490112305          0.6636047363           -0.0704956055          0.6636047363           -0.0704956055          0.3333435059           0.0059661865           
5.0000000000           0.3255310059           -0.0632476807          0.6613464355           -0.0858459473          0.6614685059           -0.0859680176          0.3339233398           0.0051574707           
6.0000000000           0.3221893311           -0.0770111084          0.6589355469           -0.1013488770          0.6588745117           -0.1015319824          0.3346405029           0.0045471191           
7.0000000000           0.3183288574           -0.0905303955          0.6561889648           -0.1168823242          0.6561889648           -0.1170654297          0.3351898193           0.0045166016           
8.0000000000           0.3137054443           -0.1037750244          0.6530151367           -0.1325988770          0.6530151367           -0.1327209473          0.3359222412           0.0040283203           
9.0000000000           0.3084716797           -0.1167449951          0.6495056152           -0.1481933594          0.6495666504           -0.1483154297          0.3366699219           0.0036773682           
10.0000000000          0.3025512695           -0.1294250488          0.6455688477           -0.1637878418          0.6456604004           -0.1638183594          0.3374176025           0.0033111572           
11.0000000000          0.2960815430           -0.1417388916          0.6414489746           -0.1792907715          0.6415405273           -0.1793823242          0.3382720947           0.0030059814           
12.0000000000          0.2889556885           -0.1538085938          0.6368103027           -0.1946411133          0.6367492676           -0.1947326660          0.3391265869           0.0026397705           
13.0000000000          0.2813110352           -0.1655273438          0.6318664551           -0.2101135254          0.6319274902           -0.2102355957          0.3400268555           0.0022125244           
14.0000000000          0.2730560303           -0.1768035889          0.6266174316           -0.2253112793          0.6266174316           -0.2255249023          0.3409729004           0.0017547607           
15.0000000000          0.2643127441           -0.1876983643          0.6209411621           -0.2405090332          0.6208801270           -0.2407226563          0.3417816162           0.0012207031           
16.0000000000          0.2550201416           -0.1982574463          0.6146545410           -0.2557678223          0.6148071289           -0.2557678223          0.3427886963           0.0007324219           
17.0000000000          0.2451858521           -0.2083740234          0.6082763672           -0.2707519531          0.6083374023           -0.2707519531          0.3437042236           0.0001220703           
18.0000000000          0.2348022461           -0.2179641724          0.6015319824           -0.2855529785          0.6015014648           -0.2856140137          0.3447265625           -0.0005798340          
19.0000000000          0.2239685059           -0.2271728516          0.5943298340           -0.3002319336          0.5945739746           -0.3002929688          0.3457336426           -0.0012512207          
20.0000000000          0.2127761841           -0.2357406616          0.5868225098           -0.3147583008          0.5869445801           -0.3149414063          0.3468322754           -0.0020446777          
21.0000000000          0.2009277344           -0.2439193726          0.5788574219           -0.3291320801          0.5789489746           -0.3292846680          0.3479003906           -0.0029907227          
22.0000000000          0.1889190674           -0.2515106201          0.5706787109           -0.3433837891          0.5706787109           -0.3434448242          0.3489685059           -0.0039672852          
23.0000000000          0.1765289307           -0.2584381104          0.5619506836           -0.3574218750          0.5620422363           -0.3575134277          0.3500518799           -0.0049285889          
24.0000000000          0.1636199951           -0.2648925781          0.5528259277           -0.3713378906          0.5530090332           -0.3714294434          0.3510284424           -0.0060424805          
25.0000000000          0.1504516602           -0.2706909180          0.5434570313           -0.3850708008          0.5435791016           -0.3850708008          0.3521881104           -0.0071105957          
26.0000000000          0.1369476318           -0.2758941650          0.5338745117           -0.3984069824          0.5339050293           -0.3985290527          0.3532714844           -0.0083770752          
27.0000000000          0.1232299805           -0.2805175781          0.5237731934           -0.4116210938          0.5238342285           -0.4116821289          0.3544158936           -0.0095672607          
28.0000000000          0.1091156006           -0.2844238281          0.5132446289           -0.4246215820          0.5133361816           -0.4246520996          0.3553771973           -0.0110168457          
29.0000000000          0.0948486328           -0.2877197266          0.5022888184           -0.4374084473          0.5024719238           -0.4374389648          0.3564147949           -0.0123901367          
30.0000000000          0.0804138184           -0.2904052734          0.4912261963           -0.4497833252          0.4913177490           -0.4499206543          0.3573455811           -0.0139770508          
31.0000000000          0.0658111572           -0.2922515869          0.4796142578           -0.4620361328          0.4797821045           -0.4619903564          0.3582916260           -0.0155639648          
32.0000000000          0.0510101318           -0.2936096191          0.4678344727           -0.4740447998          0.4679718018           -0.4740753174          0.3592529297           -0.0172119141          
33.0000000000          0.0361328125           -0.2941741943          0.4556274414           -0.4856872559          0.4558563232           -0.4858551025          0.3600921631           -0.0189514160          
34.0000000000          0.0212707520           -0.2940216064          0.4431457520           -0.4970855713          0.4431762695           -0.4971466064          0.3610076904           -0.0207977295          
35.0000000000          0.0063629150           -0.2931518555          0.4300842285           -0.5081176758          0.4303588867           -0.5081787109          0.3618316650           -0.0226745605          
36.0000000000          -0.0086212158          -0.2915344238          0.4169921875           -0.5188598633          0.4172363281           -0.5189514160          0.3626861572           -0.0245971680          
37.0000000000          -0.0235137939          -0.2892608643          0.4035644531           -0.5292053223          0.4037475586           -0.5293884277          0.3632354736           -0.0266265869          
38.0000000000          -0.0383605957          -0.2863006592          0.3896484375           -0.5393676758          0.3899230957           -0.5393676758          0.3640289307           -0.0287322998          
39.0000000000          -0.0530090332          -0.2825927734          0.3756713867           -0.5489501953          0.3757629395           -0.5489196777          0.3645172119           -0.0308685303          
40.0000000000          -0.0675964355          -0.2782135010          0.3611450195           -0.5581665039          0.3615112305           -0.5584411621          0.3650817871           -0.0330810547          
41.0000000000          -0.0820159912          -0.2731628418          0.3467102051           -0.5672302246          0.3468933105           -0.5672607422          0.3655242920           -0.0352935791          
42.0000000000          -0.0963134766          -0.2673950195          0.3317260742           -0.5757446289          0.3319396973           -0.5758056641          0.3659210205           -0.0376281738          
43.0000000000          -0.1102294922          -0.2608947754          0.3166503906           -0.5838317871          0.3168640137           -0.5838623047          0.3662109375           -0.0398864746          
44.0000000000          -0.1238708496          -0.2537689209          0.3012084961           -0.5915832520          0.3014221191           -0.5916442871          0.3664398193           -0.0423583984          
45.0000000000          -0.1372680664          -0.2459411621          0.2855834961           -0.5989685059          0.2858581543           -0.5990295410          0.3666534424           -0.0446929932          
46.0000000000          -0.1503601074          -0.2374572754          0.2697753906           -0.6058349609          0.2699890137           -0.6059875488          0.3666992188           -0.0472412109          
47.0000000000          -0.1630859375          -0.2284393311          0.2536621094           -0.6122741699          0.2539367676           -0.6123962402          0.3666992188           -0.0495910645          
48.0000000000          -0.1753234863          -0.2188568115          0.2376098633           -0.6182556152          0.2376098633           -0.6183776855          0.3664855957           -0.0521850586          
49.0000000000          -0.1870880127          -0.2085723877          0.2210998535           -0.6238708496          0.2211914063           -0.6239013672          0.3663787842           -0.0547485352          
50.0000000000          -0.1985168457          -0.1976165771          0.2044677734           -0.6289367676          0.2045593262           -0.6289062500          0.3661041260           -0.0574035645          
51.0000000000          -0.2093963623          -0.1863403320          0.1878356934           -0.6336669922          0.1878662109           -0.6336364746          0.3657226563           -0.0600280762          
!$Notes
!SAB snap on ferrite choke balun.
!Fresh cal, certified with T check. 
!$State
!Measurement Parameters
!  Measurement Points=51
!  Start Frequency =1 MHz
!  Stop Frequency =51 MHz
!  IF BW=10 Hz
!  Sweep Time=5.2s
!  Averaging: Off
!  Correction = Yes
!  Source Pwr=0 dBm
!  Port 1 Attenuation=0 dB
!  Port 2 Attenuation=0 dB
!  Delay S11 S21=0ps 0 ps
!  Delay S12 S22=0ps 0 ps
!Measurement Time= 14.6 s
