# MHz S RI R 50 
! S-Parameters data 
! Freq   reS11   imS11   reS21   imS21   reS12   imS12   reS22   imS22 
1.0000000000           -0.3499145508          0.0690002441           -0.6148681641          -0.1015930176          -0.6151428223          -0.1018371582          0.5040588379           0.3810424805           
1.2500000000           -0.3455963135          0.0651550293           -0.6254577637          -0.0780639648          -0.6260375977          -0.0784301758          0.5408935547           0.3186950684           
1.5000000000           -0.3428344727          0.0637359619           -0.6317443848          -0.0603637695          -0.6323242188          -0.0606994629          0.5632934570           0.2743225098           
1.7500000000           -0.3406829834          0.0639190674           -0.6357421875          -0.0463867188          -0.6364746094          -0.0465698242          0.5781860352           0.2413330078           
2.0000000000           -0.3390197754          0.0650787354           -0.6386108398          -0.0345458984          -0.6392211914          -0.0348205566          0.5886840820           0.2156372070           
2.2500000000           -0.3375091553          0.0666656494           -0.6405334473          -0.0243835449          -0.6411743164          -0.0246887207          0.5965270996           0.1952514648           
2.5000000000           -0.3360748291          0.0691070557           -0.6418762207          -0.0154113770          -0.6425781250          -0.0157165527          0.6027221680           0.1788940430           
2.7500000000           -0.3348083496          0.0716247559           -0.6428833008          -0.0073852539          -0.6435546875          -0.0075988770          0.6072692871           0.1651306152           
3.0000000000           -0.3336486816          0.0745544434           -0.6435852051          -0.0000305176          -0.6443481445          -0.0003356934          0.6113586426           0.1535949707           
3.2500000000           -0.3323822021          0.0774230957           -0.6441345215          0.0067138672           -0.6449279785          0.0064697266           0.6146240234           0.1436462402           
3.5000000000           -0.3311462402          0.0806732178           -0.6444702148          0.0130004883           -0.6452026367          0.0128173828           0.6173095703           0.1349792480           
3.7500000000           -0.3299407959          0.0840759277           -0.6446838379          0.0191650391           -0.6454162598          0.0188903809           0.6198425293           0.1274108887           
4.0000000000           -0.3287353516          0.0874328613           -0.6448364258          0.0249633789           -0.6455993652          0.0247497559           0.6219177246           0.1209106445           
4.2500000000           -0.3275451660          0.0910034180           -0.6448669434          0.0306091309           -0.6455383301          0.0303039551           0.6238098145           0.1149597168           
4.5000000000           -0.3263549805          0.0945739746           -0.6449279785          0.0359191895           -0.6455688477          0.0356445313           0.6255187988           0.1097106934           
4.7500000000           -0.3250579834          0.0980682373           -0.6446533203          0.0408935547           -0.6454467773          0.0408325195           0.6271667480           0.1050109863           
5.0000000000           -0.3237915039          0.1017608643           -0.6445617676          0.0461120605           -0.6452636719          0.0458984375           0.6285095215           0.1006774902           
5.2500000000           -0.3224487305          0.1054534912           -0.6443786621          0.0509643555           -0.6450805664          0.0507507324           0.6296691895           0.0967407227           
5.5000000000           -0.3212738037          0.1090393066           -0.6442260742          0.0556945801           -0.6446838379          0.0555725098           0.6307983398           0.0932006836           
5.7500000000           -0.3197784424          0.1127624512           -0.6437377930          0.0604248047           -0.6445312500          0.0603027344           0.6321411133           0.0899963379           
6.0000000000           -0.3184356689          0.1165618896           -0.6433715820          0.0650024414           -0.6441040039          0.0648803711           0.6330261230           0.0870056152           
6.2500000000           -0.3170318604          0.1203002930           -0.6431579590          0.0695495605           -0.6435852051          0.0693054199           0.6339721680           0.0842285156           
6.5000000000           -0.3155059814          0.1239776611           -0.6426391602          0.0740051270           -0.6434326172          0.0737304688           0.6349487305           0.0815734863           
6.7500000000           -0.3140563965          0.1277923584           -0.6421508789          0.0783081055           -0.6428833008          0.0781860352           0.6357421875           0.0790405273           
7.0000000000           -0.3125000000          0.1315307617           -0.6415710449          0.0826416016           -0.6423645020          0.0825195313           0.6365051270           0.0769653320           
7.2500000000           -0.3108673096          0.1351928711           -0.6410827637          0.0869140625           -0.6417846680          0.0868225098           0.6373291016           0.0747680664           
7.5000000000           -0.3093261719          0.1390533447           -0.6406250000          0.0911865234           -0.6412658691          0.0908813477           0.6380004883           0.0728149414           
7.7500000000           -0.3076324463          0.1426086426           -0.6400756836          0.0952148438           -0.6406250000          0.0950927734           0.6386413574           0.0708312988           
8.0000000000           -0.3059539795          0.1463317871           -0.6392822266          0.0995178223           -0.6401367188          0.0992431641           0.6393737793           0.0692443848           
8.2500000000           -0.3042755127          0.1500244141           -0.6387023926          0.1034240723           -0.6394042969          0.1033935547           0.6399841309           0.0675354004           
8.5000000000           -0.3025054932          0.1536407471           -0.6381225586          0.1074218750           -0.6386108398          0.1075439453           0.6405944824           0.0659179688           
8.7500000000           -0.3006439209          0.1574859619           -0.6374511719          0.1116333008           -0.6381530762          0.1112670898           0.6412048340           0.0644836426           
9.0000000000           -0.2988433838          0.1612091064           -0.6367187500          0.1155090332           -0.6373291016          0.1155090332           0.6417541504           0.0628967285           
9.2500000000           -0.2968597412          0.1648254395           -0.6358032227          0.1193847656           -0.6365356445          0.1192932129           0.6423339844           0.0615844727           
9.5000000000           -0.2951354980          0.1685943604           -0.6353149414          0.1235656738           -0.6358947754          0.1233520508           0.6427917480           0.0603027344           
9.7500000000           -0.2931976318          0.1721038818           -0.6345214844          0.1273803711           -0.6351013184          0.1272277832           0.6433715820           0.0590515137           
10.0000000000          -0.2910461426          0.1757354736           -0.6334838867          0.1312561035           -0.6341247559          0.1310424805           0.6438293457           0.0578613281           
10.2500000000          -0.2890930176          0.1793823242           -0.6328735352          0.1352539063           -0.6335449219          0.1350097656           0.6444702148           0.0566101074           
10.5000000000          -0.2870330811          0.1828460693           -0.6319885254          0.1390380859           -0.6326293945          0.1387939453           0.6449890137           0.0556640625           
10.7500000000          -0.2848968506          0.1864776611           -0.6309814453          0.1428527832           -0.6316223145          0.1425781250           0.6454772949           0.0547485352           
11.0000000000          -0.2828674316          0.1900329590           -0.6302490234          0.1466064453           -0.6308593750          0.1463012695           0.6458129883           0.0536499023           
11.2500000000          -0.2805786133          0.1934814453           -0.6290893555          0.1503906250           -0.6298828125          0.1503295898           0.6462402344           0.0525512695           
11.5000000000          -0.2785339355          0.1972656250           -0.6284179688          0.1546020508           -0.6290893555          0.1540527344           0.6467285156           0.0515136719           
11.7500000000          -0.2763061523          0.2005920410           -0.6275634766          0.1582031250           -0.6279296875          0.1576538086           0.6472167969           0.0507812500           
12.0000000000          -0.2739562988          0.2039184570           -0.6262817383          0.1616210938           -0.6268920898          0.1614379883           0.6475219727           0.0496826172           
12.2500000000          -0.2716369629          0.2072143555           -0.6251831055          0.1653442383           -0.6260375977          0.1650390625           0.6480102539           0.0490112305           
12.5000000000          -0.2693786621          0.2107849121           -0.6243896484          0.1690063477           -0.6248779297          0.1690673828           0.6483764648           0.0480957031           
12.7500000000          -0.2669677734          0.2140808105           -0.6234130859          0.1726074219           -0.6240844727          0.1723022461           0.6489257813           0.0474853516           
13.0000000000          -0.2644653320          0.2174682617           -0.6221313477          0.1765747070           -0.6226806641          0.1761474609           0.6491088867           0.0466308594           
13.2500000000          -0.2622375488          0.2207031250           -0.6212768555          0.1800537109           -0.6217651367          0.1798706055           0.6495361328           0.0458374023           
13.5000000000          -0.2596130371          0.2239990234           -0.6198120117          0.1836547852           -0.6207885742          0.1836547852           0.6499023438           0.0450439453           
13.7500000000          -0.2571716309          0.2272949219           -0.6189575195          0.1873168945           -0.6195678711          0.1871337891           0.6504516602           0.0443115234           
14.0000000000          -0.2546691895          0.2305603027           -0.6179809570          0.1907348633           -0.6184082031          0.1907958984           0.6507568359           0.0437011719           
14.2500000000          -0.2520751953          0.2337646484           -0.6166992188          0.1943969727           -0.6171875000          0.1942749023           0.6510620117           0.0430297852           
14.5000000000          -0.2495117188          0.2369842529           -0.6155395508          0.1978149414           -0.6160888672          0.1979370117           0.6514282227           0.0424194336           
14.7500000000          -0.2467193604          0.2400054932           -0.6140747070          0.2013549805           -0.6149902344          0.2014770508           0.6518554688           0.0416259766           
15.0000000000          -0.2441253662          0.2431335449           -0.6130371094          0.2048950195           -0.6137084961          0.2053222656           0.6523437500           0.0408325195           
15.2500000000          -0.2413635254          0.2463073730           -0.6116943359          0.2086181641           -0.6123657227          0.2086181641           0.6525268555           0.0404052734           
15.5000000000          -0.2387237549          0.2495117188           -0.6106567383          0.2119750977           -0.6112060547          0.2120361328           0.6528320313           0.0396728516           
15.7500000000          -0.2358093262          0.2525634766           -0.6092529297          0.2157592773           -0.6097412109          0.2155151367           0.6531372070           0.0393066406           
16.0000000000          -0.2328186035          0.2535400391           -0.6065063477          0.2177124023           -0.6069335938          0.2172851563           0.6519775391           0.0390625000           
16.2500000000          -0.2299499512          0.2565307617           -0.6051025391          0.2211914063           -0.6054687500          0.2205810547           0.6521606445           0.0384521484           
16.5000000000          -0.2271423340          0.2594604492           -0.6038208008          0.2246704102           -0.6041259766          0.2241821289           0.6525268555           0.0379028320           
16.7500000000          -0.2242736816          0.2623596191           -0.6025390625          0.2280883789           -0.6027221680          0.2276611328           0.6528930664           0.0372314453           
17.0000000000          -0.2213439941          0.2652587891           -0.6011352539          0.2315673828           -0.6013793945          0.2310180664           0.6530761719           0.0366821289           
17.2500000000          -0.2183532715          0.2680664063           -0.5996704102          0.2349243164           -0.5999755859          0.2344970703           0.6535644531           0.0361938477           
17.5000000000          -0.2153625488          0.2708435059           -0.5981445313          0.2383422852           -0.5985717773          0.2377929688           0.6538085938           0.0355834961           
17.7500000000          -0.2124023438          0.2736206055           -0.5968627930          0.2417602539           -0.5972290039          0.2412719727           0.6540527344           0.0350341797           
18.0000000000          -0.2093505859          0.2763366699           -0.5953369141          0.2451171875           -0.5956420898          0.2445678711           0.6543579102           0.0344848633           
18.2500000000          -0.2062988281          0.2791137695           -0.5938720703          0.2484130859           -0.5942382813          0.2479248047           0.6546020508           0.0339355469           
18.5000000000          -0.2031555176          0.2817382813           -0.5923461914          0.2518310547           -0.5927124023          0.2512817383           0.6549682617           0.0333862305           
18.7500000000          -0.2001342773          0.2843627930           -0.5908813477          0.2551269531           -0.5911865234          0.2547607422           0.6552734375           0.0327758789           
19.0000000000          -0.1969909668          0.2869567871           -0.5892944336          0.2584228516           -0.5896606445          0.2579345703           0.6554565430           0.0322265625           
19.2500000000          -0.1938171387          0.2895202637           -0.5877075195          0.2617187500           -0.5881347656          0.2613525391           0.6557617188           0.0317993164           
19.5000000000          -0.1906127930          0.2920532227           -0.5860595703          0.2649536133           -0.5864868164          0.2645263672           0.6560668945           0.0312500000           
19.7500000000          -0.1874389648          0.2944946289           -0.5845336914          0.2682495117           -0.5848388672          0.2678222656           0.6561279297           0.0308227539           
20.0000000000          -0.1842041016          0.2969055176           -0.5829467773          0.2714843750           -0.5832519531          0.2710571289           0.6564331055           0.0302124023           
20.2500000000          -0.1809692383          0.2993774414           -0.5814208984          0.2747192383           -0.5816650391          0.2743530273           0.6567993164           0.0296630859           
20.5000000000          -0.1776733398          0.3017272949           -0.5797729492          0.2779541016           -0.5800781250          0.2774658203           0.6569213867           0.0292358398           
20.7500000000          -0.1743774414          0.3040771484           -0.5780639648          0.2811889648           -0.5784912109          0.2807006836           0.6572265625           0.0288085938           
21.0000000000          -0.1710815430          0.3063659668           -0.5764160156          0.2844238281           -0.5767211914          0.2839355469           0.6575317383           0.0283203125           
21.2500000000          -0.1676940918          0.3086242676           -0.5748291016          0.2875976563           -0.5751953125          0.2871704102           0.6578979492           0.0277099609           
21.5000000000          -0.1643676758          0.3109130859           -0.5731811523          0.2907714844           -0.5734252930          0.2904052734           0.6580200195           0.0272216797           
21.7500000000          -0.1610107422          0.3130798340           -0.5712890625          0.2938232422           -0.5715942383          0.2934570313           0.6582641602           0.0268554688           
22.0000000000          -0.1575622559          0.3152770996           -0.5696411133          0.2971191406           -0.5699462891          0.2965698242           0.6585693359           0.0263671875           
22.2500000000          -0.1541137695          0.3173828125           -0.5678710938          0.3002319336           -0.5681762695          0.2997436523           0.6587524414           0.0259399414           
22.5000000000          -0.1506652832          0.3194274902           -0.5660400391          0.3033447266           -0.5664062500          0.3029174805           0.6590576172           0.0253295898           
22.7500000000          -0.1472473145          0.3214721680           -0.5642700195          0.3063964844           -0.5646972656          0.3059692383           0.6592407227           0.0248413086           
23.0000000000          -0.1437683105          0.3234558105           -0.5625000000          0.3094482422           -0.5628662109          0.3090820313           0.6594238281           0.0244140625           
23.2500000000          -0.1402282715          0.3254089355           -0.5606079102          0.3125610352           -0.5610351563          0.3121948242           0.6597290039           0.0239868164           
23.5000000000          -0.1367187500          0.3273620605           -0.5588989258          0.3156127930           -0.5593872070          0.3153076172           0.6599121094           0.0234985352           
23.7500000000          -0.1331787109          0.3292236328           -0.5569458008          0.3187255859           -0.5574951172          0.3183593750           0.6601562500           0.0229492188           
24.0000000000          -0.1296386719          0.3310852051           -0.5551757813          0.3217773438           -0.5557250977          0.3213500977           0.6603393555           0.0225830078           
24.2500000000          -0.1260986328          0.3329162598           -0.5532836914          0.3247680664           -0.5538940430          0.3244018555           0.6606445313           0.0220336914           
24.5000000000          -0.1225280762          0.3346557617           -0.5515136719          0.3278808594           -0.5518798828          0.3273925781           0.6607055664           0.0216674805           
