# MHz S RI R 50 
! S-Parameters data 
! Freq   reS11   imS11   reS21   imS21   reS12   imS12   reS22   imS22 
1.0000000000           -0.4337615967          0.0200958252           -0.2839965820          -0.0051269531          -0.2825012207          -0.0052795410          -0.8493957520          0.1182250977           
2.0000000000           -0.4336700439          0.0379943848           -0.2855072021          -0.0089569092          -0.2841339111          -0.0094757080          -0.8232727051          0.2306823730           
3.0000000000           -0.4320220947          0.0565643311           -0.2894744873          -0.0127258301          -0.2881164551          -0.0132751465          -0.7840270996          0.3364257813           
4.0000000000           -0.4294586182          0.0752410889           -0.2949676514          -0.0154418945          -0.2936401367          -0.0161285400          -0.7322998047          0.4332580566           
5.0000000000           -0.4259490967          0.0938262939           -0.3015136719          -0.0168762207          -0.3002471924          -0.0177154541          -0.6702880859          0.5197448730           
6.0000000000           -0.4217529297          0.1119995117           -0.3088836670          -0.0168304443          -0.3075561523          -0.0179138184          -0.6009521484          0.5946044922           
7.0000000000           -0.4168243408          0.1299743652           -0.3166961670          -0.0154266357          -0.3154296875          -0.0165557861          -0.5267028809          0.6573181152           
8.0000000000           -0.4111022949          0.1476287842           -0.3245697021          -0.0125122070          -0.3233337402          -0.0138397217          -0.4497985840          0.7082824707           
9.0000000000           -0.4048919678          0.1647186279           -0.3322906494          -0.0083465576          -0.3312072754          -0.0098571777          -0.3724060059          0.7481689453           
10.0000000000          -0.3982849121          0.1815643311           -0.3396148682          -0.0028991699          -0.3388214111          -0.0044250488          -0.2958984375          0.7776794434           
11.0000000000          -0.3908538818          0.1979217529           -0.3466186523          0.0036773682           -0.3457336426          0.0018005371           -0.2215881348          0.7985229492           
12.0000000000          -0.3829345703          0.2139282227           -0.3528900146          0.0110778809           -0.3521118164          0.0091094971           -0.1503295898          0.8114318848           
13.0000000000          -0.3746337891          0.2297363281           -0.3585968018          0.0193328857           -0.3578948975          0.0171356201           -0.0830993652          0.8178100586           
14.0000000000          -0.3659210205          0.2448120117           -0.3633728027          0.0281219482           -0.3629302979          0.0258941650           -0.0198059082          0.8186950684           
15.0000000000          -0.3566894531          0.2596588135           -0.3674316406          0.0373229980           -0.3672332764          0.0350952148           0.0390930176           0.8146667480           
16.0000000000          -0.3471374512          0.2741088867           -0.3704986572          0.0458679199           -0.3706665039          0.0446166992           0.0913391113           0.8068237305           
17.0000000000          -0.3372650146          0.2880401611           -0.3730926514          0.0555572510           -0.3735046387          0.0543060303           0.1418762207           0.7964477539           
18.0000000000          -0.3268737793          0.3015289307           -0.3751983643          0.0656127930           -0.3755645752          0.0643005371           0.1881713867           0.7838439941           
19.0000000000          -0.3159637451          0.3145141602           -0.3765258789          0.0756378174           -0.3770141602          0.0743255615           0.2307739258           0.7695312500           
20.0000000000          -0.3047485352          0.3271331787           -0.3771057129          0.0857238770           -0.3778076172          0.0842132568           0.2695922852           0.7540283203           
21.0000000000          -0.2933197021          0.3392944336           -0.3772583008          0.0956573486           -0.3780975342          0.0943145752           0.3055419922           0.7376708984           
22.0000000000          -0.2814788818          0.3508758545           -0.3768463135          0.1054840088           -0.3776702881          0.1042938232           0.3385009766           0.7202758789           
23.0000000000          -0.2695159912          0.3622131348           -0.3758697510          0.1151275635           -0.3769073486          0.1141510010           0.3688964844           0.7030029297           
24.0000000000          -0.2571716309          0.3728637695           -0.3748168945          0.1248474121           -0.3757934570          0.1238403320           0.3959960938           0.6853027344           
25.0000000000          -0.2443847656          0.3831176758           -0.3729553223          0.1344299316           -0.3740844727          0.1334838867           0.4213867188           0.6679687500           
26.0000000000          -0.2315979004          0.3927917480           -0.3706970215          0.1436462402           -0.3719482422          0.1428222656           0.4444580078           0.6506347656           
27.0000000000          -0.2185363770          0.4019470215           -0.3681640625          0.1528930664           -0.3695678711          0.1518554688           0.4658203125           0.6336669922           
28.0000000000          -0.2052917480          0.4107055664           -0.3653564453          0.1618041992           -0.3668518066          0.1609191895           0.4853515625           0.6166992188           
29.0000000000          -0.1918640137          0.4187927246           -0.3621826172          0.1703796387           -0.3637084961          0.1696166992           0.5034179688           0.5999755859           
30.0000000000          -0.1782836914          0.4264831543           -0.3589172363          0.1788330078           -0.3605041504          0.1781616211           0.5200195313           0.5833740234           
31.0000000000          -0.1646423340          0.4336853027           -0.3553161621          0.1872558594           -0.3569641113          0.1867675781           0.5351562500           0.5675048828           
32.0000000000          -0.1507568359          0.4403686523           -0.3513183594          0.1955566406           -0.3530273438          0.1950683594           0.5494384766           0.5521240234           
33.0000000000          -0.1368408203          0.4465026855           -0.3470764160          0.2035522461           -0.3488159180          0.2031250000           0.5627441406           0.5373535156           
34.0000000000          -0.1229248047          0.4519958496           -0.3428649902          0.2110595703           -0.3445434570          0.2107543945           0.5750732422           0.5224609375           
35.0000000000          -0.1088867188          0.4572143555           -0.3383789063          0.2185668945           -0.3401489258          0.2183532715           0.5866699219           0.5080566406           
36.0000000000          -0.0949401855          0.4615783691           -0.3337402344          0.2257690430           -0.3353881836          0.2255554199           0.5972900391           0.4940185547           
37.0000000000          -0.0809020996          0.4658813477           -0.3289184570          0.2328186035           -0.3305969238          0.2327270508           0.6072998047           0.4802246094           
38.0000000000          -0.0668945313          0.4693298340           -0.3240051270          0.2395629883           -0.3256530762          0.2395629883           0.6163330078           0.4671630859           
39.0000000000          -0.0529174805          0.4725036621           -0.3188171387          0.2463073730           -0.3207397461          0.2462158203           0.6250000000           0.4541015625           
40.0000000000          -0.0391235352          0.4751892090           -0.3136596680          0.2525939941           -0.3154907227          0.2527160645           0.6329345703           0.4416503906           
41.0000000000          -0.0252075195          0.4773254395           -0.3084716797          0.2587585449           -0.3102111816          0.2590026855           0.6402587891           0.4294433594           
42.0000000000          -0.0115051270          0.4790649414           -0.3031616211          0.2648620605           -0.3049926758          0.2651367188           0.6473388672           0.4174804688           
43.0000000000          0.0021514893           0.4803314209           -0.2978057861          0.2705841064           -0.2995147705          0.2709350586           0.6537475586           0.4059448242           
44.0000000000          0.0155944824           0.4812011719           -0.2922515869          0.2761688232           -0.2940979004          0.2767333984           0.6599731445           0.3945312500           
45.0000000000          0.0291442871           0.4816589355           -0.2867889404          0.2816925049           -0.2885589600          0.2821807861           0.6654052734           0.3835449219           
46.0000000000          0.0424194336           0.4816894531           -0.2813262939          0.2868804932           -0.2829589844          0.2875518799           0.6706542969           0.3729248047           
47.0000000000          0.0556030273           0.4812316895           -0.2755126953          0.2920532227           -0.2773284912          0.2928619385           0.6758422852           0.3623046875           
48.0000000000          0.0685424805           0.4806213379           -0.2700042725          0.2970733643           -0.2717285156          0.2977752686           0.6804809570           0.3522338867           
49.0000000000          0.0813598633           0.4794921875           -0.2642059326          0.3018798828           -0.2659301758          0.3027038574           0.6850280762           0.3420104980           
50.0000000000          0.0939331055           0.4777832031           -0.2586212158          0.3064575195           -0.2601776123          0.3073272705           0.6889343262           0.3323669434           
51.0000000000          0.1062927246           0.4759826660           -0.2528991699          0.3109436035           -0.2544555664          0.3119354248           0.6928405762           0.3227233887           
!$Notes
!Commercial Balun #1
!SAC 
!$State
!Measurement Parameters
!  Measurement Points=51
!  Start Frequency =1 MHz
!  Stop Frequency =51 MHz
!  IF BW=10 Hz
!  Sweep Time=5.2s
!  Averaging: Off
!  Correction = Yes
!  Source Pwr=0 dBm
!  Port 1 Attenuation=0 dB
!  Port 2 Attenuation=0 dB
!  Delay S11 S21=0ps 0 ps
!  Delay S12 S22=0ps 0 ps
!Measurement Time= 14.6 s
