# MHz S RI R 50 
! S-Parameters data 
! Freq   reS11   imS11   reS21   imS21   reS12   imS12   reS22   imS22 
1.0000000000           -0.3490804140          0.0682416481           -0.6126796354          -0.1016337077          -0.6124459056          -0.1013955824          0.5023254360           0.3796505178           
1.1250000000           -0.3490716265          0.0682462975           -0.6126781833          -0.1015953684          -0.6125062912          -0.1013841197          0.5023890443           0.3795665006           
1.2500000000           -0.3488246557          0.0680479195           -0.6131281437          -0.1004102965          -0.6131299412          -0.1002585134          0.5044361732           0.3765426998           
1.3750000000           -0.3478546420          0.0672428859           -0.6150174611          -0.0958375761          -0.6153227222          -0.0957970440          0.5117904688           0.3644894168           
1.5000000000           -0.3462956907          0.0659428894           -0.6184749356          -0.0878427703          -0.6189584093          -0.0878498384          0.5241411970           0.3433556390           
1.6250000000           -0.3445868138          0.0646321758           -0.6223711791          -0.0782939941          -0.6229185540          -0.0783070885          0.5381586552           0.3184889832           
1.7500000000           -0.3430208845          0.0636844646           -0.6259925632          -0.0689651686          -0.6265001978          -0.0689765776          0.5508504914           0.2946720424           
1.8750000000           -0.3416900017          0.0631917480           -0.6289761327          -0.0605507427          -0.6294320675          -0.0605776559          0.5612259818           0.2738335290           
2.0000000000           -0.3404794547          0.0630705773           -0.6312436824          -0.0530664591          -0.6318113594          -0.0531296647          0.5695574030           0.2560100104           
2.1250000000           -0.3394659480          0.0632551791           -0.6331167500          -0.0463570523          -0.6338243644          -0.0464695475          0.5764898404           0.2406593046           
2.2500000000           -0.3385450446          0.0636912910           -0.6347885368          -0.0402882529          -0.6354536742          -0.0403667652          0.5822480570           0.2271538612           
2.3750000000           -0.3377603597          0.0643295153           -0.6363187155          -0.0347048714          -0.6367488743          -0.0347354454          0.5871828410           0.2151846932           
2.5000000000           -0.3370242961          0.0651259393           -0.6375796230          -0.0294941538          -0.6377666445          -0.0294883737          0.5913311699           0.2044335651           
2.6250000000           -0.3363885835          0.0660641699           -0.6385892257          -0.0245986336          -0.6385108795          -0.0245748605          0.5948778552           0.1947777151           
2.7500000000           -0.3357576989          0.0671244779           -0.6393798418          -0.0199982928          -0.6391970142          -0.0199801055          0.5980305108           0.1860831112           
2.8750000000           -0.3350506465          0.0682698132           -0.6399185868          -0.0156375551          -0.6398947258          -0.0156367352          0.6010218746           0.1782715641           
3.0000000000           -0.3343293166          0.0694932877           -0.6403069727          -0.0114889775          -0.6404785646          -0.0115291702          0.6037339262           0.1711435617           
3.1250000000           -0.3336418667          0.0708060931           -0.6407031543          -0.0075497950          -0.6409353226          -0.0075886977          0.6060984818           0.1645791858           
3.2500000000           -0.3330098033          0.0721836255           -0.6411699408          -0.0038179356          -0.6413526862          -0.0038239803          0.6081764273           0.1585466211           
3.3750000000           -0.3323864987          0.0736214893           -0.6415263215          -0.0002335439          -0.6417679497          -0.0002425293          0.6100696326           0.1529984295           
3.5000000000           -0.3317491047          0.0751048369           -0.6417797460          0.0032115994           -0.6421410555          0.0032274415           0.6118089953           0.1478586212           
3.6250000000           -0.3311558426          0.0766302365           -0.6419807689          0.0065451697           -0.6423261623          0.0066068075           0.6133831690           0.1430594805           
3.7500000000           -0.3306040740          0.0781991060           -0.6423416736          0.0097907673           -0.6425694249          0.0098839070           0.6148583166           0.1385966624           
3.8750000000           -0.3300295814          0.0798062297           -0.6426912742          0.0129192746           -0.6427517027          0.0130372800           0.6162263245           0.1344723381           
4.0000000000           -0.3294491084          0.0814416616           -0.6429515714          0.0160021178           -0.6429611125          0.0160944807           0.6174839188           0.1305999313           
4.1250000000           -0.3288272783          0.0831010995           -0.6429428676          0.0190014895           -0.6431193695          0.0190359228           0.6185378771           0.1269248893           
4.2500000000           -0.3282418284          0.0847774400           -0.6427698579          0.0219811106           -0.6430672426          0.0219672572           0.6196063164           0.1234947457           
4.3750000000           -0.3276268797          0.0864803294           -0.6427036725          0.0248518155           -0.6430566217          0.0248412298           0.6206915372           0.1202735175           
4.5000000000           -0.3269631822          0.0881732942           -0.6427772673          0.0275986993           -0.6430697780          0.0276602329           0.6218222200           0.1172813593           
4.6250000000           -0.3263934075          0.0899009079           -0.6430857775          0.0303013945           -0.6429150100          0.0304836162           0.6228361384           0.1144411424           
4.7500000000           -0.3258133162          0.0916566321           -0.6432148456          0.0330351921           -0.6427578322          0.0332808779           0.6236763267           0.1117377446           
4.8750000000           -0.3252088187          0.0934167578           -0.6432127914          0.0357156793           -0.6427438165          0.0359572082           0.6244907569           0.1091946729           
5.0000000000           -0.3246827315          0.0952175500           -0.6431736478          0.0383192265           -0.6427356670          0.0385409235           0.6252710375           0.1067309895           
5.1250000000           -0.3241305959          0.0970233659           -0.6430399438          0.0408544032           -0.6427445762          0.0410722355           0.6260780965           0.1044319813           
5.2500000000           -0.3235285002          0.0988311654           -0.6428212730          0.0433695105           -0.6426205003          0.0436162059           0.6267739151           0.1022300285           
5.3750000000           -0.3228814884          0.1006345268           -0.6427460229          0.0458117206           -0.6424802288          0.0461424221           0.6273740722           0.1001074296           
5.5000000000           -0.3221556761          0.1024230902           -0.6426949702          0.0482703555           -0.6423200011          0.0486437241           0.6280133191           0.0980927735           
5.6250000000           -0.3214609262          0.1042288064           -0.6426424148          0.0506982269           -0.6422236531          0.0509818398           0.6286273224           0.0961660944           
5.7500000000           -0.3207660417          0.1060612678           -0.6425902653          0.0530706221           -0.6422259610          0.0533015210           0.6293611705           0.0943575686           
5.8750000000           -0.3201073750          0.1078882052           -0.6424942926          0.0554432135           -0.6421560928          0.0556604402           0.6300558447           0.0926096016           
6.0000000000           -0.3194465929          0.1097047481           -0.6422182566          0.0578280518           -0.6420442222          0.0580332252           0.6307067476           0.0909306115           
6.1250000000           -0.3187756866          0.1115415395           -0.6418826851          0.0601869418           -0.6418424263          0.0603972483           0.6312161760           0.0892822315           
6.2500000000           -0.3180619337          0.1134050854           -0.6416745921          0.0624907786           -0.6415479285          0.0627148188           0.6316549275           0.0877298949           
6.3750000000           -0.3173542261          0.1152705738           -0.6415022302          0.0647319018           -0.6413953585          0.0650117699           0.6321699862           0.0862488144           
6.5000000000           -0.3166414131          0.1171054994           -0.6414034628          0.0669823826           -0.6413228849          0.0672364785           0.6327332296           0.0848282851           
6.6250000000           -0.3158912576          0.1189366626           -0.6411779663          0.0692393016           -0.6411680674          0.0694626346           0.6331758176           0.0834208689           
6.7500000000           -0.3151553208          0.1208030157           -0.6408400030          0.0714856779           -0.6410132398          0.0716709047           0.6336600799           0.0820804729           
6.8750000000           -0.3144344283          0.1226699171           -0.6405750659          0.0736807778           -0.6407679016          0.0739478346           0.6341540258           0.0808256805           
7.0000000000           -0.3137422780          0.1245281861           -0.6403685293          0.0759049995           -0.6404965254          0.0762090475           0.6346236799           0.0795799191           
7.1250000000           -0.3130263031          0.1263781864           -0.6403363010          0.0781180457           -0.6403348238          0.0783925041           0.6350851457           0.0783669874           
7.2500000000           -0.3122417840          0.1282178648           -0.6401953187          0.0802695001           -0.6399917578          0.0805538076           0.6355283035           0.0772147947           
7.3750000000           -0.3114372600          0.1300641686           -0.6398967536          0.0824295664           -0.6396294452          0.0826943951           0.6359087114           0.0761304296           
7.5000000000           -0.3106558322          0.1319015499           -0.6396350468          0.0845799014           -0.6393762156          0.0848105340           0.6363126973           0.0750826691           
7.6250000000           -0.3098878838          0.1337716899           -0.6393920774          0.0867141395           -0.6390987146          0.0869242845           0.6366809668           0.0740011156           
7.7500000000           -0.3090954948          0.1356489176           -0.6390713261          0.0888646862           -0.6387735413          0.0890244032           0.6369945629           0.0729782969           
7.8750000000           -0.3083019153          0.1375101287           -0.6387574145          0.0909421843           -0.6383653137          0.0911182578           0.6373592580           0.0720186818           
8.0000000000           -0.3074875050          0.1393619111           -0.6383649624          0.0930634702           -0.6380012718          0.0932171670           0.6377302749           0.0710412258           
8.1250000000           -0.3066004852          0.1412178782           -0.6379961569          0.0951166788           -0.6377567941          0.0952670735           0.6381459503           0.0701045155           
8.2500000000           -0.3057566236          0.1430678280           -0.6377841896          0.0972051366           -0.6375051721          0.0973330049           0.6384739871           0.0691565375           
8.3750000000           -0.3049371566          0.1448967884           -0.6375461509          0.0992752755           -0.6371669445          0.0994394939           0.6387458701           0.0681756058           
8.5000000000           -0.3041135232          0.1467399498           -0.6371516846          0.1013619106           -0.6367924177          0.1014978434           0.6390079125           0.0672831222           
8.6250000000           -0.3032501867          0.1485743530           -0.6367139793          0.1034148474           -0.6364864272          0.1035786693           0.6393013276           0.0664269103           
8.7500000000           -0.3023647103          0.1504002574           -0.6364322611          0.1054406289           -0.6361965080          0.1056201807           0.6396431724           0.0655925293           
8.8750000000           -0.3015094352          0.1522151849           -0.6362447355          0.1074174761           -0.6358989595          0.1076271350           0.6400679817           0.0647852536           
9.0000000000           -0.3006116924          0.1540294934           -0.6359430014          0.1094671538           -0.6356259616          0.1096477748           0.6403617695           0.0640766763           
9.1250000000           -0.2996716833          0.1558530985           -0.6355623231          0.1115398741           -0.6352648605          0.1116973971           0.6406587972           0.0633752174           
9.2500000000           -0.2987201890          0.1576701212           -0.6351411272          0.1135619935           -0.6349409726          0.1136509092           0.6409355186           0.0626243800           
9.3750000000           -0.2978110231          0.1594726139           -0.6348504950          0.1155265820           -0.6346459012          0.1156233351           0.6412864651           0.0618567215           
9.5000000000           -0.2969262103          0.1612827467           -0.6345092002          0.1175160802           -0.6342866166          0.1176971443           0.6417004952           0.0611277475           
9.6250000000           -0.2960349341          0.1631176306           -0.6342220536          0.1195390094           -0.6338145588          0.1197803000           0.6420054837           0.0604268305           
9.7500000000           -0.2951527115          0.1649189958           -0.6338180614          0.1215056100           -0.6334065606          0.1218266199           0.6423011157           0.0597731021           
9.8750000000           -0.2942036954          0.1666995773           -0.6333037072          0.1234236811           -0.6329992696          0.1237269852           0.6425446821           0.0591602170           
10.0000000000          -0.2932040640          0.1684698254           -0.6328301250          0.1253934131           -0.6325575589          0.1256759799           0.6427934335           0.0584220025           
10.1250000000          -0.2922267385          0.1702735529           -0.6324405291          0.1273559541           -0.6320965600          0.1275669906           0.6430488269           0.0578124834           
10.2500000000          -0.2912448998          0.1720846199           -0.6320763145          0.1292615874           -0.6316599856          0.1294763571           0.6433456498           0.0571880488           
10.3750000000          -0.2902634498          0.1738814237           -0.6317786616          0.1311748896           -0.6312221910          0.1313803946           0.6435928404           0.0565345700           
10.5000000000          -0.2892587590          0.1756871381           -0.6313927270          0.1330822359           -0.6307563663          0.1333095773           0.6438223647           0.0558722622           
10.6250000000          -0.2882184820          0.1774577592           -0.6309028777          0.1350084328           -0.6303491052          0.1353081109           0.6439847587           0.0552876170           
10.7500000000          -0.2871683716          0.1791818717           -0.6304618142          0.1369154133           -0.6299479952          0.1372268360           0.6441937423           0.0547810867           
10.8750000000          -0.2861932657          0.1809152068           -0.6300447431          0.1388657296           -0.6295471389          0.1391885461           0.6444533654           0.0542581085           
11.0000000000          -0.2851723110          0.1826409101           -0.6296228345          0.1407426224           -0.6291587822          0.1410553264           0.6447824962           0.0537331416           
11.1250000000          -0.2841168119          0.1843868219           -0.6292474349          0.1426219817           -0.6287865763          0.1430034213           0.6450347807           0.0531458333           
11.2500000000          -0.2830881545          0.1861793835           -0.6288473126          0.1445102734           -0.6283787068          0.1449118128           0.6452915637           0.0525901223           
11.3750000000          -0.2819799515          0.1879652109           -0.6282286898          0.1464484215           -0.6278789885          0.1468003038           0.6454991935           0.0520139702           
11.5000000000          -0.2808748229          0.1897071010           -0.6276935257          0.1483561967           -0.6273594377          0.1486547376           0.6457023772           0.0515170426           
11.6250000000          -0.2797794583          0.1914023528           -0.6271618148          0.1502451516           -0.6268205394          0.1505541459           0.6459371523           0.0510259721           
11.7500000000          -0.2786696064          0.1930859217           -0.6267113902          0.1521410304           -0.6263211943          0.1524689876           0.6461789940           0.0504973070           
11.8750000000          -0.2775767779          0.1947745823           -0.6262519838          0.1540590375           -0.6259025498          0.1543266469           0.6464327237           0.0500059319           
12.0000000000          -0.2764675432          0.1964838076           -0.6257377026          0.1559718670           -0.6254525487          0.1561360361           0.6467201531           0.0495364790           
12.1250000000          -0.2753200079          0.1982106324           -0.6252425638          0.1578533265           -0.6248645204          0.1579156911           0.6469752078           0.0490960003           
12.2500000000          -0.2742234272          0.1999425590           -0.6248408353          0.1597170949           -0.6243516055          0.1597769071           0.6471336818           0.0486299084           
12.3750000000          -0.2730728435          0.2016392026           -0.6244490295          0.1615682099           -0.6238406782          0.1616766834           0.6473336087           0.0481908081           
12.5000000000          -0.2719008078          0.2033359041           -0.6239272418          0.1633821352           -0.6232955300          0.1635305051           0.6475550255           0.0477184778           
12.6250000000          -0.2707412550          0.2050041570           -0.6232917265          0.1652623390           -0.6227036340          0.1653641161           0.6477407205           0.0472042035           
12.7500000000          -0.2696157744          0.2067005058           -0.6227204475          0.1670986599           -0.6221649121          0.1672034823           0.6479706671           0.0467558726           
