# MHz S RI R 50 
! S-Parameters data 
! Freq   reS11   imS11   reS21   imS21   reS12   imS12   reS22   imS22 
1.0000000000           0.0235290527           0.5653686523           -0.4924621582          -0.2614440918          -0.4901123047          -0.2620239258          -0.7618713379          0.1652526855           
2.0000000000           0.2522888184           0.3304748535           -0.6020812988          -0.1375427246          -0.6005859375          -0.1386718750          -0.7042846680          0.1433410645           
3.0000000000           0.3063354492           0.2104492188           -0.6276855469          -0.0690002441          -0.6264953613          -0.0700683594          -0.6868896484          0.1469116211           
4.0000000000           0.3255462646           0.1387786865           -0.6363220215          -0.0238952637          -0.6353759766          -0.0248718262          -0.6761169434          0.1613769531           
5.0000000000           0.3332824707           0.0893249512           -0.6393432617          0.0104370117           -0.6383972168          0.0093383789           -0.6667480469          0.1806640625           
6.0000000000           0.3359375000           0.0515747070           -0.6398620605          0.0392761230           -0.6390075684          0.0379943848           -0.6571960449          0.2022094727           
7.0000000000           0.3359222412           0.0211334229           -0.6390686035          0.0645751953           -0.6382446289          0.0633239746           -0.6468200684          0.2247009277           
8.0000000000           0.3341827393           -0.0049285889          -0.6371765137          0.0876770020           -0.6364440918          0.0863952637           -0.6355590820          0.2473754883           
9.0000000000           0.3312683105           -0.0278015137          -0.6346740723          0.1093750000           -0.6339416504          0.1079711914           -0.6232604980          0.2702331543           
10.0000000000          0.3273468018           -0.0483856201          -0.6315612793          0.1299743652           -0.6309814453          0.1285095215           -0.6098632813          0.2925415039           
11.0000000000          0.3227081299           -0.0673522949          -0.6277465820          0.1497802734           -0.6273193359          0.1481323242           -0.5955505371          0.3144836426           
12.0000000000          0.3173065186           -0.0848693848          -0.6236877441          0.1690979004           -0.6231689453          0.1674194336           -0.5802307129          0.3357849121           
13.0000000000          0.3113403320           -0.1013488770          -0.6189575195          0.1877441406           -0.6188049316          0.1858215332           -0.5641174316          0.3560485840           
14.0000000000          0.3047027588           -0.1167602539          -0.6140136719          0.2059936523           -0.6137695313          0.2041015625           -0.5470886230          0.3757324219           
15.0000000000          0.2975769043           -0.1314239502          -0.6084289551          0.2239379883           -0.6086120605          0.2220458984           -0.5293273926          0.3943176270           
16.0000000000          0.2900695801           -0.1453704834          -0.6028747559          0.2404479980           -0.6028137207          0.2396240234           -0.5114440918          0.4108886719           
17.0000000000          0.2819824219           -0.1585693359          -0.5967407227          0.2575988770           -0.5968322754          0.2568359375           -0.4924774170          0.4276123047           
18.0000000000          0.2733612061           -0.1713409424          -0.5900573730          0.2745971680           -0.5902099609          0.2738952637           -0.4731903076          0.4431915283           
19.0000000000          0.2643737793           -0.1833496094          -0.5829162598          0.2914733887           -0.5833435059          0.2907104492           -0.4533691406          0.4577331543           
20.0000000000          0.2549133301           -0.1948242188          -0.5756225586          0.3079833984           -0.5758056641          0.3071899414           -0.4330596924          0.4709472656           
21.0000000000          0.2449035645           -0.2059097290          -0.5676879883          0.3243408203           -0.5681152344          0.3236389160           -0.4124603271          0.4831695557           
22.0000000000          0.2345046997           -0.2162780762          -0.5593566895          0.3402404785           -0.5598754883          0.3396301270           -0.3916320801          0.4943542480           
23.0000000000          0.2237625122           -0.2262191772          -0.5506896973          0.3561401367           -0.5511474609          0.3555603027           -0.3705139160          0.5045776367           
24.0000000000          0.2126312256           -0.2356643677          -0.5416564941          0.3717956543           -0.5422058105          0.3712158203           -0.3494262695          0.5134887695           
25.0000000000          0.2011108398           -0.2447128296          -0.5321960449          0.3869934082           -0.5328674316          0.3866577148           -0.3283996582          0.5213623047           
26.0000000000          0.1891479492           -0.2531280518          -0.5222167969          0.4020385742           -0.5231323242          0.4017028809           -0.3074951172          0.5281677246           
27.0000000000          0.1769256592           -0.2610626221          -0.5120849609          0.4169921875           -0.5128173828          0.4166870117           -0.2867126465          0.5338134766           
28.0000000000          0.1642913818           -0.2686614990          -0.5014343262          0.4317321777           -0.5021667480          0.4313049316           -0.2658996582          0.5385131836           
29.0000000000          0.1513061523           -0.2754364014          -0.4904022217          0.4459228516           -0.4913024902          0.4457397461           -0.2454528809          0.5423889160           
30.0000000000          0.1381225586           -0.2818450928          -0.4788208008          0.4600982666           -0.4797058105          0.4600524902           -0.2251586914          0.5452880859           
31.0000000000          0.1242980957           -0.2874298096          -0.4669189453          0.4738464355           -0.4678649902          0.4739532471           -0.2050170898          0.5469055176           
32.0000000000          0.1103973389           -0.2927093506          -0.4546966553          0.4875793457           -0.4556732178          0.4876708984           -0.1854858398          0.5480041504           
33.0000000000          0.0961914063           -0.2973327637          -0.4420471191          0.5006713867           -0.4429626465          0.5008850098           -0.1661376953          0.5482482910           
34.0000000000          0.0816345215           -0.3013763428          -0.4288940430          0.5137634277           -0.4298706055          0.5138244629           -0.1471862793          0.5477905273           
35.0000000000          0.0670166016           -0.3049011230          -0.4154357910          0.5263061523           -0.4163208008          0.5267333984           -0.1286926270          0.5466308594           
36.0000000000          0.0520782471           -0.3077545166          -0.4016723633          0.5386047363           -0.4024353027          0.5390319824           -0.1106262207          0.5445861816           
37.0000000000          0.0368804932           -0.3099822998          -0.3875122070          0.5504455566           -0.3883361816          0.5508422852           -0.0932312012          0.5418090820           
38.0000000000          0.0215454102           -0.3115539551          -0.3728332520          0.5617980957           -0.3737182617          0.5624694824           -0.0762023926          0.5384216309           
39.0000000000          0.0060882568           -0.3126678467          -0.3579101563          0.5732116699           -0.3587341309          0.5735778809           -0.0596923828          0.5344543457           
40.0000000000          -0.0094757080          -0.3129425049          -0.3424987793          0.5838317871           -0.3433532715          0.5845642090           -0.0438537598          0.5299072266           
41.0000000000          -0.0251922607          -0.3125610352          -0.3268127441          0.5942993164           -0.3276672363          0.5949707031           -0.0286254883          0.5248718262           
42.0000000000          -0.0409393311          -0.3115997314          -0.3108520508          0.6041870117           -0.3116149902          0.6048278809           -0.0141601563          0.5192260742           
43.0000000000          -0.0567932129          -0.3098602295          -0.2944030762          0.6136474609           -0.2952270508          0.6143188477           -0.0002441406          0.5133361816           
44.0000000000          -0.0727081299          -0.3076477051          -0.2779235840          0.6225891113           -0.2785034180          0.6234741211           0.0130920410           0.5068969727           
45.0000000000          -0.0885009766          -0.3045654297          -0.2608642578          0.6311950684           -0.2614135742          0.6320495605           0.0258789063           0.5000305176           
46.0000000000          -0.1042480469          -0.3008270264          -0.2437744141          0.6392822266           -0.2442016602          0.6401062012           0.0379333496           0.4928894043           
47.0000000000          -0.1201019287          -0.2964019775          -0.2261962891          0.6466979980           -0.2265625000          0.6476135254           0.0494384766           0.4854736328           
48.0000000000          -0.1357727051          -0.2913818359          -0.2084350586          0.6538085938           -0.2088623047          0.6547241211           0.0603027344           0.4778442383           
49.0000000000          -0.1513671875          -0.2855224609          -0.1903076172          0.6600952148           -0.1906738281          0.6611328125           0.0706787109           0.4701538086           
50.0000000000          -0.1667785645          -0.2791748047          -0.1723022461          0.6661987305           -0.1724243164          0.6671752930           0.0804443359           0.4621582031           
51.0000000000          -0.1820373535          -0.2720947266          -0.1538085938          0.6716918945           -0.1536865234          0.6726074219           0.0893554688           0.4541625977           
!$Notes
!SAC Ferrite Rod Balun
!$State
!Measurement Parameters
!  Measurement Points=51
!  Start Frequency =1 MHz
!  Stop Frequency =51 MHz
!  IF BW=10 Hz
!  Sweep Time=5.2s
!  Averaging: Off
!  Correction = Yes
!  Source Pwr=0 dBm
!  Port 1 Attenuation=0 dB
!  Port 2 Attenuation=0 dB
!  Delay S11 S21=0ps 0 ps
!  Delay S12 S22=0ps 0 ps
!Measurement Time= 14.3 s
