# MHz S RI R 50 
! S-Parameters data 
! Freq   reS11   imS11   reS21   imS21   reS12   imS12   reS22   imS22 
1.0000000000           0.0381393433           0.0999221802           -0.0751800537          -0.2006835938          -0.0752105713          -0.2006072998          -0.8465576172          0.4268188477           
2.0000000000           0.1123962402           0.1468200684           -0.2232666016          -0.2958374023          -0.2232666016          -0.2958374023          -0.5488281250          0.6416015625           
3.0000000000           0.1785278320           0.1508178711           -0.3551025391          -0.3053588867          -0.3549804688          -0.3051757813          -0.2833862305          0.6847534180           
4.0000000000           0.2250671387           0.1354980469           -0.4485473633          -0.2767333984          -0.4484863281          -0.2766723633          -0.0950927734          0.6517944336           
5.0000000000           0.2558288574           0.1146850586           -0.5104370117          -0.2369384766          -0.5106811523          -0.2369995117          0.0310058594           0.5967407227           
6.0000000000           0.2759704590           0.0935058594           -0.5518798828          -0.1967468262          -0.5520019531          -0.1965637207          0.1162109375           0.5404052734           
7.0000000000           0.2893371582           0.0736541748           -0.5797119141          -0.1591186523          -0.5798645020          -0.1590881348          0.1749877930           0.4893798828           
8.0000000000           0.2981872559           0.0556030273           -0.5990600586          -0.1250610352          -0.5990600586          -0.1248779297          0.2167968750           0.4451904297           
9.0000000000           0.3040161133           0.0392150879           -0.6123657227          -0.0941772461          -0.6125488281          -0.0941162109          0.2473144531           0.4074096680           
10.0000000000          0.3076477051           0.0242309570           -0.6218261719          -0.0660400391          -0.6219482422          -0.0659179688          0.2705688477           0.3751220703           
11.0000000000          0.3098754883           0.0104980469           -0.6285400391          -0.0402221680          -0.6287231445          -0.0400390625          0.2883911133           0.3474121094           
12.0000000000          0.3107604980           -0.0021972656          -0.6330566406          -0.0164184570          -0.6331787109          -0.0163574219          0.3026733398           0.3235473633           
13.0000000000          0.3108215332           -0.0141601563          -0.6362304688          0.0057373047           -0.6361083984          0.0059204102           0.3141479492           0.3028564453           
14.0000000000          0.3100891113           -0.0252685547          -0.6378784180          0.0264892578           -0.6380004883          0.0266113281           0.3235473633           0.2847290039           
15.0000000000          0.3088378906           -0.0357971191          -0.6387939453          0.0462036133           -0.6387939453          0.0464477539           0.3314819336           0.2687988281           
16.0000000000          0.3070373535           -0.0457458496          -0.6387939453          0.0652465820           -0.6388549805          0.0651245117           0.3381958008           0.2545776367           
17.0000000000          0.3048095703           -0.0552368164          -0.6383666992          0.0831909180           -0.6383361816          0.0831298828           0.3440246582           0.2420654297           
18.0000000000          0.3020629883           -0.0642700195          -0.6370544434          0.1004333496           -0.6371765137          0.1003723145           0.3491516113           0.2307739258           
19.0000000000          0.2990875244           -0.0730133057          -0.6354980469          0.1170654297           -0.6356506348          0.1169128418           0.3535766602           0.2206420898           
20.0000000000          0.2957305908           -0.0812377930          -0.6333923340          0.1330261230           -0.6333312988          0.1330261230           0.3577270508           0.2113037109           
21.0000000000          0.2920074463           -0.0892791748          -0.6308593750          0.1485900879           -0.6309204102          0.1485900879           0.3614501953           0.2028198242           
22.0000000000          0.2881469727           -0.0968780518          -0.6281738281          0.1638183594           -0.6280212402          0.1637573242           0.3648986816           0.1950988770           
23.0000000000          0.2838897705           -0.1041717529          -0.6249084473          0.1786193848           -0.6250000000          0.1784667969           0.3681030273           0.1880798340           
24.0000000000          0.2795410156           -0.1112365723          -0.6215820313          0.1929626465           -0.6215209961          0.1930236816           0.3711547852           0.1814880371           
25.0000000000          0.2748260498           -0.1180114746          -0.6177978516          0.2071533203           -0.6178588867          0.2070922852           0.3738708496           0.1755065918           
26.0000000000          0.2699584961           -0.1246032715          -0.6138610840          0.2209777832           -0.6139221191          0.2209167480           0.3765258789           0.1697082520           
27.0000000000          0.2648620605           -0.1309509277          -0.6095886230          0.2344360352           -0.6096801758          0.2343750000           0.3791503906           0.1644287109           
28.0000000000          0.2595520020           -0.1369934082          -0.6051025391          0.2478637695           -0.6051025391          0.2477722168           0.3815612793           0.1594238281           
29.0000000000          0.2539672852           -0.1427459717          -0.6003417969          0.2608337402           -0.6003723145          0.2607421875           0.3839111328           0.1547241211           
30.0000000000          0.2482376099           -0.1483001709          -0.5953979492          0.2736511230           -0.5953674316          0.2737426758           0.3861999512           0.1501770020           
31.0000000000          0.2423400879           -0.1537094116          -0.5902709961          0.2864074707           -0.5902099609          0.2864074707           0.3883666992           0.1458129883           
32.0000000000          0.2362289429           -0.1587219238          -0.5847778320          0.2988891602           -0.5849609375          0.2987976074           0.3904113770           0.1418151855           
33.0000000000          0.2299652100           -0.1635971069          -0.5792846680          0.3110656738           -0.5793457031          0.3110656738           0.3927001953           0.1379089355           
34.0000000000          0.2235183716           -0.1681976318          -0.5733337402          0.3231506348           -0.5733947754          0.3232421875           0.3947143555           0.1341247559           
35.0000000000          0.2169876099           -0.1725311279          -0.5673522949          0.3351745605           -0.5674743652          0.3351440430           0.3967285156           0.1304626465           
36.0000000000          0.2102203369           -0.1766357422          -0.5610046387          0.3468017578           -0.5611572266          0.3467407227           0.3987731934           0.1268920898           
37.0000000000          0.2033691406           -0.1805801392          -0.5545654297          0.3584594727           -0.5548400879          0.3583679199           0.4006042480           0.1234741211           
38.0000000000          0.1963424683           -0.1841812134          -0.5479125977          0.3698120117           -0.5481262207          0.3697814941           0.4025268555           0.1201171875           
39.0000000000          0.1892242432           -0.1875228882          -0.5410766602          0.3809509277           -0.5411987305          0.3808288574           0.4044189453           0.1169433594           
40.0000000000          0.1819610596           -0.1906280518          -0.5338439941          0.3920593262           -0.5341491699          0.3919067383           0.4061279297           0.1135864258           
41.0000000000          0.1745223999           -0.1935653687          -0.5268554688          0.4029541016           -0.5268554688          0.4028320313           0.4078979492           0.1104125977           
42.0000000000          0.1670608521           -0.1962203979          -0.5192871094          0.4136352539           -0.5193786621          0.4135131836           0.4095764160           0.1072082520           
43.0000000000          0.1593856812           -0.1985092163          -0.5116271973          0.4241943359           -0.5116882324          0.4239807129           0.4113769531           0.1040954590           
44.0000000000          0.1516494751           -0.2006301880          -0.5036315918          0.4346313477           -0.5038757324          0.4344482422           0.4129638672           0.1009521484           
45.0000000000          0.1438217163           -0.2025070190          -0.4956665039          0.4447784424           -0.4958038330          0.4447021484           0.4145812988           0.0979614258           
46.0000000000          0.1358718872           -0.2040481567          -0.4873962402          0.4548492432           -0.4875183105          0.4548950195           0.4162597656           0.0948486328           
47.0000000000          0.1279296875           -0.2053527832          -0.4788970947          0.4648437500           -0.4790649414          0.4647674561           0.4177551270           0.0918273926           
48.0000000000          0.1198959351           -0.2064285278          -0.4703521729          0.4744720459           -0.4703826904          0.4744110107           0.4191589355           0.0888061523           
49.0000000000          0.1118087769           -0.2071838379          -0.4615783691          0.4840545654           -0.4615631104          0.4839782715           0.4206542969           0.0858459473           
50.0000000000          0.1036071777           -0.2076568604          -0.4525604248          0.4933166504           -0.4526672363          0.4932250977           0.4221191406           0.0826721191           
51.0000000000          0.0954055786           -0.2079467773          -0.4433898926          0.5026550293           -0.4436035156          0.5024719238           0.4234313965           0.0797119141           
!$Notes
!SAC choke balun, 2X yellow cores.
!Fresh cal (well 30 minutes ago) certified with T check. 
!$State
!Measurement Parameters
!  Measurement Points=51
!  Start Frequency =1 MHz
!  Stop Frequency =51 MHz
!  IF BW=10 Hz
!  Sweep Time=5.2s
!  Averaging: Off
!  Correction = Yes
!  Source Pwr=0 dBm
!  Port 1 Attenuation=0 dB
!  Port 2 Attenuation=0 dB
!  Delay S11 S21=0ps 0 ps
!  Delay S12 S22=0ps 0 ps
!Measurement Time= 14.6 s
