# MHz S RI R 50 
! S-Parameters data 
! Freq   reS11   imS11   reS21   imS21   reS12   imS12   reS22   imS22 
1.0000000000           -0.3505096436          0.0691070557           -0.6128234863          -0.1019592285          -0.6131286621          -0.1029968262          0.4989929199           0.3827819824           
2.0000000000           -0.3390960693          0.0651397705           -0.6369018555          -0.0350036621          -0.6375122070          -0.0355529785          0.5848693848           0.2171020508           
3.0000000000           -0.3335876465          0.0743103027           -0.6419982910          -0.0004577637          -0.6428222656          -0.0008544922          0.6080627441           0.1543579102           
4.0000000000           -0.3287963867          0.0871429443           -0.6433410645          0.0244750977           -0.6441650391          0.0243530273           0.6187744141           0.1213989258           
5.0000000000           -0.3237762451          0.1013336182           -0.6430969238          0.0455627441           -0.6440734863          0.0453796387           0.6255187988           0.1009521484           
6.0000000000           -0.3183135986          0.1160430908           -0.6419982910          0.0646972656           -0.6428527832          0.0645141602           0.6300659180           0.0869445801           
7.0000000000           -0.3124237061          0.1308898926           -0.6401672363          0.0824279785           -0.6411132813          0.0822753906           0.6335449219           0.0765686035           
8.0000000000           -0.3058471680          0.1457672119           -0.6378784180          0.0992431641           -0.6387939453          0.0990905762           0.6363830566           0.0686950684           
9.0000000000           -0.2986602783          0.1605682373           -0.6352233887          0.1154174805           -0.6361999512          0.1154479980           0.6388549805           0.0623474121           
10.0000000000          -0.2911071777          0.1750946045           -0.6323242188          0.1311950684           -0.6331481934          0.1312866211           0.6410522461           0.0571289063           
11.0000000000          -0.2827148438          0.1892700195           -0.6286315918          0.1465759277           -0.6296997070          0.1465454102           0.6429138184           0.0525512695           
12.0000000000          -0.2736968994          0.2030944824           -0.6247863770          0.1615905762           -0.6258544922          0.1617431641           0.6446228027           0.0486450195           
13.0000000000          -0.2641754150          0.2167053223           -0.6206665039          0.1764526367           -0.6217956543          0.1764526367           0.6462707520           0.0452575684           
14.0000000000          -0.2542724609          0.2296905518           -0.6161804199          0.1909179688           -0.6172790527          0.1911010742           0.6477661133           0.0419006348           
15.0000000000          -0.2436904907          0.2424087524           -0.6113586426          0.2052612305           -0.6125488281          0.2055053711           0.6491699219           0.0392761230           
16.0000000000          -0.2326507568          0.2545318604           -0.6064453125          0.2196960449           -0.6075439453          0.2196044922           0.6505432129           0.0364379883           
17.0000000000          -0.2211303711          0.2661590576           -0.6009826660          0.2335510254           -0.6022949219          0.2335205078           0.6517639160           0.0339965820           
18.0000000000          -0.2092132568          0.2773284912           -0.5953369141          0.2471618652           -0.5966186523          0.2471923828           0.6531982422           0.0315246582           
19.0000000000          -0.1967773438          0.2880096436           -0.5894165039          0.2607727051           -0.5906982422          0.2607727051           0.6542358398           0.0293579102           
20.0000000000          -0.1840667725          0.2980499268           -0.5832214355          0.2739257813           -0.5844421387          0.2737426758           0.6552429199           0.0273132324           
21.0000000000          -0.1708526611          0.3075561523           -0.5767517090          0.2869567871           -0.5781555176          0.2869567871           0.6562500000           0.0251159668           
22.0000000000          -0.1572570801          0.3164367676           -0.5699157715          0.2997741699           -0.5712585449          0.2998657227           0.6571350098           0.0232543945           
23.0000000000          -0.1433868408          0.3247985840           -0.5628967285          0.3123168945           -0.5642395020          0.3123779297           0.6582336426           0.0213012695           
24.0000000000          -0.1290588379          0.3323974609           -0.5556335449          0.3248291016           -0.5569152832          0.3247985840           0.6591491699           0.0193481445           
25.0000000000          -0.1147308350          0.3395385742           -0.5483703613          0.3370666504           -0.5494995117          0.3371887207           0.6600952148           0.0173645020           
26.0000000000          -0.1000213623          0.3459167480           -0.5404357910          0.3489074707           -0.5419311523          0.3490295410           0.6608581543           0.0155944824           
27.0000000000          -0.0850830078          0.3516998291           -0.5323791504          0.3607482910           -0.5339355469          0.3610839844           0.6618041992           0.0139465332           
28.0000000000          -0.0700378418          0.3568115234           -0.5244750977          0.3722839355           -0.5257263184          0.3724060059           0.6623535156           0.0118408203           
29.0000000000          -0.0547180176          0.3612060547           -0.5159301758          0.3835144043           -0.5174560547          0.3839111328           0.6631774902           0.0099487305           
30.0000000000          -0.0392913818          0.3649444580           -0.5072326660          0.3945617676           -0.5088500977          0.3950500488           0.6636962891           0.0081787109           
31.0000000000          -0.0237884521          0.3680877686           -0.4986267090          0.4056854248           -0.5001831055          0.4060668945           0.6643981934           0.0064086914           
32.0000000000          -0.0081787109          0.3706054688           -0.4895935059          0.4163208008           -0.4912872314          0.4169006348           0.6649780273           0.0047912598           
33.0000000000          0.0073699951           0.3725280762           -0.4803619385          0.4267578125           -0.4819641113          0.4274444580           0.6656494141           0.0028686523           
34.0000000000          0.0230865479           0.3734893799           -0.4709167480          0.4369964600           -0.4725341797          0.4376831055           0.6664428711           0.0010681152           
35.0000000000          0.0387573242           0.3740844727           -0.4614105225          0.4472351074           -0.4629058838          0.4478912354           0.6669921875           -0.0007629395          
36.0000000000          0.0543975830           0.3737182617           -0.4516448975          0.4569549561           -0.4532775879          0.4575958252           0.6675109863           -0.0026855469          
37.0000000000          0.0699005127           0.3728790283           -0.4419097900          0.4663085938           -0.4432983398          0.4671783447           0.6680297852           -0.0044860840          
38.0000000000          0.0853576660           0.3713989258           -0.4317626953          0.4757537842           -0.4332427979          0.4766082764           0.6683959961           -0.0063171387          
39.0000000000          0.1007537842           0.3692779541           -0.4214477539          0.4849395752           -0.4230651855          0.4856567383           0.6688537598           -0.0082092285          
40.0000000000          0.1160125732           0.3664703369           -0.4111328125          0.4938201904           -0.4125213623          0.4947662354           0.6692810059           -0.0101623535          
41.0000000000          0.1309967041           0.3631286621           -0.4006042480          0.5025634766           -0.4020690918          0.5034179688           0.6693725586           -0.0120239258          
42.0000000000          0.1458892822           0.3589630127           -0.3901062012          0.5109863281           -0.3914794922          0.5119323730           0.6699218750           -0.0140075684          
43.0000000000          0.1604309082           0.3544006348           -0.3792724609          0.5191650391           -0.3806152344          0.5202636719           0.6698608398           -0.0158691406          
44.0000000000          0.1748046875           0.3490905762           -0.3682556152          0.5271301270           -0.3697204590          0.5283813477           0.6698913574           -0.0179748535          
45.0000000000          0.1889953613           0.3431396484           -0.3571166992          0.5349426270           -0.3585510254          0.5362548828           0.6698913574           -0.0198974609          
46.0000000000          0.2028198242           0.3367919922           -0.3461303711          0.5425415039           -0.3473510742          0.5440368652           0.6698913574           -0.0220031738          
47.0000000000          0.2162780762           0.3297729492           -0.3346557617          0.5498962402           -0.3360595703          0.5514221191           0.6698303223           -0.0239868164          
48.0000000000          0.2295532227           0.3223571777           -0.3232421875          0.5570678711           -0.3247070313          0.5585632324           0.6697387695           -0.0259399414          
49.0000000000          0.2424621582           0.3142089844           -0.3116455078          0.5639343262           -0.3128967285          0.5654296875           0.6696472168           -0.0280151367          
50.0000000000          0.2548828125           0.3056030273           -0.3001708984          0.5704956055           -0.3012390137          0.5722656250           0.6692810059           -0.0300292969          
51.0000000000          0.2668762207           0.2966003418           -0.2882995605          0.5771484375           -0.2893676758          0.5788879395           0.6690979004           -0.0321960449          
!$Notes
!Balun SAC
!$State
!Measurement Parameters
!  Measurement Points=51
!  Start Frequency =1 MHz
!  Stop Frequency =51 MHz
!  IF BW=10 Hz
!  Sweep Time=5.2s
!  Averaging: Off
!  Correction = Yes
!  Source Pwr=0 dBm
!  Port 1 Attenuation=0 dB
!  Port 2 Attenuation=0 dB
!  Delay S11 S21=0ps 0 ps
!  Delay S12 S22=0ps 0 ps
!Measurement Time= 14.2 s
