# MHz S RI R 50 
! S-Parameters data 
! Freq   reS11   imS11   reS21   imS21   reS12   imS12   reS22   imS22 
1.0000000000           -0.0296020508          0.6081542969           -0.4736328125          -0.2701416016          -0.4737548828          -0.2698974609          -0.7576293945          0.2050170898           
2.0000000000           0.2332763672           0.3859252930           -0.6007080078          -0.1318969727          -0.6007080078          -0.1312866211          -0.6851806641          0.2048339844           
3.0000000000           0.2993164063           0.2690734863           -0.6290283203          -0.0457153320          -0.6286926270          -0.0452575684          -0.6571044922          0.2286071777           
4.0000000000           0.3244628906           0.2033386230           -0.6353759766          0.0146179199           -0.6352233887          0.0151367188           -0.6354675293          0.2632446289           
5.0000000000           0.3369293213           0.1616973877           -0.6340942383          0.0626220703           -0.6339721680          0.0630187988           -0.6137084961          0.3016357422           
6.0000000000           0.3441619873           0.1326904297           -0.6292724609          0.1036376953           -0.6289978027          0.1040649414           -0.5901489258          0.3414611816           
7.0000000000           0.3489074707           0.1111602783           -0.6217956543          0.1403503418           -0.6215515137          0.1407470703           -0.5641784668          0.3807373047           
8.0000000000           0.3524322510           0.0942382813           -0.6125183105          0.1739807129           -0.6123352051          0.1743774414           -0.5357971191          0.4188537598           
9.0000000000           0.3551483154           0.0803375244           -0.6018371582          0.2051696777           -0.6015625000          0.2056579590           -0.5051879883          0.4551696777           
10.0000000000          0.3573608398           0.0686950684           -0.5899353027          0.2344055176           -0.5895996094          0.2351684570           -0.4725341797          0.4892578125           
11.0000000000          0.3592987061           0.0583801270           -0.5769348145          0.2622375488           -0.5766906738          0.2629089355           -0.4378662109          0.5207824707           
12.0000000000          0.3609008789           0.0491943359           -0.5627746582          0.2883911133           -0.5624389648          0.2890625000           -0.4013977051          0.5497436523           
13.0000000000          0.3622741699           0.0407714844           -0.5479736328          0.3134765625           -0.5475158691          0.3140869141           -0.3638916016          0.5761413574           
14.0000000000          0.3634338379           0.0328216553           -0.5323486328          0.3370666504           -0.5318603516          0.3377075195           -0.3253173828          0.5994262695           
15.0000000000          0.3644104004           0.0253906250           -0.5158081055          0.3596496582           -0.5153198242          0.3603515625           -0.2857055664          0.6200561523           
16.0000000000          0.3650970459           0.0183105469           -0.4985504150          0.3819580078           -0.4984588623          0.3815612793           -0.2449035645          0.6382141113           
17.0000000000          0.3655853271           0.0114288330           -0.4807891846          0.4023742676           -0.4805908203          0.4018859863           -0.2042236328          0.6529235840           
18.0000000000          0.3659057617           0.0046386719           -0.4626159668          0.4216308594           -0.4624938965          0.4213714600           -0.1638183594          0.6650085449           
19.0000000000          0.3660278320           -0.0018310547          -0.4439392090          0.4402160645           -0.4439086914          0.4398803711           -0.1229248047          0.6741943359           
20.0000000000          0.3659667969           -0.0085449219          -0.4248657227          0.4576110840           -0.4247131348          0.4571533203           -0.0825195313          0.6806030273           
21.0000000000          0.3655090332           -0.0148620605          -0.4053344727          0.4741821289           -0.4052124023          0.4737548828           -0.0425415039          0.6844482422           
22.0000000000          0.3648071289           -0.0212402344          -0.3853454590          0.4899902344           -0.3852539063          0.4894104004           -0.0032958984          0.6859741211           
23.0000000000          0.3638916016           -0.0274963379          -0.3650512695          0.5046386719           -0.3649291992          0.5043334961           0.0354614258           0.6849975586           
24.0000000000          0.3622741699           -0.0337219238          -0.3447265625          0.5182495117           -0.3446044922          0.5178833008           0.0734863281           0.6815795898           
25.0000000000          0.3611450195           -0.0392761230          -0.3241577148          0.5321655273           -0.3240356445          0.5317382813           0.1096801758           0.6760253906           
26.0000000000          0.3592834473           -0.0454406738          -0.3026123047          0.5445556641           -0.3027343750          0.5441894531           0.1453857422           0.6687622070           
27.0000000000          0.3571777344           -0.0515747070          -0.2812500000          0.5563354492           -0.2813110352          0.5557861328           0.1799316406           0.6594238281           
28.0000000000          0.3549499512           -0.0573120117          -0.2593383789          0.5671997070           -0.2595825195          0.5668945313           0.2135009766           0.6482543945           
29.0000000000          0.3521423340           -0.0631713867          -0.2374267578          0.5773315430           -0.2374877930          0.5769653320           0.2456054688           0.6352539063           
30.0000000000          0.3487854004           -0.0689086914          -0.2151489258          0.5866088867           -0.2152099609          0.5863037109           0.2764892578           0.6203613281           
31.0000000000          0.3451232910           -0.0741271973          -0.1933593750          0.5953979492           -0.1934204102          0.5947875977           0.3054199219           0.6036987305           
32.0000000000          0.3416290283           -0.0788116455          -0.1709899902          0.6042480469           -0.1710815430          0.6038208008           0.3322448730           0.5865478516           
33.0000000000          0.3382720947           -0.0839691162          -0.1478271484          0.6121215820           -0.1477966309          0.6117858887           0.3582458496           0.5687255859           
34.0000000000          0.3340759277           -0.0889739990          -0.1241455078          0.6188964844           -0.1241760254          0.6184997559           0.3831787109           0.5488891602           
35.0000000000          0.3297729492           -0.0938873291          -0.1003417969          0.6248474121           -0.1006164551          0.6245422363           0.4059753418           0.5282592773           
36.0000000000          0.3249359131           -0.0984954834          -0.0765991211          0.6301879883           -0.0766601563          0.6298217773           0.4276733398           0.5062866211           
37.0000000000          0.3198699951           -0.1026306152          -0.0524291992          0.6349792480           -0.0525207520          0.6344604492           0.4474182129           0.4834289551           
38.0000000000          0.3146057129           -0.1065368652          -0.0279541016          0.6388244629           -0.0281372070          0.6384582520           0.4655456543           0.4600830078           
39.0000000000          0.3089904785           -0.1102752686          -0.0032958984          0.6419067383           -0.0036010742          0.6416320801           0.4818725586           0.4359130859           
40.0000000000          0.3032531738           -0.1137084961          0.0216979980           0.6442260742           0.0213317871           0.6439208984           0.4966735840           0.4110412598           
41.0000000000          0.2973632813           -0.1167449951          0.0469055176           0.6460266113           0.0466918945           0.6455993652           0.5097656250           0.3858642578           
42.0000000000          0.2912139893           -0.1194152832          0.0726623535           0.6467285156           0.0724487305           0.6462707520           0.5211486816           0.3599548340           
43.0000000000          0.2848358154           -0.1215362549          0.0985412598           0.6466064453           0.0982055664           0.6462402344           0.5308837891           0.3338928223           
44.0000000000          0.2783203125           -0.1234436035          0.1248474121           0.6454162598           0.1245727539           0.6450500488           0.5389099121           0.3073730469           
45.0000000000          0.2718353271           -0.1248626709          0.1512756348           0.6434631348           0.1509704590           0.6430664063           0.5450134277           0.2807922363           
46.0000000000          0.2651519775           -0.1258392334          0.1778869629           0.6404113770           0.1777343750           0.6400756836           0.5495910645           0.2539672852           
47.0000000000          0.2586212158           -0.1262512207          0.2052001953           0.6363830566           0.2047119141           0.6360473633           0.5523071289           0.2275085449           
48.0000000000          0.2521057129           -0.1263885498          0.2324523926           0.6311950684           0.2319335938           0.6310119629           0.5531921387           0.2009277344           
49.0000000000          0.2456741333           -0.1259231567          0.2599182129           0.6249694824           0.2595214844           0.6246032715           0.5525817871           0.1744079590           
50.0000000000          0.2392807007           -0.1250839233          0.2876586914           0.6173400879           0.2872619629           0.6170043945           0.5502014160           0.1481018066           
51.0000000000          0.2331695557           -0.1237640381          0.3156433105           0.6083984375           0.3150329590           0.6081237793           0.5461730957           0.1221618652           
!$Notes
!SAC  1:1 Voltage Balun.  
!Large fabric wrapped balun with terminal plate. 
! Cal 6.5 hours ago certified with T check at the time.
!$State
!Measurement Parameters
!  Measurement Points=51
!  Start Frequency =1 MHz
!  Stop Frequency =51 MHz
!  IF BW=10 Hz
!  Sweep Time=5.2s
!  Averaging: Off
!  Correction = Yes
!  Source Pwr=0 dBm
!  Port 1 Attenuation=0 dB
!  Port 2 Attenuation=0 dB
!  Delay S11 S21=0ps 0 ps
!  Delay S12 S22=0ps 0 ps
!Measurement Time= 14.6 s
