# MHz S RI R 50 
! S-Parameters data 
! Freq   reS11   imS11   reS21   imS21   reS12   imS12   reS22   imS22 
1.0000000000           0.0344238281           0.5681762695           -0.5061035156          -0.2596435547          -0.5061035156          -0.2595214844          -0.7448730469          0.1760864258           
2.0000000000           0.2617797852           0.3279113770           -0.6169738770          -0.1220092773          -0.6169128418          -0.1217651367          -0.6844177246          0.1529846191           
3.0000000000           0.3141479492           0.2058715820           -0.6409912109          -0.0424194336          -0.6408386230          -0.0421447754          -0.6652526855          0.1576843262           
4.0000000000           0.3317718506           0.1331634521           -0.6473693848          0.0126342773           -0.6472167969          0.0130004883           -0.6528320313          0.1735839844           
5.0000000000           0.3381347656           0.0829772949           -0.6476135254          0.0564575195           -0.6475524902          0.0567932129           -0.6416625977          0.1942138672           
6.0000000000           0.3394470215           0.0448303223           -0.6451721191          0.0943603516           -0.6450805664          0.0945739746           -0.6301269531          0.2171936035           
7.0000000000           0.3381042480           0.0138702393           -0.6408691406          0.1286315918           -0.6407775879          0.1289367676           -0.6177368164          0.2410583496           
8.0000000000           0.3350219727           -0.0124206543          -0.6351928711          0.1606445313           -0.6350097656          0.1610717773           -0.6040649414          0.2652893066           
9.0000000000           0.3306121826           -0.0354766846          -0.6283264160          0.1910400391           -0.6282348633          0.1913452148           -0.5893249512          0.2892761230           
10.0000000000          0.3254089355           -0.0561981201          -0.6206054688          0.2203674316           -0.6203613281          0.2204589844           -0.5732116699          0.3130493164           
11.0000000000          0.3189392090           -0.0749053955          -0.6117248535          0.2485961914           -0.6116333008          0.2489624023           -0.5560913086          0.3359985352           
12.0000000000          0.3119201660           -0.0921630859          -0.6018066406          0.2760314941           -0.6016845703          0.2763671875           -0.5375366211          0.3581542969           
13.0000000000          0.3042449951           -0.1081085205          -0.5912170410          0.3030395508           -0.5910034180          0.3033142090           -0.5180053711          0.3795166016           
14.0000000000          0.2958831787           -0.1229095459          -0.5796508789          0.3291931152           -0.5794677734          0.3295593262           -0.4974670410          0.3997955322           
15.0000000000          0.2869262695           -0.1366729736          -0.5670776367          0.3550109863           -0.5668029785          0.3552551270           -0.4756622314          0.4191131592           
16.0000000000          0.2772979736           -0.1494903564          -0.5532226563          0.3805847168           -0.5531311035          0.3804016113           -0.4528198242          0.4372863770           
17.0000000000          0.2672424316           -0.1613769531          -0.5389099121          0.4055175781           -0.5387573242          0.4049987793           -0.4293518066          0.4540557861           
18.0000000000          0.2568206787           -0.1723327637          -0.5234069824          0.4295654297           -0.5232543945          0.4293212891           -0.4050903320          0.4695739746           
19.0000000000          0.2458038330           -0.1825561523          -0.5070495605          0.4533081055           -0.5070190430          0.4531555176           -0.3799591064          0.4836578369           
20.0000000000          0.2344894409           -0.1917572021          -0.4896697998          0.4766387939           -0.4894256592          0.4762420654           -0.3540802002          0.4962310791           
21.0000000000          0.2228546143           -0.2002182007          -0.4713439941          0.4991455078           -0.4712524414          0.4989013672           -0.3278808594          0.5075683594           
22.0000000000          0.2108764648           -0.2078628540          -0.4519653320          0.5214233398           -0.4517822266          0.5209350586           -0.3011474609          0.5171203613           
23.0000000000          0.1986160278           -0.2145156860          -0.4317016602          0.5426635742           -0.4315185547          0.5424194336           -0.2739868164          0.5251464844           
24.0000000000          0.1860046387           -0.2204055786          -0.4103088379          0.5635070801           -0.4101257324          0.5631408691           -0.2465515137          0.5317687988           
25.0000000000          0.1734085083           -0.2253494263          -0.3880310059          0.5837097168           -0.3880310059          0.5833129883           -0.2189636230          0.5366516113           
26.0000000000          0.1605987549           -0.2295608521          -0.3647766113          0.6029968262           -0.3648071289          0.6026306152           -0.1913146973          0.5399475098           
27.0000000000          0.1476974487           -0.2330017090          -0.3404846191          0.6216125488           -0.3405761719          0.6211853027           -0.1636962891          0.5417785645           
28.0000000000          0.1347274780           -0.2354202271          -0.3151245117          0.6392211914           -0.3151855469          0.6389160156           -0.1361083984          0.5419921875           
29.0000000000          0.1217422485           -0.2370986938          -0.2887878418          0.6559448242           -0.2888793945          0.6557312012           -0.1085510254          0.5405883789           
30.0000000000          0.1089248657           -0.2379074097          -0.2617492676          0.6716613770           -0.2617187500          0.6715393066           -0.0815124512          0.5376281738           
31.0000000000          0.0959930420           -0.2376098633          -0.2335815430          0.6864013672           -0.2337036133          0.6860351563           -0.0546264648          0.5327148438           
32.0000000000          0.0835571289           -0.2366180420          -0.2047119141          0.7002563477           -0.2047119141          0.7001342773           -0.0285034180          0.5264282227           
33.0000000000          0.0714569092           -0.2348632813          -0.1746215820          0.7130737305           -0.1746215820          0.7128295898           -0.0029296875          0.5191040039           
34.0000000000          0.0595550537           -0.2322692871          -0.1437377930          0.7243652344           -0.1436767578          0.7240600586           0.0219726563           0.5098876953           
35.0000000000          0.0480804443           -0.2289733887          -0.1117553711          0.7344360352           -0.1120605469          0.7342529297           0.0463256836           0.4994506836           
36.0000000000          0.0368804932           -0.2247619629          -0.0793457031          0.7431030273           -0.0795288086          0.7429199219           0.0698852539           0.4874267578           
37.0000000000          0.0264282227           -0.2198333740          -0.0460815430          0.7504272461           -0.0460815430          0.7503662109           0.0923461914           0.4740600586           
38.0000000000          0.0165252686           -0.2142486572          -0.0120239258          0.7562866211           -0.0121459961          0.7560424805           0.1141357422           0.4595336914           
39.0000000000          0.0072937012           -0.2080230713          0.0224609375           0.7604980469           0.0222167969           0.7602539063           0.1346435547           0.4437255859           
40.0000000000          -0.0011596680          -0.2011260986          0.0576782227           0.7630615234           0.0575561523           0.7628784180           0.1539306641           0.4266357422           
41.0000000000          -0.0088806152          -0.1937561035          0.0934448242           0.7641601563           0.0933227539           0.7638549805           0.1722412109           0.4085693359           
42.0000000000          -0.0156326294          -0.1856460571          0.1297912598           0.7633056641           0.1295166016           0.7630004883           0.1892395020           0.3894653320           
43.0000000000          -0.0215606689          -0.1773223877          0.1664123535           0.7605285645           0.1661987305           0.7603759766           0.2048645020           0.3693847656           
44.0000000000          -0.0264511108          -0.1687316895          0.2034912109           0.7559509277           0.2031250000           0.7558593750           0.2192077637           0.3483886719           
45.0000000000          -0.0302658081          -0.1599121094          0.2406311035           0.7495727539           0.2402343750           0.7492065430           0.2321166992           0.3265991211           
46.0000000000          -0.0330047607          -0.1508865356          0.2777099609           0.7409667969           0.2775268555           0.7406616211           0.2435913086           0.3040161133           
47.0000000000          -0.0346221924          -0.1419067383          0.3150634766           0.7302246094           0.3148803711           0.7300415039           0.2532958984           0.2807312012           
48.0000000000          -0.0349273682          -0.1330108643          0.3521728516           0.7173461914           0.3520507813           0.7172851563           0.2616577148           0.2568359375           
49.0000000000          -0.0339965820          -0.1243743896          0.3892211914           0.7024536133           0.3889160156           0.7023315430           0.2683410645           0.2324523926           
50.0000000000          -0.0318450928          -0.1161651611          0.4259643555           0.6849975586           0.4255981445           0.6851806641           0.2734985352           0.2076568604           
51.0000000000          -0.0284957886          -0.1084518433          0.4620971680           0.6655883789           0.4618530273           0.6655883789           0.2768249512           0.1824340820           
!$Notes
!SAC  1:1 Voltage Balun. Large Red Core. Cal 3 hours ago certified with T check at the time.
!$State
!Measurement Parameters
!  Measurement Points=51
!  Start Frequency =1 MHz
!  Stop Frequency =51 MHz
!  IF BW=10 Hz
!  Sweep Time=5.2s
!  Averaging: Off
!  Correction = Yes
!  Source Pwr=0 dBm
!  Port 1 Attenuation=0 dB
!  Port 2 Attenuation=0 dB
!  Delay S11 S21=0ps 0 ps
!  Delay S12 S22=0ps 0 ps
!Measurement Time= 14.6 s
