# MHz S RI R 50 
! S-Parameters data 
! Freq   reS11   imS11   reS21   imS21   reS12   imS12   reS22   imS22 
1.0000000000           0.3300323486           0.0029907227           -0.6579895020          -0.0146179199          -0.6581115723          -0.0145568848          0.3186798096           0.0643615723           
2.0000000000           0.3309936523           -0.0180206299          -0.6600341797          0.0171813965           -0.6601562500          0.0171813965           0.3253631592           0.0343475342           
3.0000000000           0.3299560547           -0.0341491699          -0.6596069336          0.0390625000           -0.6595764160          0.0391540527           0.3274841309           0.0237274170           
4.0000000000           0.3281402588           -0.0490264893          -0.6583862305          0.0584411621           -0.6584472656          0.0585327148           0.3287048340           0.0182800293           
5.0000000000           0.3255615234           -0.0632171631          -0.6565856934          0.0766296387           -0.6568298340          0.0767517090           0.3298339844           0.0146331787           
6.0000000000           0.3222656250           -0.0770568848          -0.6546020508          0.0942687988           -0.6545104980          0.0943908691           0.3307495117           0.0117950439           
7.0000000000           0.3183441162           -0.0904693604          -0.6520385742          0.1116638184           -0.6520690918          0.1116638184           0.3314666748           0.0101623535           
8.0000000000           0.3137207031           -0.1037292480          -0.6489868164          0.1286621094           -0.6490783691          0.1288146973           0.3323211670           0.0082855225           
9.0000000000           0.3084716797           -0.1167755127          -0.6456604004          0.1455993652           -0.6456909180          0.1455688477           0.3330688477           0.0067291260           
10.0000000000          0.3026428223           -0.1294250488          -0.6418457031          0.1622009277           -0.6420288086          0.1622619629           0.3338928223           0.0054321289           
11.0000000000          0.2961883545           -0.1417541504          -0.6377258301          0.1787414551           -0.6377868652          0.1788024902           0.3344573975           0.0040740967           
12.0000000000          0.2889709473           -0.1537933350          -0.6330261230          0.1950378418           -0.6331481934          0.1951293945           0.3351593018           0.0028076172           
13.0000000000          0.2813110352           -0.1655120850          -0.6281738281          0.2114257813           -0.6280822754          0.2115478516           0.3358917236           0.0016326904           
14.0000000000          0.2730560303           -0.1768341064          -0.6227416992          0.2274169922           -0.6228027344          0.2275695801           0.3365325928           0.0004272461           
15.0000000000          0.2642822266           -0.1877593994          -0.6171264648          0.2434387207           -0.6170043945          0.2434997559           0.3371429443           -0.0008087158          
16.0000000000          0.2550201416           -0.1983642578          -0.6107482910          0.2593078613           -0.6108093262          0.2593994141           0.3377227783           -0.0019531250          
17.0000000000          0.2452545166           -0.2083587646          -0.6042785645          0.2750854492           -0.6043395996          0.2750854492           0.3384704590           -0.0031890869          
18.0000000000          0.2348327637           -0.2180099487          -0.5972900391          0.2904357910           -0.5974121094          0.2905883789           0.3390960693           -0.0044555664          
19.0000000000          0.2239761353           -0.2271804810          -0.5900268555          0.3056335449           -0.5902709961          0.3058776855           0.3396759033           -0.0056304932          
20.0000000000          0.2126846313           -0.2358245850          -0.5824279785          0.3208618164           -0.5825195313          0.3209838867           0.3404083252           -0.0069732666          
21.0000000000          0.2009582520           -0.2438964844          -0.5744018555          0.3358764648           -0.5744628906          0.3357543945           0.3409118652           -0.0083770752          
22.0000000000          0.1889038086           -0.2515106201          -0.5660095215          0.3506164551           -0.5659790039          0.3505249023           0.3414764404           -0.0096130371          
23.0000000000          0.1764678955           -0.2585144043          -0.5570068359          0.3651733398           -0.5571899414          0.3651733398           0.3421020508           -0.0110931396          
24.0000000000          0.1636810303           -0.2648773193          -0.5478515625          0.3795166016           -0.5478820801          0.3795471191           0.3426055908           -0.0125274658          
25.0000000000          0.1504821777           -0.2708282471          -0.5382995605          0.3936767578           -0.5383911133          0.3937072754           0.3430633545           -0.0140228271          
26.0000000000          0.1368713379           -0.2759094238          -0.5283813477          0.4075927734           -0.5285034180          0.4075927734           0.3436126709           -0.0155334473          
27.0000000000          0.1232147217           -0.2805023193          -0.5181579590          0.4212341309           -0.5180969238          0.4212036133           0.3441772461           -0.0170288086          
28.0000000000          0.1090545654           -0.2844848633          -0.5075073242          0.4346618652           -0.5075378418          0.4346618652           0.3445281982           -0.0186614990          
29.0000000000          0.0948486328           -0.2878112793          -0.4964752197          0.4476318359           -0.4965515137          0.4477539063           0.3449249268           -0.0203247070          
30.0000000000          0.0803833008           -0.2904815674          -0.4850311279          0.4605102539           -0.4851837158          0.4605560303           0.3452606201           -0.0220031738          
31.0000000000          0.0657806396           -0.2923431396          -0.4735107422          0.4731140137           -0.4735870361          0.4732055664           0.3455200195           -0.0238342285          
32.0000000000          0.0509796143           -0.2935791016          -0.4614257813          0.4855499268           -0.4616088867          0.4855957031           0.3457794189           -0.0255889893          
33.0000000000          0.0360412598           -0.2941741943          -0.4492950439          0.4974212646           -0.4492950439          0.4974212646           0.3458709717           -0.0273742676          
34.0000000000          0.0212554932           -0.2940063477          -0.4363708496          0.5090942383           -0.4365539551          0.5090942383           0.3461914063           -0.0293273926          
35.0000000000          0.0062866211           -0.2931823730          -0.4233398438          0.5204772949           -0.4235534668          0.5205383301           0.3461914063           -0.0311431885          
36.0000000000          -0.0086517334          -0.2916412354          -0.4101562500          0.5314025879           -0.4102478027          0.5315246582           0.3462371826           -0.0330963135          
37.0000000000          -0.0235443115          -0.2893524170          -0.3966064453          0.5420532227           -0.3966979980          0.5422668457           0.3462677002           -0.0349731445          
38.0000000000          -0.0383148193          -0.2863311768          -0.3825683594          0.5522460938           -0.3828125000          0.5524597168           0.3461761475           -0.0370178223          
39.0000000000          -0.0529479980          -0.2826690674          -0.3684997559          0.5621948242           -0.3686218262          0.5623168945           0.3460235596           -0.0389099121          
40.0000000000          -0.0676269531          -0.2782745361          -0.3539428711          0.5716552734           -0.3541870117          0.5718078613           0.3457031250           -0.0410003662          
41.0000000000          -0.0820617676          -0.2732391357          -0.3394165039          0.5810852051           -0.3395080566          0.5809936523           0.3453979492           -0.0430297852          
42.0000000000          -0.0962982178          -0.2674102783          -0.3243408203          0.5896911621           -0.3244628906          0.5897216797           0.3450164795           -0.0451049805          
43.0000000000          -0.1102905273          -0.2609252930          -0.3092651367          0.5979614258           -0.3093872070          0.5980529785           0.3445434570           -0.0470733643          
44.0000000000          -0.1239471436          -0.2538299561          -0.2937927246          0.6060180664           -0.2939758301          0.6060791016           0.3439941406           -0.0491943359          
45.0000000000          -0.1372528076          -0.2459869385          -0.2781677246          0.6134948730           -0.2784423828          0.6135253906           0.3433990479           -0.0512237549          
46.0000000000          -0.1503448486          -0.2375335693          -0.2623901367          0.6205444336           -0.2624511719          0.6208190918           0.3427124023           -0.0534057617          
47.0000000000          -0.1630859375          -0.2285614014          -0.2463684082          0.6271667480           -0.2465515137          0.6273498535           0.3417968750           -0.0553436279          
48.0000000000          -0.1752624512          -0.2188873291          -0.2303161621          0.6333923340           -0.2302856445          0.6335144043           0.3409423828           -0.0573883057          
49.0000000000          -0.1871337891          -0.2086181641          -0.2139587402          0.6391296387           -0.2140502930          0.6393127441           0.3400878906           -0.0594482422          
50.0000000000          -0.1984710693          -0.1978149414          -0.1974487305          0.6444091797           -0.1975097656          0.6445312500           0.3390655518           -0.0612945557          
51.0000000000          -0.2094421387          -0.1864471436          -0.1808776855          0.6493225098           -0.1809997559          0.6494140625           0.3379669189           -0.0633697510          
!$Notes
!SAC snap on ferrite choke balun.
!Fresh cal, certified with T check. 
!$State
!Measurement Parameters
!  Measurement Points=51
!  Start Frequency =1 MHz
!  Stop Frequency =51 MHz
!  IF BW=10 Hz
!  Sweep Time=5.2s
!  Averaging: Off
!  Correction = Yes
!  Source Pwr=0 dBm
!  Port 1 Attenuation=0 dB
!  Port 2 Attenuation=0 dB
!  Delay S11 S21=0ps 0 ps
!  Delay S12 S22=0ps 0 ps
!Measurement Time= 14.6 s
