# MHz S RI R 50 
! S-Parameters data 
! Freq   reS11   imS11   reS21   imS21   reS12   imS12   reS22   imS22 
1.0000000000           0.0381469727           0.0996246338           0.9642028809           -0.1134948730          0.9645080566           -0.1127319336          0.0353164673           0.0991668701           
2.0000000000           0.1120758057           0.1459350586           0.8916625977           -0.1763610840          0.8926391602           -0.1751098633          0.1037750244           0.1500244141           
3.0000000000           0.1781616211           0.1494750977           0.8273620605           -0.1974182129          0.8288269043           -0.1963806152          0.1652526855           0.1613464355           
4.0000000000           0.2246398926           0.1336212158           0.7814331055           -0.2003173828          0.7830505371           -0.1995239258          0.2090454102           0.1547546387           
5.0000000000           0.2552947998           0.1122741699           0.7502136230           -0.1979675293          0.7519226074           -0.1972961426          0.2386322021           0.1430206299           
6.0000000000           0.2754821777           0.0906066895           0.7287597656           -0.1953735352          0.7304687500           -0.1946411133          0.2585449219           0.1309814453           
7.0000000000           0.2887268066           0.0703887939           0.7135009766           -0.1938781738          0.7152099609           -0.1933898926          0.2725524902           0.1200256348           
8.0000000000           0.2975006104           0.0518798828           0.7021789551           -0.1939697266          0.7039184570           -0.1935729980          0.2825469971           0.1107635498           
9.0000000000           0.3033294678           0.0351104736           0.6932678223           -0.1956787109          0.6951293945           -0.1952819824          0.2901458740           0.1028442383           
10.0000000000          0.3070373535           0.0196380615           0.6862182617           -0.1985778809          0.6878967285           -0.1982727051          0.2958526611           0.0961914063           
11.0000000000          0.3090667725           0.0055236816           0.6800231934           -0.2025756836          0.6818237305           -0.2023010254          0.3004913330           0.0906829834           
12.0000000000          0.3100128174           -0.0075836182          0.6746215820           -0.2074890137          0.6763610840           -0.2072448730          0.3043060303           0.0858306885           
13.0000000000          0.3100280762           -0.0198669434          0.6697387695           -0.2130126953          0.6715393066           -0.2128906250          0.3074340820           0.0819549561           
14.0000000000          0.3092193604           -0.0314178467          0.6651916504           -0.2192077637          0.6669006348           -0.2191772461          0.3101654053           0.0784301758           
15.0000000000          0.3079833984           -0.0423126221          0.6607971191           -0.2258911133          0.6626281738           -0.2257995605          0.3125457764           0.0756225586           
16.0000000000          0.3062286377           -0.0526275635          0.6564636230           -0.2320861816          0.6584777832           -0.2329711914          0.3145751953           0.0735626221           
17.0000000000          0.3039398193           -0.0623474121          0.6524658203           -0.2393493652          0.6543884277           -0.2403259277          0.3165435791           0.0713653564           
18.0000000000          0.3013305664           -0.0717315674          0.6482543945           -0.2469787598          0.6502990723           -0.2480773926          0.3183746338           0.0694122314           
19.0000000000          0.2982940674           -0.0807647705          0.6441650391           -0.2551879883          0.6461791992           -0.2560119629          0.3200836182           0.0678100586           
20.0000000000          0.2951507568           -0.0894622803          0.6401977539           -0.2630004883          0.6420593262           -0.2641601563          0.3218383789           0.0664062500           
21.0000000000          0.2915649414           -0.0978088379          0.6359558105           -0.2713317871          0.6379699707           -0.2724609375          0.3234558105           0.0650939941           
22.0000000000          0.2876892090           -0.1057128906          0.6317749023           -0.2796630859          0.6336364746           -0.2808532715          0.3251495361           0.0638885498           
23.0000000000          0.2836761475           -0.1134796143          0.6274108887           -0.2881774902          0.6292114258           -0.2894897461          0.3267059326           0.0629882813           
24.0000000000          0.2793121338           -0.1209716797          0.6229248047           -0.2967834473          0.6247863770           -0.2981567383          0.3283691406           0.0620880127           
25.0000000000          0.2747955322           -0.1281890869          0.6184082031           -0.3055114746          0.6202697754           -0.3068237305          0.3300170898           0.0611114502           
26.0000000000          0.2699890137           -0.1351776123          0.6136779785           -0.3141479492          0.6155700684           -0.3155212402          0.3315277100           0.0602111816           
27.0000000000          0.2650299072           -0.1418762207          0.6089172363           -0.3229064941          0.6106872559           -0.3245239258          0.3330993652           0.0594940186           
28.0000000000          0.2598724365           -0.1483612061          0.6040039063           -0.3317260742          0.6056518555           -0.3332214355          0.3345642090           0.0587005615           
29.0000000000          0.2544860840           -0.1546325684          0.5989379883           -0.3404541016          0.6007080078           -0.3422546387          0.3361358643           0.0579376221           
30.0000000000          0.2489318848           -0.1606979370          0.5936889648           -0.3494262695          0.5953674316           -0.3512268066          0.3378143311           0.0571899414           
31.0000000000          0.2431335449           -0.1665039063          0.5883178711           -0.3583068848          0.5899658203           -0.3601379395          0.3393249512           0.0564880371           
32.0000000000          0.2371444702           -0.1721801758          0.5828247070           -0.3672485352          0.5845031738           -0.3690185547          0.3409881592           0.0558166504           
33.0000000000          0.2310867310           -0.1774520874          0.5771484375           -0.3760070801          0.5787048340           -0.3779296875          0.3426818848           0.0551147461           
34.0000000000          0.2247238159           -0.1826477051          0.5712890625           -0.3850097656          0.5728149414           -0.3868103027          0.3442993164           0.0544738770           
35.0000000000          0.2183532715           -0.1874542236          0.5652770996           -0.3938598633          0.5667419434           -0.3956604004          0.3459472656           0.0537109375           
36.0000000000          0.2117691040           -0.1921005249          0.5591430664           -0.4026794434          0.5605773926           -0.4044494629          0.3476715088           0.0530700684           
37.0000000000          0.2049865723           -0.1965179443          0.5529785156           -0.4112548828          0.5542907715           -0.4131774902          0.3493804932           0.0522613525           
38.0000000000          0.1980819702           -0.2007598877          0.5463867188           -0.4198608398          0.5477600098           -0.4219055176          0.3510131836           0.0514678955           
39.0000000000          0.1911315918           -0.2047271729          0.5397644043           -0.4287414551          0.5410461426           -0.4304809570          0.3526611328           0.0506591797           
40.0000000000          0.1839828491           -0.2085418701          0.5330200195           -0.4372863770          0.5340881348           -0.4392700195          0.3542938232           0.0498504639           
41.0000000000          0.1767349243           -0.2119369507          0.5260314941           -0.4459228516          0.5272521973           -0.4477233887          0.3558959961           0.0489807129           
42.0000000000          0.1692276001           -0.2151794434          0.5191040039           -0.4544067383          0.5200500488           -0.4562072754          0.3575744629           0.0480194092           
43.0000000000          0.1616897583           -0.2181777954          0.5116577148           -0.4627380371          0.5127868652           -0.4646911621          0.3590698242           0.0470733643           
44.0000000000          0.1541061401           -0.2209701538          0.5043640137           -0.4709167480          0.5051574707           -0.4729919434          0.3606262207           0.0460205078           
45.0000000000          0.1463394165           -0.2234191895          0.4966125488           -0.4792022705          0.4974670410           -0.4812011719          0.3622131348           0.0449981689           
46.0000000000          0.1385650635           -0.2257308960          0.4889831543           -0.4873199463          0.4895782471           -0.4894714355          0.3637695313           0.0438690186           
47.0000000000          0.1306076050           -0.2277145386          0.4808807373           -0.4954376221          0.4816284180           -0.4975128174          0.3652648926           0.0427398682           
48.0000000000          0.1226425171           -0.2294921875          0.4728698730           -0.5033874512          0.4734802246           -0.5053405762          0.3668365479           0.0416717529           
49.0000000000          0.1145782471           -0.2309722900          0.4644775391           -0.5111389160          0.4651794434           -0.5133666992          0.3684387207           0.0404357910           
50.0000000000          0.1064071655           -0.2322235107          0.4562988281           -0.5188293457          0.4566650391           -0.5209960938          0.3698883057           0.0391693115           
51.0000000000          0.0981674194           -0.2332305908          0.4476623535           -0.5265502930          0.4479675293           -0.5286560059          0.3713378906           0.0378417969           
!$Notes
!SAC Choke Balun 2x Yellow Cores
!$State
!Measurement Parameters
!  Measurement Points=51
!  Start Frequency =1 MHz
!  Stop Frequency =51 MHz
!  IF BW=10 Hz
!  Sweep Time=5.2s
!  Averaging: Off
!  Correction = Yes
!  Source Pwr=0 dBm
!  Port 1 Attenuation=0 dB
!  Port 2 Attenuation=0 dB
!  Delay S11 S21=0ps 0 ps
!  Delay S12 S22=0ps 0 ps
!Measurement Time= 14.2 s
