# MHz S RI R 50 
! S-Parameters data 
! Freq   reS11   imS11   reS21   imS21   reS12   imS12   reS22   imS22 
1.0000000000           0.3294067383           0.0021362305           -0.6591491699          -0.0131225586          -0.6651000977          -0.0137939453          0.3119659424           0.0622253418           
2.0000000000           0.3301086426           -0.0184783936          -0.6608581543          0.0179748535           -0.6667175293          0.0180358887           0.3179931641           0.0328979492           
3.0000000000           0.3291168213           -0.0345611572          -0.6604003906          0.0397338867           -0.6664123535          0.0401916504           0.3201751709           0.0222320557           
4.0000000000           0.3272247314           -0.0493774414          -0.6592102051          0.0589294434           -0.6650695801          0.0597229004           0.3214569092           0.0165710449           
5.0000000000           0.3245544434           -0.0634765625          -0.6575317383          0.0771484375           -0.6633300781          0.0781860352           0.3224792480           0.0127410889           
6.0000000000           0.3213043213           -0.0773010254          -0.6552734375          0.0947570801           -0.6611328125          0.0960998535           0.3234252930           0.0097198486           
7.0000000000           0.3172607422           -0.0909118652          -0.6527709961          0.1121520996           -0.6584472656          0.1137695313           0.3241729736           0.0077362061           
8.0000000000           0.3126220703           -0.1041259766          -0.6499023438          0.1292419434           -0.6553649902          0.1311645508           0.3247985840           0.0055999756           
9.0000000000           0.3073272705           -0.1171112061          -0.6463623047          0.1461486816           -0.6517639160          0.1481933594           0.3255004883           0.0036621094           
10.0000000000          0.3014678955           -0.1298980713          -0.6426086426          0.1628723145           -0.6479187012          0.1652221680           0.3260650635           0.0019226074           
11.0000000000          0.2948455811           -0.1422119141          -0.6384277344          0.1794738770           -0.6435241699          0.1820068359           0.3266143799           0.0003662109           
12.0000000000          0.2877197266           -0.1542968750          -0.6336975098          0.1958312988           -0.6388244629          0.1986389160           0.3271942139           -0.0011444092          
13.0000000000          0.2799530029           -0.1659698486          -0.6286926270          0.2120361328           -0.6336059570          0.2151489258           0.3276824951           -0.0026702881          
14.0000000000          0.2715606689           -0.1773376465          -0.6233520508          0.2282104492           -0.6280517578          0.2315063477           0.3281860352           -0.0041503906          
15.0000000000          0.2627258301           -0.1882019043          -0.6175231934          0.2441406250           -0.6220397949          0.2475891113           0.3286437988           -0.0056762695          
16.0000000000          0.2533874512           -0.1987762451          -0.6115417480          0.2600708008           -0.6158142090          0.2635803223           0.3290100098           -0.0069885254          
17.0000000000          0.2433929443           -0.2089538574          -0.6048278809          0.2757263184           -0.6089782715          0.2795104980           0.3294830322           -0.0085601807          
18.0000000000          0.2328872681           -0.2184906006          -0.5978393555          0.2911682129           -0.6018676758          0.2952575684           0.3298187256           -0.0100250244          
19.0000000000          0.2218551636           -0.2275772095          -0.5906066895          0.3064270020           -0.5942382813          0.3106994629           0.3301849365           -0.0114898682          
20.0000000000          0.2106933594           -0.2361679077          -0.5828247070          0.3215026855           -0.5863342285          0.3258056641           0.3305511475           -0.0129394531          
21.0000000000          0.1988372803           -0.2443389893          -0.5746765137          0.3365478516           -0.5780639648          0.3409118652           0.3309478760           -0.0145111084          
22.0000000000          0.1867218018           -0.2518463135          -0.5661926270          0.3513183594           -0.5692443848          0.3558044434           0.3311462402           -0.0160827637          
23.0000000000          0.1740417480           -0.2587738037          -0.5573730469          0.3658447266           -0.5602111816          0.3704223633           0.3314971924           -0.0176849365          
24.0000000000          0.1611480713           -0.2652130127          -0.5484008789          0.3801879883           -0.5507202148          0.3848266602           0.3315582275           -0.0192413330          
25.0000000000          0.1478424072           -0.2709655762          -0.5385437012          0.3942260742           -0.5408935547          0.3991088867           0.3319091797           -0.0209045410          
26.0000000000          0.1341857910           -0.2761077881          -0.5286865234          0.4082031250           -0.5307312012          0.4130554199           0.3320465088           -0.0225524902          
27.0000000000          0.1203155518           -0.2806243896          -0.5184326172          0.4217834473           -0.5200500488          0.4266967773           0.3321380615           -0.0242004395          
28.0000000000          0.1062011719           -0.2845001221          -0.5076599121          0.4351501465           -0.5091552734          0.4400634766           0.3322753906           -0.0259552002          
29.0000000000          0.0918884277           -0.2877197266          -0.4965667725          0.4481964111           -0.4978179932          0.4530487061           0.3323211670           -0.0277557373          
30.0000000000          0.0773315430           -0.2901458740          -0.4852142334          0.4610443115           -0.4863128662          0.4659881592           0.3323516846           -0.0294342041          
31.0000000000          0.0626068115           -0.2919921875          -0.4735107422          0.4736328125           -0.4743957520          0.4784698486           0.3322448730           -0.0312500000          
32.0000000000          0.0477294922           -0.2931518555          -0.4614105225          0.4857940674           -0.4619445801          0.4906921387           0.3320770264           -0.0331115723          
33.0000000000          0.0329284668           -0.2936096191          -0.4490509033          0.4977874756           -0.4494018555          0.5026245117           0.3319396973           -0.0347900391          
34.0000000000          0.0178222656           -0.2933197021          -0.4363098145          0.5094604492           -0.4364318848          0.5142211914           0.3317108154           -0.0367584229          
35.0000000000          0.0028381348           -0.2924346924          -0.4234313965          0.5206604004           -0.4232482910          0.5252990723           0.3313598633           -0.0386047363          
36.0000000000          -0.0121154785          -0.2907867432          -0.4099731445          0.5315246582           -0.4097900391          0.5360717773           0.3310699463           -0.0404205322          
37.0000000000          -0.0270996094          -0.2883453369          -0.3963928223          0.5422668457           -0.3958435059          0.5465393066           0.3306732178           -0.0423583984          
38.0000000000          -0.0419006348          -0.2852020264          -0.3825073242          0.5525207520           -0.3818054199          0.5567626953           0.3302307129           -0.0442352295          
39.0000000000          -0.0566711426          -0.2814483643          -0.3683471680          0.5623779297           -0.3674316406          0.5664672852           0.3297119141           -0.0460815430          
40.0000000000          -0.0713653564          -0.2768859863          -0.3538513184          0.5718688965           -0.3529052734          0.5758361816           0.3290710449           -0.0480194092          
41.0000000000          -0.0858001709          -0.2716979980          -0.3392028809          0.5808715820           -0.3380737305          0.5847778320           0.3284454346           -0.0498352051          
42.0000000000          -0.0999908447          -0.2657470703          -0.3242492676          0.5896911621           -0.3230285645          0.5934143066           0.3277130127           -0.0517883301          
43.0000000000          -0.1139678955          -0.2592315674          -0.3091125488          0.5979309082           -0.3077697754          0.6015014648           0.3269348145           -0.0537109375          
44.0000000000          -0.1276550293          -0.2519226074          -0.2937316895          0.6058349609           -0.2922058105          0.6092529297           0.3261260986           -0.0555114746          
45.0000000000          -0.1410522461          -0.2440948486          -0.2782897949          0.6133422852           -0.2765502930          0.6164550781           0.3251800537           -0.0573883057          
46.0000000000          -0.1540985107          -0.2354888916          -0.2625427246          0.6203613281           -0.2605895996          0.6234741211           0.3241882324           -0.0592193604          
47.0000000000          -0.1666564941          -0.2262725830          -0.2463989258          0.6269531250           -0.2444763184          0.6298522949           0.3231964111           -0.0611419678          
48.0000000000          -0.1790008545          -0.2165222168          -0.2304382324          0.6329956055           -0.2283325195          0.6359558105           0.3220062256           -0.0628051758          
49.0000000000          -0.1907806396          -0.2062225342          -0.2140197754          0.6388244629           -0.2119750977          0.6414184570           0.3208007813           -0.0645294189          
50.0000000000          -0.2021942139          -0.1953430176          -0.1978149414          0.6439514160           -0.1954345703          0.6462402344           0.3195495605           -0.0663757324          
51.0000000000          -0.2129058838          -0.1838989258          -0.1811523438          0.6488952637           -0.1790161133          0.6510314941           0.3182373047           -0.0679931641          
!$Notes
!SAC Choke Balun EMI snap on core
!$State
!Measurement Parameters
!  Measurement Points=51
!  Start Frequency =1 MHz
!  Stop Frequency =51 MHz
!  IF BW=10 Hz
!  Sweep Time=5.2s
!  Averaging: Off
!  Correction = Yes
!  Source Pwr=0 dBm
!  Port 1 Attenuation=0 dB
!  Port 2 Attenuation=0 dB
!  Delay S11 S21=0ps 0 ps
!  Delay S12 S22=0ps 0 ps
!Measurement Time= 14.7 s
