# MHz S RI R 50 
! S-Parameters data 
! Freq   reS11   imS11   reS21   imS21   reS12   imS12   reS22   imS22 
1.0000000000           -0.4878387451          0.2863006592           -0.5104980469          -0.2697143555          -0.5078735352          -0.2698059082          -0.4923400879          0.2969360352           
2.0000000000           -0.3796997070          0.1809082031           -0.6169433594          -0.1487731934          -0.6148376465          -0.1495056152          -0.3833618164          0.2041931152           
3.0000000000           -0.3542785645          0.1341705322           -0.6412963867          -0.0869445801          -0.6394653320          -0.0875549316          -0.3566436768          0.1694335938           
4.0000000000           -0.3444824219          0.1112670898           -0.6497497559          -0.0488281250          -0.6480102539          -0.0494079590          -0.3451232910          0.1581420898           
5.0000000000           -0.3394165039          0.0990905762           -0.6530151367          -0.0213623047          -0.6513366699          -0.0220642090          -0.3380432129          0.1574096680           
6.0000000000           -0.3362274170          0.0924682617           -0.6543273926          0.0004272461           -0.6524658203          -0.0004577637          -0.3325195313          0.1621704102           
7.0000000000           -0.3340148926          0.0891265869           -0.6542358398          0.0187988281           -0.6523742676          0.0180053711           -0.3274993896          0.1700897217           
8.0000000000           -0.3321838379          0.0877990723           -0.6533508301          0.0352478027           -0.6516113281          0.0341491699           -0.3224792480          0.1798095703           
9.0000000000           -0.3304901123          0.0879058838           -0.6519165039          0.0500183105           -0.6501770020          0.0489196777           -0.3173217773          0.1908721924           
10.0000000000          -0.3290405273          0.0889434814           -0.6501464844          0.0638427734           -0.6484680176          0.0626831055           -0.3120117188          0.2026062012           
11.0000000000          -0.3275451660          0.0905914307           -0.6478881836          0.0769042969           -0.6462707520          0.0754394531           -0.3062133789          0.2148895264           
12.0000000000          -0.3260650635          0.0929412842           -0.6454467773          0.0892028809           -0.6437988281          0.0877075195           -0.3001556396          0.2275848389           
13.0000000000          -0.3246002197          0.0956115723           -0.6426086426          0.1008911133           -0.6409912109          0.0993652344           -0.2937622070          0.2403717041           
14.0000000000          -0.3230743408          0.0985565186           -0.6396789551          0.1121826172           -0.6381530762          0.1105041504           -0.2869720459          0.2532653809           
15.0000000000          -0.3214721680          0.1018218994           -0.6362915039          0.1230163574           -0.6350402832          0.1214294434           -0.2797241211          0.2661743164           
16.0000000000          -0.3197937012          0.1052246094           -0.6329345703          0.1329650879           -0.6316833496          0.1319580078           -0.2722930908          0.2786865234           
17.0000000000          -0.3179931641          0.1086883545           -0.6295166016          0.1429748535           -0.6283569336          0.1420288086           -0.2645111084          0.2913208008           
18.0000000000          -0.3162231445          0.1124114990           -0.6255798340          0.1530456543           -0.6245117188          0.1518859863           -0.2562103271          0.3038787842           
19.0000000000          -0.3141326904          0.1161193848           -0.6216430664          0.1627502441           -0.6205749512          0.1614990234           -0.2477722168          0.3162689209           
20.0000000000          -0.3121948242          0.1198425293           -0.6176452637          0.1720275879           -0.6165161133          0.1708068848           -0.2387695313          0.3283691406           
21.0000000000          -0.3100738525          0.1235961914           -0.6133117676          0.1812133789           -0.6123352051          0.1799621582           -0.2295227051          0.3402404785           
22.0000000000          -0.3078460693          0.1273345947           -0.6090393066          0.1899719238           -0.6080017090          0.1888427734           -0.2199554443          0.3518981934           
23.0000000000          -0.3055725098          0.1312255859           -0.6044311523          0.1988220215           -0.6035156250          0.1974792480           -0.2100524902          0.3632812500           
24.0000000000          -0.3032989502          0.1350555420           -0.5998229980          0.2073059082           -0.5988159180          0.2059936523           -0.1999664307          0.3743438721           
25.0000000000          -0.3008575439          0.1388549805           -0.5949707031          0.2154846191           -0.5940856934          0.2142639160           -0.1896514893          0.3851165771           
26.0000000000          -0.2984313965          0.1425628662           -0.5899047852          0.2235107422           -0.5893249512          0.2220764160           -0.1791381836          0.3954162598           
27.0000000000          -0.2959136963          0.1463470459           -0.5849609375          0.2313232422           -0.5843505859          0.2298889160           -0.1685028076          0.4054565430           
28.0000000000          -0.2933654785          0.1501007080           -0.5799255371          0.2389526367           -0.5791931152          0.2374267578           -0.1575927734          0.4151611328           
29.0000000000          -0.2906188965          0.1536407471           -0.5745239258          0.2462768555           -0.5741577148          0.2449035645           -0.1463623047          0.4245758057           
30.0000000000          -0.2879180908          0.1573181152           -0.5691528320          0.2535400391           -0.5688171387          0.2520751953           -0.1349639893          0.4334411621           
31.0000000000          -0.2852020264          0.1609802246           -0.5638732910          0.2604675293           -0.5635375977          0.2590332031           -0.1235656738          0.4419403076           
32.0000000000          -0.2823791504          0.1644744873           -0.5585327148          0.2673034668           -0.5582885742          0.2658996582           -0.1121368408          0.4505157471           
33.0000000000          -0.2795104980          0.1680297852           -0.5529174805          0.2740173340           -0.5528564453          0.2727050781           -0.1003112793          0.4587402344           
34.0000000000          -0.2765502930          0.1714630127           -0.5473937988          0.2805480957           -0.5472717285          0.2791442871           -0.0884094238          0.4664154053           
35.0000000000          -0.2736053467          0.1748504639           -0.5417480469          0.2868957520           -0.5418395996          0.2854919434           -0.0761871338          0.4738769531           
36.0000000000          -0.2705688477          0.1781921387           -0.5360717773          0.2929992676           -0.5362243652          0.2915954590           -0.0640563965          0.4807891846           
37.0000000000          -0.2675628662          0.1815643311           -0.5304870605          0.2988281250           -0.5307312012          0.2973327637           -0.0518035889          0.4874420166           
38.0000000000          -0.2644042969          0.1848144531           -0.5247802734          0.3044128418           -0.5249023438          0.3031921387           -0.0395965576          0.4936218262           
39.0000000000          -0.2612457275          0.1879119873           -0.5190734863          0.3099975586           -0.5192871094          0.3087768555           -0.0270996094          0.4994201660           
40.0000000000          -0.2580718994          0.1911010742           -0.5132141113          0.3153991699           -0.5134887695          0.3143005371           -0.0146484375          0.5050659180           
41.0000000000          -0.2548675537          0.1941070557           -0.5074768066          0.3208312988           -0.5078735352          0.3196716309           -0.0023193359          0.5101318359           
42.0000000000          -0.2515106201          0.1970367432           -0.5016784668          0.3258361816           -0.5021667480          0.3246459961           0.0101013184           0.5148620605           
43.0000000000          -0.2482604980          0.1999664307           -0.4959106445          0.3308410645           -0.4964141846          0.3296966553           0.0224914551           0.5193176270           
44.0000000000          -0.2449035645          0.2028350830           -0.4901580811          0.3356628418           -0.4908752441          0.3345642090           0.0348815918           0.5235290527           
45.0000000000          -0.2415466309          0.2055358887           -0.4843444824          0.3402252197           -0.4849395752          0.3392791748           0.0474548340           0.5271606445           
46.0000000000          -0.2381744385          0.2082977295           -0.4785766602          0.3447875977           -0.4792480469          0.3437805176           0.0596923828           0.5305786133           
47.0000000000          -0.2347564697          0.2108917236           -0.4727478027          0.3491210938           -0.4735717773          0.3482971191           0.0720214844           0.5338134766           
48.0000000000          -0.2312927246          0.2134857178           -0.4670715332          0.3533935547           -0.4678955078          0.3525695801           0.0844726563           0.5365600586           
49.0000000000          -0.2279815674          0.2160186768           -0.4612731934          0.3575134277           -0.4621276855          0.3567199707           0.0966796875           0.5390625000           
50.0000000000          -0.2245178223          0.2184753418           -0.4556274414          0.3613891602           -0.4563293457          0.3606872559           0.1089477539           0.5410766602           
51.0000000000          -0.2211303711          0.2207641602           -0.4499206543          0.3654785156           -0.4507446289          0.3647155762           0.1212158203           0.5430908203           
!$Notes
!SAC KLM 1:4 Balun
!$State
!Measurement Parameters
!  Measurement Points=51
!  Start Frequency =1 MHz
!  Stop Frequency =51 MHz
!  IF BW=10 Hz
!  Sweep Time=5.2s
!  Averaging: Off
!  Correction = Yes
!  Source Pwr=0 dBm
!  Port 1 Attenuation=0 dB
!  Port 2 Attenuation=0 dB
!  Delay S11 S21=0ps 0 ps
!  Delay S12 S22=0ps 0 ps
!Measurement Time= 14.6 s
