# MHz S RI R 50 
! S-Parameters data 
! Freq   reS11   imS11   reS21   imS21   reS12   imS12   reS22   imS22 
1.0000000000           -0.4334716797          0.0202636719           -0.2838897705          -0.0050964355          -0.2824554443          -0.0053100586          -0.8492431641          0.1183471680           
2.0000000000           -0.4333343506          0.0381011963           -0.2855072021          -0.0089263916          -0.2840728760          -0.0094146729          -0.8232727051          0.2308654785           
3.0000000000           -0.4316101074          0.0566558838           -0.2894134521          -0.0126342773          -0.2880249023          -0.0132141113          -0.7840270996          0.3366699219           
4.0000000000           -0.4290771484          0.0752410889           -0.2949066162          -0.0152893066          -0.2935485840          -0.0159759521          -0.7320556641          0.4336242676           
5.0000000000           -0.4256134033          0.0938262939           -0.3014678955          -0.0166625977          -0.3001403809          -0.0175323486          -0.6699829102          0.5201721191           
6.0000000000           -0.4214782715          0.1120758057           -0.3087310791          -0.0166473389          -0.3074798584          -0.0177307129          -0.6005249023          0.5950012207           
7.0000000000           -0.4164733887          0.1299743652           -0.3165435791          -0.0151824951          -0.3152313232          -0.0164031982          -0.5260314941          0.6576843262           
8.0000000000           -0.4108581543          0.1475372314           -0.3243255615          -0.0123291016          -0.3231506348          -0.0136871338          -0.4490966797          0.7083129883           
9.0000000000           -0.4046173096          0.1647186279           -0.3320770264          -0.0081329346          -0.3309326172          -0.0096130371          -0.3716125488          0.7481994629           
10.0000000000          -0.3980560303          0.1813812256           -0.3392944336          -0.0026397705          -0.3385467529          -0.0041503906          -0.2951660156          0.7776184082           
11.0000000000          -0.3905029297          0.1979064941           -0.3462524414          0.0038757324           -0.3454132080          0.0020294189           -0.2209472656          0.7984008789           
12.0000000000          -0.3827362061          0.2138977051           -0.3525085449          0.0113067627           -0.3517761230          0.0093841553           -0.1498107910          0.8113098145           
13.0000000000          -0.3743743896          0.2296142578           -0.3581237793          0.0195159912           -0.3574981689          0.0173492432           -0.0825805664          0.8175048828           
14.0000000000          -0.3656311035          0.2447662354           -0.3629455566          0.0282287598           -0.3624877930          0.0260467529           -0.0193176270          0.8183288574           
15.0000000000          -0.3564758301          0.2595672607           -0.3669433594          0.0374603271           -0.3667755127          0.0352630615           0.0392456055           0.8141784668           
16.0000000000          -0.3469390869          0.2740325928           -0.3699798584          0.0461120605           -0.3702392578          0.0447540283           0.0920715332           0.8065490723           
17.0000000000          -0.3371124268          0.2879791260           -0.3728332520          0.0558013916           -0.3730926514          0.0544128418           0.1423950195           0.7962646484           
18.0000000000          -0.3266601563          0.3013763428           -0.3746948242          0.0657348633           -0.3750610352          0.0644378662           0.1887817383           0.7836608887           
19.0000000000          -0.3158874512          0.3145141602           -0.3759002686          0.0757598877           -0.3766174316          0.0743408203           0.2312622070           0.7697143555           
20.0000000000          -0.3046417236          0.3270568848           -0.3766784668          0.0858001709           -0.3772277832          0.0842437744           0.2700195313           0.7539672852           
21.0000000000          -0.2931671143          0.3391571045           -0.3767395020          0.0956268311           -0.3775482178          0.0942993164           0.3059082031           0.7375488281           
22.0000000000          -0.2815093994          0.3508453369           -0.3763275146          0.1054382324           -0.3771514893          0.1041107178           0.3387451172           0.7203979492           
23.0000000000          -0.2694702148          0.3620452881           -0.3754425049          0.1151733398           -0.3763885498          0.1139526367           0.3692016602           0.7030639648           
24.0000000000          -0.2570800781          0.3728027344           -0.3742370605          0.1249389648           -0.3753662109          0.1238098145           0.3963623047           0.6854248047           
25.0000000000          -0.2445373535          0.3829956055           -0.3724975586          0.1343078613           -0.3735961914          0.1333007813           0.4218750000           0.6682128906           
26.0000000000          -0.2316589355          0.3926696777           -0.3703002930          0.1436157227           -0.3715515137          0.1426391602           0.4448242188           0.6507568359           
27.0000000000          -0.2186584473          0.4020080566           -0.3677673340          0.1528015137           -0.3690490723          0.1518249512           0.4660644531           0.6339111328           
28.0000000000          -0.2054138184          0.4106750488           -0.3649902344          0.1615905762           -0.3663635254          0.1607971191           0.4858398438           0.6169433594           
29.0000000000          -0.1921081543          0.4187316895           -0.3619079590          0.1702270508           -0.3633728027          0.1695251465           0.5040283203           0.6002197266           
30.0000000000          -0.1785278320          0.4264221191           -0.3585205078          0.1787109375           -0.3601379395          0.1779785156           0.5206298828           0.5837402344           
31.0000000000          -0.1648254395          0.4336242676           -0.3550109863          0.1872253418           -0.3566589355          0.1865539551           0.5356445313           0.5677490234           
32.0000000000          -0.1510620117          0.4403381348           -0.3510437012          0.1955566406           -0.3526916504          0.1949157715           0.5500488281           0.5524902344           
33.0000000000          -0.1371459961          0.4464416504           -0.3468017578          0.2033386230           -0.3484802246          0.2029113770           0.5634765625           0.5373535156           
34.0000000000          -0.1231689453          0.4521179199           -0.3424987793          0.2110290527           -0.3442687988          0.2106323242           0.5758056641           0.5227050781           
35.0000000000          -0.1092529297          0.4571838379           -0.3380432129          0.2185363770           -0.3397216797          0.2181396484           0.5874023438           0.5083007813           
36.0000000000          -0.0952758789          0.4617614746           -0.3334350586          0.2257080078           -0.3349914551          0.2254028320           0.5980224609           0.4941406250           
37.0000000000          -0.0813293457          0.4659423828           -0.3287048340          0.2325439453           -0.3302917480          0.2324829102           0.6079101563           0.4804687500           
38.0000000000          -0.0671386719          0.4695129395           -0.3236999512          0.2394104004           -0.3253479004          0.2394409180           0.6170654297           0.4671630859           
39.0000000000          -0.0533447266          0.4726562500           -0.3186645508          0.2460937500           -0.3203125000          0.2460632324           0.6258544922           0.4542236328           
40.0000000000          -0.0394287109          0.4754333496           -0.3135375977          0.2524414063           -0.3152465820          0.2525329590           0.6336669922           0.4417724609           
41.0000000000          -0.0256042480          0.4775695801           -0.3082885742          0.2586669922           -0.3099365234          0.2588195801           0.6409912109           0.4294433594           
42.0000000000          -0.0119323730          0.4792175293           -0.3029174805          0.2647705078           -0.3046569824          0.2650451660           0.6480712891           0.4174804688           
43.0000000000          0.0017852783           0.4806365967           -0.2975158691          0.2705078125           -0.2992553711          0.2708587646           0.6545410156           0.4058227539           
44.0000000000          0.0153045654           0.4814300537           -0.2920989990          0.2761383057           -0.2937774658          0.2766113281           0.6607666016           0.3945312500           
45.0000000000          0.0286865234           0.4819641113           -0.2866058350          0.2816467285           -0.2882690430          0.2821044922           0.6661987305           0.3836669922           
46.0000000000          0.0419006348           0.4819335938           -0.2811279297          0.2869110107           -0.2826843262          0.2874603271           0.6715698242           0.3729248047           
47.0000000000          0.0553588867           0.4816589355           -0.2753295898          0.2920379639           -0.2771301270          0.2926330566           0.6765747070           0.3621826172           
48.0000000000          0.0681762695           0.4808044434           -0.2698059082          0.2969970703           -0.2714233398          0.2977142334           0.6812133789           0.3521118164           
49.0000000000          0.0809326172           0.4797668457           -0.2640380859          0.3017578125           -0.2656860352          0.3025817871           0.6856994629           0.3421325684           
50.0000000000          0.0936584473           0.4781494141           -0.2584381104          0.3063507080           -0.2598571777          0.3072052002           0.6895751953           0.3322143555           
51.0000000000          0.1058654785           0.4762268066           -0.2527160645          0.3108673096           -0.2542724609          0.3118286133           0.6936950684           0.3226623535           
!$Notes
!SAC Commercial Balun #1
!$State
!Measurement Parameters
!  Measurement Points=51
!  Start Frequency =1 MHz
!  Stop Frequency =51 MHz
!  IF BW=10 Hz
!  Sweep Time=5.2s
!  Averaging: Off
!  Correction = Yes
!  Source Pwr=0 dBm
!  Port 1 Attenuation=0 dB
!  Port 2 Attenuation=0 dB
!  Delay S11 S21=0ps 0 ps
!  Delay S12 S22=0ps 0 ps
!Measurement Time= 14.6 s
