# MHz S RI R 50 
! S-Parameters data 
! Freq   reS11   imS11   reS21   imS21   reS12   imS12   reS22   imS22 
1.0000000000           0.3291931152           0.0159454346           0.6586608887           0.0268554688           0.6645812988           0.0277099609           0.3120422363           0.0623016357           
2.0000000000           0.3310089111           0.0092010498           0.6607971191           0.0096740723           0.6666564941           0.0100402832           0.3180236816           0.0334014893           
3.0000000000           0.3318481445           0.0068664551           0.6610717773           0.0018005371           0.6670837402           0.0020751953           0.3202056885           0.0230255127           
4.0000000000           0.3325195313           0.0057067871           0.6611328125           -0.0033569336          0.6670227051           -0.0032043457          0.3215789795           0.0176544189           
5.0000000000           0.3331298828           0.0049896240           0.6609191895           -0.0078125000          0.6667785645           -0.0075683594          0.3226928711           0.0140838623           
6.0000000000           0.3338012695           0.0043487549           0.6604309082           -0.0117797852          0.6665954590           -0.0115966797          0.3237304688           0.0112915039           
7.0000000000           0.3344726563           0.0043792725           0.6600646973           -0.0148010254          0.6661071777           -0.0147094727          0.3244934082           0.0095367432           
8.0000000000           0.3351593018           0.0039215088           0.6596374512           -0.0180358887          0.6655273438           -0.0181274414          0.3253173828           0.0076751709           
9.0000000000           0.3359375000           0.0035400391           0.6590576172           -0.0212707520          0.6649475098           -0.0211486816          0.3261413574           0.0060882568           
10.0000000000          0.3367004395           0.0031585693           0.6584167480           -0.0242919922          0.6644592285           -0.0241699219          0.3268737793           0.0045928955           
11.0000000000          0.3375091553           0.0027618408           0.6577758789           -0.0271606445          0.6637878418           -0.0271606445          0.3275299072           0.0032043457           
12.0000000000          0.3383178711           0.0023498535           0.6570129395           -0.0297546387          0.6630249023           -0.0297851563          0.3282165527           0.0018615723           
13.0000000000          0.3392333984           0.0018920898           0.6562805176           -0.0324096680          0.6622314453           -0.0325012207          0.3289031982           0.0006256104           
14.0000000000          0.3401489258           0.0013427734           0.6554870605           -0.0349426270          0.6614990234           -0.0350646973          0.3295745850           -0.0006561279          
15.0000000000          0.3411102295           0.0008239746           0.6547546387           -0.0374450684          0.6606750488           -0.0376586914          0.3302764893           -0.0019531250          
16.0000000000          0.3419342041           0.0003204346           0.6537170410           -0.0396423340          0.6598205566           -0.0398559570          0.3308563232           -0.0031127930          
17.0000000000          0.3430023193           -0.0003051758          0.6528625488           -0.0420227051          0.6589050293           -0.0422668457          0.3315429688           -0.0043334961          
18.0000000000          0.3439636230           -0.0010375977          0.6519775391           -0.0443115234          0.6580810547           -0.0446472168          0.3321380615           -0.0056457520          
19.0000000000          0.3449249268           -0.0017852783          0.6509094238           -0.0463562012          0.6570739746           -0.0468139648          0.3328247070           -0.0070037842          
20.0000000000          0.3459777832           -0.0027008057          0.6500549316           -0.0484619141          0.6560668945           -0.0489196777          0.3333435059           -0.0084228516          
21.0000000000          0.3470001221           -0.0035858154          0.6489868164           -0.0505371094          0.6550903320           -0.0511474609          0.3340148926           -0.0098114014          
22.0000000000          0.3481597900           -0.0045471191          0.6480407715           -0.0526428223          0.6540832520           -0.0532226563          0.3345489502           -0.0112915039          
23.0000000000          0.3491363525           -0.0055999756          0.6470947266           -0.0545959473          0.6531372070           -0.0550842285          0.3351287842           -0.0127258301          
24.0000000000          0.3501586914           -0.0067138672          0.6462097168           -0.0564270020          0.6520385742           -0.0569763184          0.3356475830           -0.0143585205          
25.0000000000          0.3512878418           -0.0079345703          0.6451416016           -0.0582580566          0.6511840820           -0.0587768555          0.3361663818           -0.0157928467          
26.0000000000          0.3522796631           -0.0091400146          0.6442871094           -0.0599060059          0.6501464844           -0.0606994629          0.3365936279           -0.0174407959          
27.0000000000          0.3533172607           -0.0104980469          0.6432800293           -0.0616149902          0.6491699219           -0.0624084473          0.3370666504           -0.0189971924          
28.0000000000          0.3542175293           -0.0119018555          0.6421203613           -0.0632324219          0.6481933594           -0.0640258789          0.3374481201           -0.0207672119          
29.0000000000          0.3552856445           -0.0134429932          0.6413269043           -0.0647277832          0.6471557617           -0.0655822754          0.3378295898           -0.0224914551          
30.0000000000          0.3561859131           -0.0149536133          0.6404113770           -0.0661621094          0.6463317871           -0.0670166016          0.3380737305           -0.0242156982          
31.0000000000          0.3571319580           -0.0166320801          0.6395263672           -0.0675659180          0.6454772949           -0.0684509277          0.3383331299           -0.0260620117          
32.0000000000          0.3579711914           -0.0184020996          0.6387329102           -0.0689392090          0.6446228027           -0.0699768066          0.3385772705           -0.0279388428          
33.0000000000          0.3588104248           -0.0201568604          0.6378479004           -0.0704345703          0.6437377930           -0.0713500977          0.3386535645           -0.0297698975          
34.0000000000          0.3596343994           -0.0220031738          0.6371459961           -0.0716247559          0.6429443359           -0.0726928711          0.3388061523           -0.0316772461          
35.0000000000          0.3603820801           -0.0239105225          0.6362915039           -0.0727539063          0.6421508789           -0.0739440918          0.3388519287           -0.0336608887          
36.0000000000          0.3611602783           -0.0258178711          0.6355895996           -0.0740356445          0.6415100098           -0.0751342773          0.3388977051           -0.0355529785          
37.0000000000          0.3617401123           -0.0278472900          0.6349182129           -0.0752868652          0.6406555176           -0.0763244629          0.3387451172           -0.0377197266          
38.0000000000          0.3623504639           -0.0301055908          0.6343078613           -0.0763244629          0.6401062012           -0.0775756836          0.3386383057           -0.0397033691          
39.0000000000          0.3628692627           -0.0321350098          0.6336975098           -0.0773925781          0.6395874023           -0.0786437988          0.3384552002           -0.0417938232          
40.0000000000          0.3633422852           -0.0343475342          0.6332092285           -0.0784301758          0.6390686035           -0.0796508789          0.3381195068           -0.0438079834          
41.0000000000          0.3637390137           -0.0367584229          0.6326904297           -0.0793762207          0.6386413574           -0.0808105469          0.3377990723           -0.0458984375          
42.0000000000          0.3640441895           -0.0390472412          0.6324462891           -0.0804443359          0.6382141113           -0.0818481445          0.3373565674           -0.0479736328          
43.0000000000          0.3643493652           -0.0413818359          0.6321411133           -0.0814514160          0.6379089355           -0.0827636719          0.3367919922           -0.0500640869          
44.0000000000          0.3644561768           -0.0438385010          0.6318664551           -0.0822753906          0.6375122070           -0.0836486816          0.3361968994           -0.0521697998          
45.0000000000          0.3645477295           -0.0463256836          0.6315612793           -0.0832824707          0.6373596191           -0.0847167969          0.3355865479           -0.0542144775          
46.0000000000          0.3645935059           -0.0487976074          0.6315002441           -0.0842590332          0.6372680664           -0.0856933594          0.3348999023           -0.0564270020          
47.0000000000          0.3645477295           -0.0513610840          0.6315307617           -0.0852050781          0.6372375488           -0.0867309570          0.3339843750           -0.0585021973          
48.0000000000          0.3643798828           -0.0539550781          0.6315612793           -0.0860290527          0.6371765137           -0.0877685547          0.3330993652           -0.0605163574          
49.0000000000          0.3641052246           -0.0564422607          0.6315612793           -0.0870971680          0.6372375488           -0.0888061523          0.3321075439           -0.0626220703          
50.0000000000          0.3638000488           -0.0589294434          0.6317443848           -0.0879516602          0.6373901367           -0.0898132324          0.3311309814           -0.0646514893          
51.0000000000          0.3634490967           -0.0616149902          0.6320190430           -0.0891113281          0.6376647949           -0.0906066895          0.3299255371           -0.0666961670          
!$Notes
!SBC Choke Balun EMI snap on core
!$State
!Measurement Parameters
!  Measurement Points=51
!  Start Frequency =1 MHz
!  Stop Frequency =51 MHz
!  IF BW=10 Hz
!  Sweep Time=5.2s
!  Averaging: Off
!  Correction = Yes
!  Source Pwr=0 dBm
!  Port 1 Attenuation=0 dB
!  Port 2 Attenuation=0 dB
!  Delay S11 S21=0ps 0 ps
!  Delay S12 S22=0ps 0 ps
!Measurement Time= 14.6 s
