# MHz S RI R 50 
! S-Parameters data 
! Freq   reS11   imS11   reS21   imS21   reS12   imS12   reS22   imS22 
1.0000000000           0.6268615723           0.1029968262           0.2669677734           0.1396789551           0.2679138184           0.1408386230           0.4959411621           0.3822937012           
2.0000000000           0.6434326172           0.0579223633           0.2998809814           0.0755157471           0.3013305664           0.0761413574           0.5818176270           0.2170104980           
3.0000000000           0.6482849121           0.0419311523           0.3081665039           0.0495300293           0.3097076416           0.0500183105           0.6048583984           0.1545715332           
4.0000000000           0.6508483887           0.0338134766           0.3116912842           0.0348510742           0.3132934570           0.0351409912           0.6156921387           0.1219482422           
5.0000000000           0.6526184082           0.0291442871           0.3135223389           0.0249481201           0.3151397705           0.0251922607           0.6224060059           0.1018066406           
6.0000000000           0.6539611816           0.0259704590           0.3145446777           0.0173950195           0.3160552979           0.0176544189           0.6270446777           0.0879211426           
7.0000000000           0.6553039551           0.0238342285           0.3150634766           0.0114746094           0.3166656494           0.0115814209           0.6306457520           0.0776367188           
8.0000000000           0.6564331055           0.0223388672           0.3153076172           0.0063476563           0.3169555664           0.0064697266           0.6335449219           0.0700378418           
9.0000000000           0.6576232910           0.0211181641           0.3153228760           0.0020294189           0.3170623779           0.0020904541           0.6361083984           0.0637207031           
10.0000000000          0.6587829590           0.0203857422           0.3150177002           -0.0019073486          0.3171386719           -0.0017242432          0.6384277344           0.0588378906           
11.0000000000          0.6600036621           0.0194091797           0.3149414063           -0.0055084229          0.3166351318           -0.0054779053          0.6403198242           0.0543823242           
12.0000000000          0.6610717773           0.0187988281           0.3146057129           -0.0089111328          0.3162841797           -0.0088653564          0.6421508789           0.0505981445           
13.0000000000          0.6622314453           0.0183715820           0.3139953613           -0.0119476318          0.3158721924           -0.0118713379          0.6439208984           0.0474243164           
14.0000000000          0.6636047363           0.0177307129           0.3135528564           -0.0148773193          0.3153076172           -0.0148925781          0.6454467773           0.0443420410           
15.0000000000          0.6647644043           0.0172119141           0.3129425049           -0.0175781250          0.3147277832           -0.0176239014          0.6469116211           0.0417480469           
16.0000000000          0.6659851074           0.0168151855           0.3123626709           -0.0202178955          0.3139953613           -0.0201873779          0.6485595703           0.0390625000           
17.0000000000          0.6672363281           0.0163269043           0.3115539551           -0.0227966309          0.3133392334           -0.0226898193          0.6499633789           0.0365905762           
18.0000000000          0.6685791016           0.0156555176           0.3108062744           -0.0253143311          0.3125152588           -0.0252227783          0.6511840820           0.0344238281           
19.0000000000          0.6700744629           0.0153503418           0.3100738525           -0.0273895264          0.3118133545           -0.0272521973          0.6523742676           0.0323791504           
20.0000000000          0.6712646484           0.0145263672           0.3090362549           -0.0296325684          0.3109283447           -0.0294342041          0.6535949707           0.0303955078           
21.0000000000          0.6726989746           0.0140686035           0.3083496094           -0.0317840576          0.3100280762           -0.0317687988          0.6549072266           0.0282287598           
22.0000000000          0.6740417480           0.0133056641           0.3073883057           -0.0337677002          0.3090667725           -0.0337829590          0.6560363770           0.0264282227           
23.0000000000          0.6754455566           0.0128479004           0.3063354492           -0.0356903076          0.3081054688           -0.0357513428          0.6574707031           0.0244750977           
24.0000000000          0.6767272949           0.0119628906           0.3054199219           -0.0376586914          0.3070068359           -0.0375976563          0.6584472656           0.0227050781           
25.0000000000          0.6781616211           0.0114135742           0.3042602539           -0.0392913818          0.3059539795           -0.0393524170          0.6593627930           0.0208435059           
26.0000000000          0.6795654297           0.0105285645           0.3031921387           -0.0409393311          0.3049468994           -0.0410308838          0.6603088379           0.0189819336           
27.0000000000          0.6810607910           0.0097656250           0.3021087646           -0.0426330566          0.3040008545           -0.0426177979          0.6614990234           0.0173950195           
28.0000000000          0.6825561523           0.0086059570           0.3011016846           -0.0443115234          0.3027648926           -0.0442504883          0.6622619629           0.0154724121           
29.0000000000          0.6839904785           0.0076293945           0.3000183105           -0.0458068848          0.3018341064           -0.0457611084          0.6632080078           0.0137023926           
30.0000000000          0.6854248047           0.0065307617           0.2989196777           -0.0472259521          0.3008270264           -0.0473327637          0.6641845703           0.0117492676           
31.0000000000          0.6867065430           0.0055847168           0.2976837158           -0.0485687256          0.2995452881           -0.0487823486          0.6648559570           0.0099487305           
32.0000000000          0.6883544922           0.0047912598           0.2967987061           -0.0496063232          0.2982025146           -0.0499114990          0.6654357910           0.0081787109           
33.0000000000          0.6899108887           0.0033569336           0.2955627441           -0.0509796143          0.2973480225           -0.0511627197          0.6664428711           0.0065002441           
34.0000000000          0.6914978027           0.0019226074           0.2946014404           -0.0522308350          0.2962951660           -0.0523223877          0.6673278809           0.0046691895           
35.0000000000          0.6929931641           0.0006713867           0.2935180664           -0.0534362793          0.2951354980           -0.0536956787          0.6680297852           0.0025634766           
36.0000000000          0.6942138672           -0.0008239746          0.2922973633           -0.0545654297          0.2939910889           -0.0548095703          0.6686401367           0.0008239746           
37.0000000000          0.6956481934           -0.0023498535          0.2912597656           -0.0555725098          0.2929992676           -0.0559234619          0.6694946289           -0.0011291504          
38.0000000000          0.6968994141           -0.0039672852          0.2900390625           -0.0565643311          0.2918395996           -0.0569610596          0.6697998047           -0.0030212402          
39.0000000000          0.6984252930           -0.0055236816          0.2890319824           -0.0574188232          0.2906951904           -0.0579223633          0.6705017090           -0.0049743652          
40.0000000000          0.6998901367           -0.0074768066          0.2880859375           -0.0585784912          0.2895965576           -0.0588226318          0.6709594727           -0.0071105957          
41.0000000000          0.7012023926           -0.0090942383          0.2870483398           -0.0595245361          0.2885742188           -0.0596618652          0.6712036133           -0.0090026855          
42.0000000000          0.7025451660           -0.0108947754          0.2860870361           -0.0603942871          0.2875671387           -0.0605773926          0.6717529297           -0.0110168457          
43.0000000000          0.7038269043           -0.0128784180          0.2850646973           -0.0611877441          0.2866516113           -0.0614013672          0.6720581055           -0.0130004883          
44.0000000000          0.7050476074           -0.0148010254          0.2840881348           -0.0619812012          0.2856597900           -0.0623168945          0.6722106934           -0.0150756836          
45.0000000000          0.7060852051           -0.0169372559          0.2831268311           -0.0628662109          0.2846527100           -0.0630950928          0.6723327637           -0.0172119141          
46.0000000000          0.7072753906           -0.0190734863          0.2822265625           -0.0635223389          0.2837371826           -0.0638885498          0.6724853516           -0.0194396973          
47.0000000000          0.7085876465           -0.0213012695          0.2813262939           -0.0642242432          0.2828063965           -0.0646057129          0.6725769043           -0.0214538574          
48.0000000000          0.7095947266           -0.0235290527          0.2804107666           -0.0649719238          0.2819366455           -0.0652770996          0.6724548340           -0.0234985352          
49.0000000000          0.7107849121           -0.0259399414          0.2794647217           -0.0657043457          0.2811126709           -0.0659637451          0.6724853516           -0.0257568359          
50.0000000000          0.7116088867           -0.0282592773          0.2786712646           -0.0663757324          0.2801971436           -0.0664215088          0.6721801758           -0.0277404785          
51.0000000000          0.7127990723           -0.0307312012          0.2779235840           -0.0669097900          0.2794036865           -0.0673980713          0.6721496582           -0.0301513672          
!$Notes
!Balun SBC
!$State
!Measurement Parameters
!  Measurement Points=51
!  Start Frequency =1 MHz
!  Stop Frequency =51 MHz
!  IF BW=10 Hz
!  Sweep Time=5.2s
!  Averaging: Off
!  Correction = Yes
!  Source Pwr=0 dBm
!  Port 1 Attenuation=0 dB
!  Port 2 Attenuation=0 dB
!  Delay S11 S21=0ps 0 ps
!  Delay S12 S22=0ps 0 ps
!Measurement Time= 14.3 s
