# MHz S RI R 50 
! S-Parameters data 
! Freq   reS11   imS11   reS21   imS21   reS12   imS12   reS22   imS22 
1.0000000000           -0.7368164063          0.1538391113           -0.2542572021          -0.1316375732          -0.2542724609          -0.1315307617          -0.7449035645          0.1760559082           
2.0000000000           -0.6784667969          0.1026306152           -0.3098754883          -0.0640106201          -0.3098449707          -0.0637969971          -0.6844482422          0.1529541016           
3.0000000000           -0.6641540527          0.0809631348           -0.3220825195          -0.0255432129          -0.3220520020          -0.0254211426          -0.6651000977          0.1576232910           
4.0000000000           -0.6588745117          0.0716552734           -0.3257141113          0.0005035400           -0.3256835938          0.0006256104           -0.6527709961          0.1734924316           
5.0000000000           -0.6561889648          0.0680541992           -0.3263702393          0.0209960938           -0.3264312744          0.0211181641           -0.6415710449          0.1943054199           
6.0000000000           -0.6547241211          0.0673828125           -0.3258666992          0.0385284424           -0.3257446289          0.0386657715           -0.6300048828          0.2171630859           
7.0000000000           -0.6539306641          0.0684204102           -0.3245239258          0.0541839600           -0.3244171143          0.0543365479           -0.6175231934          0.2409362793           
8.0000000000           -0.6533203125          0.0706787109           -0.3226013184          0.0687713623           -0.3224945068          0.0689239502           -0.6040649414          0.2653198242           
9.0000000000           -0.6530761719          0.0735778809           -0.3201141357          0.0826263428           -0.3200683594          0.0827636719           -0.5891113281          0.2892761230           
10.0000000000          -0.6529541016          0.0773925781           -0.3175048828          0.0957183838           -0.3173065186          0.0960083008           -0.5732421875          0.3129882813           
11.0000000000          -0.6526184082          0.0811767578           -0.3142852783          0.1085357666           -0.3143005371          0.1087036133           -0.5558776855          0.3358764648           
12.0000000000          -0.6527099609          0.0854797363           -0.3108367920          0.1208801270           -0.3107757568          0.1210479736           -0.5373229980          0.3581237793           
13.0000000000          -0.6526489258          0.0900573730           -0.3071136475          0.1330108643           -0.3070220947          0.1331939697           -0.5177917480          0.3794860840           
14.0000000000          -0.6526794434          0.0948791504           -0.3030242920          0.1447601318           -0.3030242920          0.1448974609           -0.4973754883          0.3996582031           
15.0000000000          -0.6528320313          0.0999145508           -0.2986450195          0.1563415527           -0.2986297607          0.1564636230           -0.4755249023          0.4188690186           
16.0000000000          -0.6528625488          0.1048889160           -0.2939910889          0.1679077148           -0.2939605713          0.1677398682           -0.4527435303          0.4371643066           
17.0000000000          -0.6531677246          0.1101989746           -0.2889404297          0.1789855957           -0.2888946533          0.1788940430           -0.4291839600          0.4540252686           
18.0000000000          -0.6531982422          0.1157531738           -0.2836303711          0.1898956299           -0.2836456299          0.1897583008           -0.4048461914          0.4694366455           
19.0000000000          -0.6534423828          0.1213684082           -0.2781066895          0.2006988525           -0.2782287598          0.2005157471           -0.3799285889          0.4835815430           
20.0000000000          -0.6536560059          0.1271362305           -0.2722320557          0.2111358643           -0.2722320557          0.2109832764           -0.3540954590          0.4962463379           
21.0000000000          -0.6538085938          0.1331176758           -0.2660980225          0.2214508057           -0.2661590576          0.2212677002           -0.3279418945          0.5073547363           
22.0000000000          -0.6540832520          0.1389160156           -0.2596893311          0.2314758301           -0.2595977783          0.2314300537           -0.3011474609          0.5169372559           
23.0000000000          -0.6545104980          0.1448059082           -0.2530517578          0.2413330078           -0.2528533936          0.2412719727           -0.2740783691          0.5250549316           
24.0000000000          -0.6546936035          0.1509094238           -0.2459869385          0.2507781982           -0.2460327148          0.2508697510           -0.2465209961          0.5317382813           
25.0000000000          -0.6549072266          0.1573791504           -0.2387695313          0.2603454590           -0.2388000488          0.2602539063           -0.2191162109          0.5365295410           
26.0000000000          -0.6550292969          0.1638488770           -0.2312622070          0.2695617676           -0.2312927246          0.2694854736           -0.1914062500          0.5399169922           
27.0000000000          -0.6552734375          0.1705627441           -0.2234497070          0.2785186768           -0.2235412598          0.2783660889           -0.1638183594          0.5416870117           
28.0000000000          -0.6553344727          0.1771545410           -0.2153625488          0.2870941162           -0.2154083252          0.2870178223           -0.1362304688          0.5418701172           
29.0000000000          -0.6554565430          0.1838684082           -0.2070007324          0.2954559326           -0.2071838379          0.2953643799           -0.1087341309          0.5404663086           
30.0000000000          -0.6555786133          0.1908264160           -0.1985778809          0.3034973145           -0.1985626221          0.3034667969           -0.0814819336          0.5374755859           
31.0000000000          -0.6554565430          0.1979675293           -0.1898651123          0.3112640381           -0.1898345947          0.3111572266           -0.0545959473          0.5325927734           
32.0000000000          -0.6555175781          0.2054138184           -0.1809082031          0.3189392090           -0.1810302734          0.3188476563           -0.0285339355          0.5263977051           
33.0000000000          -0.6553955078          0.2128295898           -0.1717376709          0.3261566162           -0.1717987061          0.3261260986           -0.0031738281          0.5190124512           
34.0000000000          -0.6553344727          0.2203369141           -0.1623535156          0.3330383301           -0.1624145508          0.3329467773           0.0218811035           0.5099182129           
35.0000000000          -0.6551818848          0.2280883789           -0.1527709961          0.3395080566           -0.1528930664          0.3395233154           0.0461120605           0.4993896484           
36.0000000000          -0.6547546387          0.2358398438           -0.1432037354          0.3457641602           -0.1432342529          0.3457641602           0.0696105957           0.4874572754           
37.0000000000          -0.6545410156          0.2437744141           -0.1334381104          0.3517150879           -0.1334533691          0.3516387939           0.0921630859           0.4742126465           
38.0000000000          -0.6539916992          0.2517700195           -0.1233978271          0.3571166992           -0.1233978271          0.3571472168           0.1138610840           0.4594726563           
39.0000000000          -0.6535949707          0.2600097656           -0.1133422852          0.3623962402           -0.1134338379          0.3623199463           0.1343688965           0.4438171387           
40.0000000000          -0.6530151367          0.2685546875           -0.1031951904          0.3670959473           -0.1033172607          0.3671112061           0.1538085938           0.4267272949           
41.0000000000          -0.6523132324          0.2771606445           -0.0931549072          0.3715972900           -0.0931396484          0.3714447021           0.1719970703           0.4086303711           
42.0000000000          -0.6512756348          0.2858581543           -0.0830078125          0.3755798340           -0.0829467773          0.3755645752           0.1890258789           0.3894958496           
43.0000000000          -0.6502380371          0.2948303223           -0.0728149414          0.3793182373           -0.0727691650          0.3792572021           0.2046203613           0.3694763184           
44.0000000000          -0.6489562988          0.3039550781           -0.0624694824          0.3826446533           -0.0626068115          0.3825988770           0.2189941406           0.3484802246           
45.0000000000          -0.6476135254          0.3131103516           -0.0523986816          0.3856201172           -0.0524749756          0.3856353760           0.2318725586           0.3266601563           
46.0000000000          -0.6460571289          0.3225708008           -0.0424194336          0.3882904053           -0.0424194336          0.3883361816           0.2433166504           0.3041076660           
47.0000000000          -0.6442871094          0.3323364258           -0.0323333740          0.3906402588           -0.0323181152          0.3906250000           0.2531738281           0.2808837891           
48.0000000000          -0.6423950195          0.3419799805           -0.0226745605          0.3925018311           -0.0225524902          0.3925476074           0.2614440918           0.2570190430           
49.0000000000          -0.6401367188          0.3521423340           -0.0129699707          0.3942108154           -0.0129852295          0.3941955566           0.2681274414           0.2325439453           
50.0000000000          -0.6378173828          0.3623046875           -0.0034942627          0.3957214355           -0.0034942627          0.3956298828           0.2732238770           0.2077789307           
51.0000000000          -0.6351013184          0.3725280762           0.0057525635           0.3968811035           0.0057678223           0.3968048096           0.2766723633           0.1825256348           
!$Notes
!SBC  1:1 Voltage Balun. Large Red Core. Cal 3 hours ago certified with T check at the time.
!$State
!Measurement Parameters
!  Measurement Points=51
!  Start Frequency =1 MHz
!  Stop Frequency =51 MHz
!  IF BW=10 Hz
!  Sweep Time=5.2s
!  Averaging: Off
!  Correction = Yes
!  Source Pwr=0 dBm
!  Port 1 Attenuation=0 dB
!  Port 2 Attenuation=0 dB
!  Delay S11 S21=0ps 0 ps
!  Delay S12 S22=0ps 0 ps
!Measurement Time= 14.6 s
