# MHz S RI R 50 
! S-Parameters data 
! Freq   reS11   imS11   reS21   imS21   reS12   imS12   reS22   imS22 
1.0000000000           -0.4866943359          0.2886962891           -0.5108947754          -0.2684020996          -0.5083312988          -0.2683715820          -0.4924163818          0.2969818115           
2.0000000000           -0.3783264160          0.1845703125           -0.6174621582          -0.1456298828          -0.6153869629          -0.1463317871          -0.3833770752          0.2042236328           
3.0000000000           -0.3526306152          0.1393737793           -0.6416015625          -0.0820312500          -0.6396789551          -0.0826721191          -0.3566131592          0.1694335938           
4.0000000000           -0.3426208496          0.1180877686           -0.6498107910          -0.0422363281          -0.6480407715          -0.0428466797          -0.3450927734          0.1581573486           
5.0000000000           -0.3373870850          0.1074829102           -0.6528015137          -0.0131530762          -0.6510925293          -0.0138854980          -0.3380584717          0.1574401855           
6.0000000000           -0.3340148926          0.1024475098           -0.6535949707          0.0103759766           -0.6518554688          0.0093688965           -0.3325195313          0.1621856689           
7.0000000000           -0.3314971924          0.1006011963           -0.6531066895          0.0303039551           -0.6513366699          0.0293579102           -0.3275146484          0.1700744629           
8.0000000000           -0.3293304443          0.1008911133           -0.6517028809          0.0482482910           -0.6500244141          0.0471801758           -0.3225250244          0.1798553467           
9.0000000000           -0.3273162842          0.1025085449           -0.6496582031          0.0646057129           -0.6480712891          0.0634765625           -0.3174133301          0.1908874512           
10.0000000000          -0.3254852295          0.1049957275           -0.6472473145          0.0800170898           -0.6456298828          0.0787353516           -0.3119354248          0.2025604248           
11.0000000000          -0.3236694336          0.1082916260           -0.6444091797          0.0943603516           -0.6428833008          0.0929565430           -0.3062896729          0.2148895264           
12.0000000000          -0.3217773438          0.1119842529           -0.6412048340          0.1081848145           -0.6395568848          0.1068725586           -0.3001708984          0.2275238037           
13.0000000000          -0.3199310303          0.1161804199           -0.6376342773          0.1213989258           -0.6361083984          0.1198120117           -0.2938232422          0.2402801514           
14.0000000000          -0.3178405762          0.1206054688           -0.6336364746          0.1340942383           -0.6322937012          0.1324462891           -0.2869873047          0.2532196045           
15.0000000000          -0.3157196045          0.1252593994           -0.6295471191          0.1464233398           -0.6283569336          0.1446228027           -0.2797698975          0.2660980225           
16.0000000000          -0.3135223389          0.1300201416           -0.6251525879          0.1576538086           -0.6240844727          0.1564331055           -0.2723846436          0.2785034180           
17.0000000000          -0.3112792969          0.1349487305           -0.6207275391          0.1689147949           -0.6195373535          0.1678466797           -0.2644500732          0.2912292480           
18.0000000000          -0.3087158203          0.1399536133           -0.6157836914          0.1801452637           -0.6147766113          0.1788940430           -0.2562561035          0.3037414551           
19.0000000000          -0.3061523438          0.1448822021           -0.6108398438          0.1911926270           -0.6097106934          0.1898803711           -0.2477416992          0.3161621094           
20.0000000000          -0.3036193848          0.1499786377           -0.6056213379          0.2017822266           -0.6045227051          0.2002563477           -0.2388153076          0.3282775879           
21.0000000000          -0.3007812500          0.1550445557           -0.6001892090          0.2118835449           -0.5992431641          0.2105102539           -0.2296142578          0.3401031494           
22.0000000000          -0.2979278564          0.1600952148           -0.5946350098          0.2219848633           -0.5935974121          0.2205200195           -0.2200012207          0.3517303467           
23.0000000000          -0.2950286865          0.1650543213           -0.5888061523          0.2316589355           -0.5879821777          0.2300720215           -0.2102203369          0.3631896973           
24.0000000000          -0.2919464111          0.1699066162           -0.5827636719          0.2410888672           -0.5820007324          0.2396545410           -0.2001037598          0.3741302490           
25.0000000000          -0.2889404297          0.1749114990           -0.5766601563          0.2502136230           -0.5761413574          0.2485961914           -0.1898498535          0.3848876953           
26.0000000000          -0.2858123779          0.1797027588           -0.5703125000          0.2591552734           -0.5697937012          0.2575683594           -0.1791992188          0.3952026367           
27.0000000000          -0.2826232910          0.1845245361           -0.5639648438          0.2679443359           -0.5634155273          0.2662048340           -0.1685485840          0.4052734375           
28.0000000000          -0.2792816162          0.1892547607           -0.5573425293          0.2762756348           -0.5569152832          0.2745666504           -0.1576995850          0.4149627686           
29.0000000000          -0.2759552002          0.1939544678           -0.5507202148          0.2844848633           -0.5504150391          0.2827758789           -0.1466217041          0.4244384766           
30.0000000000          -0.2724761963          0.1984863281           -0.5438537598          0.2922363281           -0.5436706543          0.2907104492           -0.1351928711          0.4333648682           
31.0000000000          -0.2689971924          0.2029418945           -0.5370788574          0.3000183105           -0.5369873047          0.2983093262           -0.1236877441          0.4418029785           
32.0000000000          -0.2655639648          0.2073516846           -0.5303344727          0.3072204590           -0.5303344727          0.3056945801           -0.1122894287          0.4502563477           
33.0000000000          -0.2620544434          0.2118988037           -0.5232543945          0.3146362305           -0.5232543945          0.3131103516           -0.1005554199          0.4584655762           
34.0000000000          -0.2583465576          0.2160797119           -0.5162048340          0.3216552734           -0.5163879395          0.3200378418           -0.0885925293          0.4662628174           
35.0000000000          -0.2545776367          0.2203521729           -0.5090026855          0.3284606934           -0.5092773438          0.3270263672           -0.0764770508          0.4736022949           
36.0000000000          -0.2509307861          0.2243804932           -0.5018310547          0.3349914551           -0.5021057129          0.3334045410           -0.0642700195          0.4804382324           
37.0000000000          -0.2471237183          0.2284851074           -0.4946594238          0.3412017822           -0.4948883057          0.3398132324           -0.0520172119          0.4873046875           
38.0000000000          -0.2432632446          0.2323913574           -0.4873352051          0.3470764160           -0.4876556396          0.3459167480           -0.0396423340          0.4934082031           
39.0000000000          -0.2394561768          0.2361755371           -0.4799346924          0.3530273438           -0.4804992676          0.3517608643           -0.0273132324          0.4992675781           
40.0000000000          -0.2356033325          0.2399444580           -0.4727172852          0.3586730957           -0.4732055664          0.3574676514           -0.0149536133          0.5048522949           
41.0000000000          -0.2316818237          0.2435607910           -0.4652099609          0.3641967773           -0.4659118652          0.3628387451           -0.0025634766          0.5099487305           
42.0000000000          -0.2277832031          0.2471618652           -0.4579315186          0.3694152832           -0.4586791992          0.3681488037           0.0097656250           0.5148315430           
43.0000000000          -0.2238769531          0.2505950928           -0.4503479004          0.3743896484           -0.4513244629          0.3733673096           0.0222473145           0.5191650391           
44.0000000000          -0.2200317383          0.2539062500           -0.4430694580          0.3792419434           -0.4439392090          0.3782043457           0.0345458984           0.5233764648           
45.0000000000          -0.2160339355          0.2571716309           -0.4357910156          0.3839111328           -0.4364624023          0.3828125000           0.0470581055           0.5268554688           
46.0000000000          -0.2120971680          0.2603454590           -0.4284057617          0.3884277344           -0.4293823242          0.3874206543           0.0592651367           0.5304565430           
47.0000000000          -0.2080688477          0.2634887695           -0.4210510254          0.3927307129           -0.4220581055          0.3917846680           0.0715942383           0.5336914063           
48.0000000000          -0.2042541504          0.2665100098           -0.4137878418          0.3968811035           -0.4147033691          0.3959655762           0.0839843750           0.5363769531           
49.0000000000          -0.2003173828          0.2693481445           -0.4061889648          0.4007873535           -0.4071960449          0.4000854492           0.0963134766           0.5388793945           
50.0000000000          -0.1963500977          0.2723083496           -0.3990173340          0.4046325684           -0.4000549316          0.4038391113           0.1085815430           0.5411376953           
51.0000000000          -0.1926269531          0.2749938965           -0.3917846680          0.4082946777           -0.3927612305          0.4075317383           0.1207275391           0.5429687500           
!$Notes
!SBC KLM 1:4 Balun
!$State
!Measurement Parameters
!  Measurement Points=51
!  Start Frequency =1 MHz
!  Stop Frequency =51 MHz
!  IF BW=10 Hz
!  Sweep Time=5.2s
!  Averaging: Off
!  Correction = Yes
!  Source Pwr=0 dBm
!  Port 1 Attenuation=0 dB
!  Port 2 Attenuation=0 dB
!  Delay S11 S21=0ps 0 ps
!  Delay S12 S22=0ps 0 ps
!Measurement Time= 14.6 s
