# MHz S RI R 50 
! S-Parameters data 
! Freq   reS11   imS11   reS21   imS21   reS12   imS12   reS22   imS22 
1.0000000000           0.6299063419           0.1022141860           0.2651954532           0.1389426942           0.2648223751           0.1387628685           0.5026374492           0.3795146687           
1.1250000000           0.6299011312           0.1021840397           0.2652068394           0.1388916443           0.2648614386           0.1387341965           0.5027539720           0.3794759836           
1.2500000000           0.6302669598           0.1013063502           0.2659552541           0.1377058812           0.2656362469           0.1375637245           0.5047962832           0.3764999605           
1.3750000000           0.6316607120           0.0978843366           0.2688056636           0.1330893797           0.2684917181           0.1329731624           0.5121400767           0.3644555540           
1.5000000000           0.6340193469           0.0919505751           0.2736642106           0.1250277006           0.2732900672           0.1248940268           0.5244796998           0.3432884189           
1.6250000000           0.6367921026           0.0850268556           0.2791327152           0.1154854258           0.2786860705           0.1153335496           0.5384415176           0.3184063659           
1.7500000000           0.6392736809           0.0784433323           0.2840859708           0.1062869441           0.2836233256           0.1061660787           0.5511156812           0.2945502813           
1.8750000000           0.6413174084           0.0727571112           0.2881553735           0.0982042105           0.2876994193           0.0981266452           0.5615231211           0.2737476288           
2.0000000000           0.6429862983           0.0679497147           0.2913590396           0.0912188630           0.2909352850           0.0911786714           0.5699333613           0.2559951219           
2.1250000000           0.6444061264           0.0638192854           0.2939804316           0.0851318633           0.2935666613           0.0851202624           0.5768599639           0.2406529327           
2.2500000000           0.6454688596           0.0601677656           0.2961452564           0.0797354528           0.2957368840           0.0797391464           0.5826237576           0.2271257924           
2.3750000000           0.6463403581           0.0569307959           0.2980344620           0.0749314352           0.2975854524           0.0749422004           0.5875298180           0.2151075238           
2.5000000000           0.6470483545           0.0540317156           0.2996075633           0.0705874877           0.2991226716           0.0706095867           0.5915953196           0.2043072440           
2.6250000000           0.6477054134           0.0514321453           0.3009050598           0.0666192899           0.3004301370           0.0666755257           0.5950834778           0.1946104160           
2.7500000000           0.6484480844           0.0491328411           0.3020629875           0.0630210498           0.3015592294           0.0630984268           0.5982336867           0.1859081882           
2.8750000000           0.6492415583           0.0470927253           0.3030988563           0.0597485904           0.3026000397           0.0598252144           0.6012533203           0.1780878986           
3.0000000000           0.6497434485           0.0452109826           0.3039977165           0.0567254324           0.3035507251           0.0568247493           0.6039896711           0.1709582631           
3.1250000000           0.6501204843           0.0434774635           0.3048340979           0.0539368194           0.3043812665           0.0540441703           0.6063436395           0.1643927756           
3.2500000000           0.6506012800           0.0419052324           0.3056000759           0.0513656025           0.3050654358           0.0514445825           0.6083669305           0.1583072329           
3.3750000000           0.6511024627           0.0404453169           0.3062697522           0.0489673154           0.3057318054           0.0490534962           0.6102610466           0.1527279448           
3.5000000000           0.6516946439           0.0391079219           0.3069071956           0.0467313951           0.3063740758           0.0468238779           0.6119949993           0.1475759164           
3.6250000000           0.6520983469           0.0378458706           0.3074572436           0.0446217246           0.3069059675           0.0447262598           0.6135887402           0.1427914508           
3.7500000000           0.6523893809           0.0367022822           0.3079672497           0.0426432924           0.3074317055           0.0427555604           0.6150536090           0.1383271793           
3.8750000000           0.6525562264           0.0356193055           0.3084200630           0.0407881799           0.3079147674           0.0409066499           0.6163799883           0.1341777587           
4.0000000000           0.6527481573           0.0345697962           0.3088270144           0.0390022570           0.3083217568           0.0391510782           0.6176727575           0.1302707636           
4.1250000000           0.6529677881           0.0335694973           0.3091637188           0.0373169874           0.3087202377           0.0375044041           0.6188305067           0.1266029998           
4.2500000000           0.6533246910           0.0326664246           0.3095091490           0.0357210761           0.3090340279           0.0359149524           0.6198450949           0.1231659546           
4.3750000000           0.6536896637           0.0318659541           0.3098639499           0.0342056630           0.3093295336           0.0343936920           0.6209741401           0.1199814776           
4.5000000000           0.6539383399           0.0311214217           0.3101557745           0.0327607588           0.3096648262           0.0329609876           0.6220873673           0.1169858473           
4.6250000000           0.6541119584           0.0303655031           0.3104251821           0.0313967381           0.3099256405           0.0315790883           0.6230497107           0.1141403390           
4.7500000000           0.6543154426           0.0296552639           0.3106711044           0.0300913236           0.3101408386           0.0302193525           0.6239246107           0.1114042466           
4.8750000000           0.6545448261           0.0289594843           0.3109306525           0.0288242952           0.3103609420           0.0289256391           0.6246449864           0.1088283209           
5.0000000000           0.6547257545           0.0282989492           0.3111112731           0.0275738813           0.3105445448           0.0276946219           0.6253883759           0.1063407288           
5.1250000000           0.6549553938           0.0277342211           0.3113437217           0.0263980698           0.3107569546           0.0265386407           0.6261448770           0.1039879835           
5.2500000000           0.6553249326           0.0272310394           0.3116015712           0.0252883313           0.3109264208           0.0254209678           0.6268811997           0.1017936131           
5.3750000000           0.6556266219           0.0267194565           0.3118390395           0.0242180174           0.3110532592           0.0243265619           0.6274981044           0.0997037688           
5.5000000000           0.6558433414           0.0261923115           0.3120136069           0.0231596119           0.3111534734           0.0232576281           0.6280652997           0.0976825180           
5.6250000000           0.6559689480           0.0256860046           0.3121348353           0.0221425886           0.3113070237           0.0222909997           0.6286676546           0.0957527062           
5.7500000000           0.6560742941           0.0251630457           0.3122672339           0.0211569034           0.3115409651           0.0213468209           0.6294667538           0.0939420332           
5.8750000000           0.6561522227           0.0247110983           0.3123779967           0.0201910051           0.3117687749           0.0204110480           0.6301395327           0.0921938219           
6.0000000000           0.6563787221           0.0243045994           0.3124680634           0.0192471427           0.3119466979           0.0194846069           0.6307437195           0.0904739569           
6.1250000000           0.6566394732           0.0238986741           0.3124952055           0.0183254643           0.3120259477           0.0185744852           0.6312475576           0.0888075750           
6.2500000000           0.6568649372           0.0234983392           0.3126009170           0.0174516369           0.3121062756           0.0177168303           0.6316467233           0.0872332536           
6.3750000000           0.6569985993           0.0231149487           0.3127430263           0.0166397504           0.3122641072           0.0168793611           0.6321818777           0.0857350993           
6.5000000000           0.6571275264           0.0227953042           0.3128995479           0.0158095757           0.3123929507           0.0160806579           0.6327542006           0.0843696930           
6.6250000000           0.6572873064           0.0224348996           0.3130121319           0.0149849487           0.3124843410           0.0152911069           0.6332672128           0.0829719271           
6.7500000000           0.6574129010           0.0220556877           0.3131268012           0.0142211824           0.3125921470           0.0145073776           0.6337628145           0.0816162591           
6.8750000000           0.6575664910           0.0216967906           0.3131940184           0.0134677610           0.3126620804           0.0137232775           0.6342395437           0.0803263245           
7.0000000000           0.6577214040           0.0213555776           0.3131972806           0.0127125558           0.3127308496           0.0129392670           0.6346908975           0.0790801804           
7.1250000000           0.6578627289           0.0209793252           0.3132462700           0.0119504596           0.3128350549           0.0122216373           0.6351316217           0.0779049430           
7.2500000000           0.6580055842           0.0206727241           0.3133361607           0.0112161033           0.3128836596           0.0114928932           0.6355218969           0.0767281709           
7.3750000000           0.6581282836           0.0204354169           0.3134327382           0.0105285920           0.3129112869           0.0107977257           0.6357882527           0.0755587809           
7.5000000000           0.6583264511           0.0202326665           0.3135478797           0.0098860552           0.3129461620           0.0101371141           0.6361160059           0.0744513436           
7.6250000000           0.6585142670           0.0199526108           0.3136225333           0.0092020271           0.3129586675           0.0094906854           0.6364852538           0.0734010017           
7.7500000000           0.6586972256           0.0197065159           0.3136495467           0.0085231237           0.3129822652           0.0088228424           0.6368654827           0.0723685984           
7.8750000000           0.6588903157           0.0193900619           0.3136612778           0.0078602093           0.3130302641           0.0081682879           0.6373021054           0.0714161580           
8.0000000000           0.6590464592           0.0191184338           0.3137016286           0.0072101759           0.3130558678           0.0075207678           0.6376728435           0.0704396210           
8.1250000000           0.6591796015           0.0188310274           0.3137422845           0.0065788113           0.3131324421           0.0069066441           0.6380335649           0.0695074585           
8.2500000000           0.6591896645           0.0185644928           0.3137155969           0.0059629353           0.3131701205           0.0062982895           0.6383617989           0.0685937195           
8.3750000000           0.6592482065           0.0182769584           0.3136829783           0.0053376435           0.3131755231           0.0056885329           0.6386792907           0.0676873645           
8.5000000000           0.6594117657           0.0180624114           0.3136531051           0.0047125167           0.3131828265           0.0050759346           0.6389781977           0.0667384202           
8.6250000000           0.6595624282           0.0178830419           0.3137007234           0.0041415144           0.3132174320           0.0044846648           0.6392469493           0.0658695011           
8.7500000000           0.6596644124           0.0176930861           0.3137396090           0.0035773699           0.3132179017           0.0039305293           0.6395775835           0.0650547819           
8.8750000000           0.6597459384           0.0174279046           0.3137796428           0.0030273072           0.3132337992           0.0033644348           0.6399049238           0.0641930062           
9.0000000000           0.6598517209           0.0171588950           0.3138290835           0.0024471755           0.3132554352           0.0028165953           0.6401865527           0.0633655985           
9.1250000000           0.6600039268           0.0169780764           0.3138866664           0.0018720273           0.3132719111           0.0022174473           0.6405053208           0.0626043098           
9.2500000000           0.6601370392           0.0168456199           0.3139166621           0.0013347226           0.3132603310           0.0016729808           0.6407844030           0.0618919275           
9.3750000000           0.6602503356           0.0167228621           0.3139036554           0.0008226044           0.3132725667           0.0011589573           0.6411500074           0.0612334389           
9.5000000000           0.6603289738           0.0165341549           0.3138493276           0.0002842756           0.3132752551           0.0006087817           0.6415667553           0.0605639829           
9.6250000000           0.6605151125           0.0163823814           0.3138244191           -0.0002586343          0.3132757232           0.0000719560           0.6419139143           0.0598779351           
9.7500000000           0.6607298182           0.0162875907           0.3138410027           -0.0007778966          0.3133167797           -0.0004496509          0.6422060442           0.0592520216           
9.8750000000           0.6608982108           0.0161734186           0.3138067020           -0.0012758314          0.3133303635           -0.0009181364          0.6423625565           0.0586184770           
10.0000000000          0.6610461221           0.0159908208           0.3138397149           -0.0017913925          0.3133152298           -0.0014311401          0.6425679029           0.0578704922           
10.1250000000          0.6612055463           0.0158100698           0.3138353027           -0.0022920808          0.3132672471           -0.0019204320          0.6428953826           0.0572413533           
10.2500000000          0.6613223643           0.0155460306           0.3137599184           -0.0027708903          0.3132394401           -0.0024049636          0.6431819359           0.0566362335           
10.3750000000          0.6614822390           0.0152829539           0.3137062465           -0.0032751624          0.3131910931           -0.0028978386          0.6433961022           0.0559997110           
10.5000000000          0.6616154912           0.0150399817           0.3136844007           -0.0037521514          0.3131591432           -0.0033979196          0.6435922902           0.0552940841           
10.6250000000          0.6616968199           0.0149126602           0.3137073556           -0.0042163349          0.3131337133           -0.0038930777          0.6438044564           0.0546526051           
10.7500000000          0.6616676017           0.0148367653           0.3137297425           -0.0046655888          0.3130931709           -0.0043395495          0.6440122313           0.0540551722           
10.8750000000          0.6617329933           0.0146949800           0.3136545578           -0.0051558928          0.3130508192           -0.0047999050          0.6442014326           0.0535134238           
11.0000000000          0.6618911000           0.0145545486           0.3135993294           -0.0056414083          0.3130115598           -0.0052529776          0.6444096959           0.0530128572           
11.1250000000          0.6620537522           0.0143835391           0.3135597733           -0.0061057302          0.3129905957           -0.0057159408          0.6446153406           0.0524938974           
11.2500000000          0.6622334551           0.0141894934           0.3135022231           -0.0065397980          0.3129995892           -0.0061595472          0.6448874163           0.0519175854           
11.3750000000          0.6623088303           0.0139857336           0.3134216638           -0.0069957120          0.3130113133           -0.0066111247          0.6451661509           0.0513213863           
11.5000000000          0.6624018061           0.0138682594           0.3133560624           -0.0074412716          0.3129525172           -0.0070738745          0.6454065577           0.0507484038           
11.6250000000          0.6625024573           0.0137565862           0.3133153112           -0.0078694696          0.3128828566           -0.0075449223          0.6456346209           0.0502604333           
11.7500000000          0.6627716373           0.0136318162           0.3133124821           -0.0083089780          0.3128577543           -0.0079806339          0.6458484498           0.0498065760           
11.8750000000          0.6630166038           0.0135201147           0.3132823458           -0.0087257016          0.3128124021           -0.0083959510          0.6460604183           0.0493287080           
12.0000000000          0.6631487651           0.0133812888           0.3132583465           -0.0091723725          0.3127578700           -0.0087850988          0.6462931178           0.0488630159           
12.1250000000          0.6631809096           0.0132083025           0.3131976019           -0.0096209453          0.3126520512           -0.0091896881          0.6465074777           0.0483637594           
12.2500000000          0.6632120340           0.0130433096           0.3131929726           -0.0100795575          0.3126223830           -0.0096194947          0.6466219348           0.0478177769           
12.3750000000          0.6632685652           0.0128792464           0.3132049312           -0.0105129560          0.3126060520           -0.0100287005          0.6468118663           0.0473295615           
12.5000000000          0.6634197878           0.0127446311           0.3131738690           -0.0109045800          0.3125473358           -0.0104438428          0.6471245172           0.0469240594           
12.6250000000          0.6636324897           0.0127040843           0.3131201722           -0.0112846853          0.3124471049           -0.0108592213          0.6473260456           0.0464662061           
12.7500000000          0.6637791969           0.0125658554           0.3130418961           -0.0116807790          0.3123789265           -0.0112809687          0.6475842809           0.0459951183           
