# MHz S RI R 50 
! S-Parameters data 
! Freq   reS11   imS11   reS21   imS21   reS12   imS12   reS22   imS22 
1.0000000000           -0.8496398926          0.4240112305           0.0722198486           0.2022552490           0.0717010498           0.2018585205           0.0263900757           0.1016998291           
2.0000000000           -0.5535278320          0.6387939453           0.2154541016           0.3034057617           0.2141113281           0.3035278320           0.0963439941           0.1541748047           
3.0000000000           -0.2891845703          0.6821899414           0.3432617188           0.3215942383           0.3420410156           0.3225708008           0.1594543457           0.1663513184           
4.0000000000           -0.1009521484          0.6499633789           0.4345092773           0.3029785156           0.4338378906           0.3045654297           0.2048034668           0.1601562500           
5.0000000000           0.0255126953           0.5949096680           0.4956054688           0.2730712891           0.4953002930           0.2749633789           0.2354125977           0.1482543945           
6.0000000000           0.1110229492           0.5383911133           0.5366210938           0.2424316406           0.5365600586           0.2444458008           0.2562866211           0.1359252930           
7.0000000000           0.1699829102           0.4872436523           0.5646972656           0.2146606445           0.5649414063           0.2164306641           0.2709045410           0.1247863770           
8.0000000000           0.2119750977           0.4423828125           0.5842285156           0.1898803711           0.5848999023           0.1917114258           0.2813720703           0.1152954102           
9.0000000000           0.2426147461           0.4042968750           0.5983886719           0.1683959961           0.5993041992           0.1700439453           0.2893066406           0.1072387695           
10.0000000000          0.2658081055           0.3715209961           0.6087646484           0.1495361328           0.6096801758           0.1513671875           0.2953186035           0.1004638672           
11.0000000000          0.2835693359           0.3433227539           0.6163940430           0.1329956055           0.6175537109           0.1347045898           0.3001403809           0.0947265625           
12.0000000000          0.2977905273           0.3190307617           0.6223144531           0.1182861328           0.6234130859           0.1198730469           0.3040466309           0.0898742676           
13.0000000000          0.3090209961           0.2979125977           0.6265869141           0.1051635742           0.6279907227           0.1068725586           0.3074340820           0.0857238770           
14.0000000000          0.3182983398           0.2793579102           0.6298828125           0.0933837891           0.6312255859           0.0950317383           0.3103027344           0.0822143555           
15.0000000000          0.3259887695           0.2630310059           0.6323242188           0.0827941895           0.6337585449           0.0844421387           0.3128051758           0.0792541504           
16.0000000000          0.3324584961           0.2485351563           0.6339416504           0.0738830566           0.6357421875           0.0746765137           0.3149566650           0.0770721436           
17.0000000000          0.3379211426           0.2355346680           0.6353454590           0.0652160645           0.6371154785           0.0658569336           0.3169250488           0.0748291016           
18.0000000000          0.3428344727           0.2239074707           0.6362304688           0.0569152832           0.6381835938           0.0576782227           0.3189239502           0.0729675293           
19.0000000000          0.3470458984           0.2134094238           0.6367797852           0.0493774414           0.6389160156           0.0501708984           0.3207550049           0.0712585449           
20.0000000000          0.3509521484           0.2039184570           0.6371459961           0.0425415039           0.6391601563           0.0431823730           0.3224182129           0.0697631836           
21.0000000000          0.3544311523           0.1952819824           0.6372985840           0.0359802246           0.6393737793           0.0368041992           0.3241729736           0.0685424805           
22.0000000000          0.3575439453           0.1873168945           0.6374206543           0.0298767090           0.6392822266           0.0306396484           0.3258972168           0.0674285889           
23.0000000000          0.3604736328           0.1800231934           0.6370239258           0.0241699219           0.6389770508           0.0248413086           0.3275909424           0.0664215088           
24.0000000000          0.3630981445           0.1732788086           0.6366271973           0.0189514160           0.6383972168           0.0193481445           0.3292846680           0.0653381348           
25.0000000000          0.3657226563           0.1670532227           0.6361694336           0.0138854980           0.6380615234           0.0143127441           0.3309478760           0.0645141602           
26.0000000000          0.3680419922           0.1611328125           0.6354064941           0.0090637207           0.6375732422           0.0095825195           0.3325805664           0.0637359619           
27.0000000000          0.3702392578           0.1555480957           0.6347045898           0.0045471191           0.6368408203           0.0050964355           0.3342742920           0.0630187988           
28.0000000000          0.3725280762           0.1504821777           0.6340332031           0.0003051758           0.6360473633           0.0006103516           0.3358764648           0.0622558594           
29.0000000000          0.3743896484           0.1456298828           0.6329956055           -0.0037231445          0.6353149414           -0.0033874512          0.3374938965           0.0615692139           
30.0000000000          0.3764648438           0.1409912109           0.6321716309           -0.0077209473          0.6343688965           -0.0074462891          0.3391723633           0.0608520508           
31.0000000000          0.3783569336           0.1365356445           0.6311035156           -0.0115356445          0.6333923340           -0.0111999512          0.3407592773           0.0602569580           
32.0000000000          0.3801879883           0.1323242188           0.6301879883           -0.0149536133          0.6324157715           -0.0146484375          0.3425140381           0.0595397949           
33.0000000000          0.3820190430           0.1283569336           0.6291198730           -0.0183105469          0.6312866211           -0.0180664063          0.3442077637           0.0588684082           
34.0000000000          0.3837738037           0.1244964600           0.6280517578           -0.0216064453          0.6302185059           -0.0213012695          0.3459625244           0.0581665039           
35.0000000000          0.3854827881           0.1208038330           0.6268005371           -0.0246582031          0.6290588379           -0.0245056152          0.3477020264           0.0574645996           
36.0000000000          0.3870544434           0.1172485352           0.6255493164           -0.0276489258          0.6277160645           -0.0274047852          0.3494415283           0.0567779541           
37.0000000000          0.3887481689           0.1137542725           0.6244201660           -0.0303649902          0.6264038086           -0.0303039551          0.3511810303           0.0559082031           
38.0000000000          0.3902435303           0.1103668213           0.6231079102           -0.0330200195          0.6252136230           -0.0328674316          0.3528594971           0.0551452637           
39.0000000000          0.3918304443           0.1071472168           0.6218566895           -0.0355834961          0.6238708496           -0.0354614258          0.3545989990           0.0543518066           
40.0000000000          0.3933715820           0.1039276123           0.6206054688           -0.0381164551          0.6226501465           -0.0379943848          0.3563537598           0.0535278320           
41.0000000000          0.3948516846           0.1007385254           0.6193237305           -0.0405273438          0.6213073730           -0.0402526855          0.3580780029           0.0526885986           
42.0000000000          0.3962860107           0.0976562500           0.6180725098           -0.0426635742          0.6201477051           -0.0424499512          0.3597869873           0.0517578125           
43.0000000000          0.3975830078           0.0946502686           0.6166076660           -0.0447692871          0.6186523438           -0.0446472168          0.3613891602           0.0508575439           
44.0000000000          0.3990173340           0.0917358398           0.6153259277           -0.0466918945          0.6175231934           -0.0466308594          0.3630676270           0.0498809814           
45.0000000000          0.4003448486           0.0886840820           0.6141357422           -0.0487060547          0.6161193848           -0.0487365723          0.3646697998           0.0487060547           
46.0000000000          0.4016571045           0.0858154297           0.6128234863           -0.0504455566          0.6148681641           -0.0505371094          0.3663024902           0.0476684570           
47.0000000000          0.4029083252           0.0829315186           0.6114501953           -0.0521240234          0.6136169434           -0.0523071289          0.3679504395           0.0465545654           
48.0000000000          0.4041748047           0.0800628662           0.6102905273           -0.0536499023          0.6122741699           -0.0538635254          0.3696289063           0.0454101563           
49.0000000000          0.4053649902           0.0772094727           0.6089172363           -0.0553894043          0.6109313965           -0.0556030273          0.3712005615           0.0442047119           
50.0000000000          0.4064331055           0.0743713379           0.6076965332           -0.0567626953          0.6097412109           -0.0569152832          0.3728332520           0.0429992676           
51.0000000000          0.4075622559           0.0716857910           0.6064758301           -0.0581970215          0.6085510254           -0.0584716797          0.3742980957           0.0415344238           
!$Notes
!SBC Choke Balun 2x Yellow Cores
!$State
!Measurement Parameters
!  Measurement Points=51
!  Start Frequency =1 MHz
!  Stop Frequency =51 MHz
!  IF BW=10 Hz
!  Sweep Time=5.2s
!  Averaging: Off
!  Correction = Yes
!  Source Pwr=0 dBm
!  Port 1 Attenuation=0 dB
!  Port 2 Attenuation=0 dB
!  Delay S11 S21=0ps 0 ps
!  Delay S12 S22=0ps 0 ps
!Measurement Time= 14.2 s
