# MHz S RI R 50 
! S-Parameters data 
! Freq   reS11   imS11   reS21   imS21   reS12   imS12   reS22   imS22 
1.0000000000           0.2807006836           0.0222320557           -0.4225463867          0.0454711914           -0.4215850830          0.0449066162           -0.8481445313          0.1181030273           
2.0000000000           0.2804260254           0.0400085449           -0.4108581543          0.0901336670           -0.4103088379          0.0892028809           -0.8224487305          0.2305908203           
3.0000000000           0.2860260010           0.0586853027           -0.3951568604          0.1315765381           -0.3947906494          0.1304626465           -0.7832336426          0.3360900879           
4.0000000000           0.2941436768           0.0761108398           -0.3744964600          0.1695098877           -0.3744201660          0.1683044434           -0.7314453125          0.4327697754           
5.0000000000           0.3040771484           0.0918426514           -0.3498229980          0.2031555176           -0.3500366211          0.2018585205           -0.6695556641          0.5192565918           
6.0000000000           0.3155670166           0.1058959961           -0.3220825195          0.2321472168           -0.3226165771          0.2307434082           -0.6002502441          0.5941772461           
7.0000000000           0.3279571533           0.1180267334           -0.2924804688          0.2561645508           -0.2933044434          0.2547912598           -0.5259399414          0.6567382813           
8.0000000000           0.3409423828           0.1282501221           -0.2619934082          0.2753448486           -0.2630004883          0.2741241455           -0.4491577148          0.7076416016           
9.0000000000           0.3542785645           0.1365814209           -0.2313079834          0.2901000977           -0.2326049805          0.2890319824           -0.3718261719          0.7474060059           
10.0000000000          0.3674621582           0.1428527832           -0.2009429932          0.3004455566           -0.2031402588          0.2999420166           -0.2959594727          0.7767639160           
11.0000000000          0.3806152344           0.1484680176           -0.1719818115          0.3078155518           -0.1736755371          0.3072204590           -0.2215270996          0.7976989746           
12.0000000000          0.3934631348           0.1522827148           -0.1440582275          0.3118438721           -0.1458740234          0.3115234375           -0.1504516602          0.8107299805           
13.0000000000          0.4057006836           0.1549377441           -0.1179046631          0.3132629395           -0.1198425293          0.3131256104           -0.0834045410          0.8171691895           
14.0000000000          0.4172973633           0.1566162109           -0.0934448242          0.3124694824           -0.0954589844          0.3124389648           -0.0201416016          0.8178710938           
15.0000000000          0.4283447266           0.1575317383           -0.0708312988          0.3098144531           -0.0727539063          0.3100891113           0.0385131836           0.8140258789           
16.0000000000          0.4390869141           0.1578979492           -0.0507202148          0.3055419922           -0.0520019531          0.3063354492           0.0910644531           0.8063964844           
17.0000000000          0.4491577148           0.1575317383           -0.0316162109          0.3005065918           -0.0328063965          0.3015136719           0.1413574219           0.7963256836           
18.0000000000          0.4584350586           0.1566162109           -0.0143127441          0.2944335938           -0.0153198242          0.2955322266           0.1878051758           0.7836303711           
19.0000000000          0.4671630859           0.1552734375           0.0015869141           0.2878723145           0.0004882813           0.2891845703           0.2302246094           0.7696533203           
20.0000000000          0.4755859375           0.1539306641           0.0158691406           0.2808227539           0.0149536133           0.2820739746           0.2689208984           0.7539062500           
21.0000000000          0.4834594727           0.1520996094           0.0288696289           0.2735290527           0.0280151367           0.2748718262           0.3049316406           0.7377929688           
22.0000000000          0.4908447266           0.1500854492           0.0405578613           0.2661132813           0.0398559570           0.2674255371           0.3378906250           0.7208251953           
23.0000000000          0.4978027344           0.1478271484           0.0511169434           0.2583312988           0.0505676270           0.2597045898           0.3681640625           0.7034912109           
24.0000000000          0.5043334961           0.1456298828           0.0603332520           0.2509460449           0.0596313477           0.2522888184           0.3953857422           0.6857910156           
25.0000000000          0.5110473633           0.1434326172           0.0688476563           0.2437133789           0.0685729980           0.2451477051           0.4207763672           0.6687011719           
26.0000000000          0.5171508789           0.1409301758           0.0765380859           0.2363891602           0.0762634277           0.2379455566           0.4440917969           0.6514892578           
27.0000000000          0.5230102539           0.1382446289           0.0835876465           0.2293090820           0.0832824707           0.2307739258           0.4653320313           0.6345214844           
28.0000000000          0.5286560059           0.1355590820           0.0897979736           0.2223815918           0.0894775391           0.2239227295           0.4848632813           0.6177368164           
29.0000000000          0.5339355469           0.1327819824           0.0951690674           0.2155761719           0.0951538086           0.2170257568           0.5031127930           0.6009521484           
30.0000000000          0.5387878418           0.1299133301           0.0997772217           0.2089996338           0.0998535156           0.2105560303           0.5196533203           0.5846557617           
31.0000000000          0.5435791016           0.1273498535           0.1039886475           0.2029266357           0.1040802002           0.2045440674           0.5349121094           0.5687866211           
32.0000000000          0.5485534668           0.1243896484           0.1080017090           0.1972198486           0.1081542969           0.1988220215           0.5493774414           0.5537109375           
33.0000000000          0.5533752441           0.1214904785           0.1115570068           0.1914825439           0.1118469238           0.1928558350           0.5626831055           0.5384521484           
34.0000000000          0.5578918457           0.1183471680           0.1147155762           0.1860504150           0.1150207520           0.1873321533           0.5751342773           0.5238037109           
35.0000000000          0.5621032715           0.1152038574           0.1174316406           0.1804962158           0.1177062988           0.1819610596           0.5867309570           0.5094604492           
36.0000000000          0.5661315918           0.1119384766           0.1198883057           0.1756896973           0.1202239990           0.1770324707           0.5973510742           0.4954223633           
37.0000000000          0.5699768066           0.1087951660           0.1220092773           0.1710205078           0.1223602295           0.1721038818           0.6074218750           0.4818115234           
38.0000000000          0.5737915039           0.1054382324           0.1237182617           0.1662750244           0.1241302490           0.1676025391           0.6164550781           0.4685668945           
39.0000000000          0.5775451660           0.1020812988           0.1252746582           0.1620788574           0.1257781982           0.1632690430           0.6251831055           0.4556884766           
40.0000000000          0.5810241699           0.0985107422           0.1266326904           0.1579895020           0.1272583008           0.1592102051           0.6333007813           0.4430541992           
41.0000000000          0.5844726563           0.0951232910           0.1279144287           0.1542053223           0.1284027100           0.1553802490           0.6406860352           0.4309082031           
42.0000000000          0.5876770020           0.0918579102           0.1289215088           0.1507568359           0.1295776367           0.1518554688           0.6478271484           0.4192504883           
43.0000000000          0.5907592773           0.0882568359           0.1298065186           0.1473083496           0.1303863525           0.1484832764           0.6541748047           0.4075927734           
44.0000000000          0.5937500000           0.0845947266           0.1306152344           0.1441497803           0.1312866211           0.1453094482           0.6605224609           0.3962402344           
45.0000000000          0.5965576172           0.0809020996           0.1312255859           0.1412048340           0.1318817139           0.1423339844           0.6660156250           0.3851318359           
46.0000000000          0.5992736816           0.0772705078           0.1317443848           0.1385040283           0.1324462891           0.1395721436           0.6713256836           0.3744506836           
47.0000000000          0.6018676758           0.0736083984           0.1322479248           0.1360473633           0.1330413818           0.1371459961           0.6765136719           0.3641357422           
48.0000000000          0.6044921875           0.0697631836           0.1326599121           0.1336364746           0.1334381104           0.1346282959           0.6812133789           0.3536987305           
49.0000000000          0.6068420410           0.0660705566           0.1330108643           0.1314544678           0.1337585449           0.1324920654           0.6856689453           0.3438110352           
50.0000000000          0.6091918945           0.0621337891           0.1333312988           0.1294097900           0.1340484619           0.1303558350           0.6898803711           0.3339843750           
51.0000000000          0.6112670898           0.0583801270           0.1336059570           0.1275482178           0.1343688965           0.1284790039           0.6938476563           0.3244018555           
!$Notes
!SBC Commercial Balun #1
!$State
!Measurement Parameters
!  Measurement Points=51
!  Start Frequency =1 MHz
!  Stop Frequency =51 MHz
!  IF BW=10 Hz
!  Sweep Time=5.2s
!  Averaging: Off
!  Correction = Yes
!  Source Pwr=0 dBm
!  Port 1 Attenuation=0 dB
!  Port 2 Attenuation=0 dB
!  Delay S11 S21=0ps 0 ps
!  Delay S12 S22=0ps 0 ps
!Measurement Time= 14.6 s
