# MHz S RI R 50 
! S-Parameters data 
! Freq   reS11   imS11   reS21   imS21   reS12   imS12   reS22   imS22 
1.0000000000           -0.7493591309          0.1752319336           -0.2382659912          -0.1351318359          -0.2383270264          -0.1350402832          -0.7576599121          0.2051391602           
2.0000000000           -0.6813049316          0.1388549805           -0.3019104004          -0.0648193359          -0.3019714355          -0.0645446777          -0.6852722168          0.2048645020           
3.0000000000           -0.6622009277          0.1290588379           -0.3158569336          -0.0207672119          -0.3157958984          -0.0206451416          -0.6571960449          0.2288513184           
4.0000000000           -0.6530761719          0.1318969727           -0.3189544678          0.0099792480           -0.3188476563          0.0102844238           -0.6354980469          0.2633361816           
5.0000000000           -0.6466674805          0.1406250000           -0.3181152344          0.0346374512           -0.3180541992          0.0347900391           -0.6136779785          0.3019409180           
6.0000000000           -0.6408996582          0.1522521973           -0.3154296875          0.0556030273           -0.3153686523          0.0558166504           -0.5901794434          0.3416137695           
7.0000000000           -0.6354370117          0.1654663086           -0.3115081787          0.0743255615           -0.3114318848          0.0745697021           -0.5641784668          0.3809814453           
8.0000000000           -0.6298522949          0.1797180176           -0.3068084717          0.0914459229           -0.3067169189          0.0916900635           -0.5358886719          0.4190979004           
9.0000000000           -0.6239318848          0.1945495605           -0.3012847900          0.1072845459           -0.3012390137          0.1074523926           -0.5052490234          0.4554138184           
10.0000000000          -0.6175231934          0.2095642090           -0.2952728271          0.1220245361           -0.2953033447          0.1223144531           -0.4724273682          0.4895629883           
11.0000000000          -0.6108398438          0.2247314453           -0.2888793945          0.1359100342           -0.2887878418          0.1362457275           -0.4378662109          0.5212097168           
12.0000000000          -0.6035766602          0.2399902344           -0.2820739746          0.1490325928           -0.2819061279          0.1493072510           -0.4014587402          0.5503845215           
13.0000000000          -0.5960388184          0.2550048828           -0.2749023438          0.1613616943           -0.2747650146          0.1617126465           -0.3638916016          0.5767822266           
14.0000000000          -0.5881042480          0.2699890137           -0.2674407959          0.1731109619           -0.2673339844          0.1733398438           -0.3253479004          0.6000976563           
15.0000000000          -0.5799255371          0.2846374512           -0.2597503662          0.1842041016           -0.2596435547          0.1844787598           -0.2858276367          0.6208190918           
16.0000000000          -0.5711975098          0.2990112305           -0.2518310547          0.1951446533           -0.2518615723          0.1948699951           -0.2448425293          0.6390991211           
17.0000000000          -0.5622558594          0.3131103516           -0.2437820435          0.2050399780           -0.2437515259          0.2048721313           -0.2040405273          0.6538696289           
18.0000000000          -0.5529174805          0.3271789551           -0.2357711792          0.2145843506           -0.2358016968          0.2143249512           -0.1632995605          0.6659851074           
19.0000000000          -0.5433349609          0.3407592773           -0.2277679443          0.2236022949           -0.2276687622          0.2234115601           -0.1226501465          0.6752929688           
20.0000000000          -0.5332946777          0.3539733887           -0.2195205688          0.2319946289           -0.2194747925          0.2319869995           -0.0821838379          0.6820068359           
21.0000000000          -0.5229797363          0.3669738770           -0.2112197876          0.2402648926           -0.2112426758          0.2400665283           -0.0419311523          0.6859436035           
22.0000000000          -0.5124816895          0.3792114258           -0.2028808594          0.2478332520           -0.2029266357          0.2476959229           -0.0022277832          0.6874389648           
23.0000000000          -0.5021972656          0.3911743164           -0.1946105957          0.2549438477           -0.1946716309          0.2548980713           0.0369873047           0.6864624023           
24.0000000000          -0.4919891357          0.4033355713           -0.1875610352          0.2616271973           -0.1873931885          0.2614288330           0.0752563477           0.6814270020           
25.0000000000          -0.4803314209          0.4151611328           -0.1796875000          0.2693786621           -0.1796569824          0.2692565918           0.1106872559           0.6768798828           
26.0000000000          -0.4688262939          0.4260864258           -0.1712799072          0.2762451172           -0.1712799072          0.2761077881           0.1464538574           0.6696777344           
27.0000000000          -0.4572143555          0.4367065430           -0.1632080078          0.2827758789           -0.1631774902          0.2824554443           0.1813659668           0.6605224609           
28.0000000000          -0.4453430176          0.4467163086           -0.1549682617          0.2890319824           -0.1549224854          0.2888183594           0.2150268555           0.6492919922           
29.0000000000          -0.4334716797          0.4563293457           -0.1467132568          0.2948608398           -0.1467590332          0.2946624756           0.2477416992           0.6362304688           
30.0000000000          -0.4217376709          0.4654388428           -0.1388854980          0.3002014160           -0.1389312744          0.3000488281           0.2791137695           0.6206970215           
31.0000000000          -0.4103393555          0.4745788574           -0.1324157715          0.3057250977           -0.1324310303          0.3055572510           0.3070068359           0.6028442383           
32.0000000000          -0.3978576660          0.4840087891           -0.1249694824          0.3128509521           -0.1251373291          0.3125000000           0.3328247070           0.5865478516           
33.0000000000          -0.3851623535          0.4921875000           -0.1165924072          0.3191070557           -0.1167602539          0.3188629150           0.3590087891           0.5691833496           
34.0000000000          -0.3726196289          0.4997558594           -0.1082763672          0.3247833252           -0.1084442139          0.3245697021           0.3842468262           0.5495605469           
35.0000000000          -0.3601989746          0.5069580078           -0.1000976563          0.3303680420           -0.1002807617          0.3301544189           0.4075622559           0.5288696289           
36.0000000000          -0.3475952148          0.5136108398           -0.0920410156          0.3359069824           -0.0921630859          0.3358459473           0.4293823242           0.5070800781           
37.0000000000          -0.3352050781          0.5201416016           -0.0839538574          0.3415527344           -0.0839538574          0.3413391113           0.4493408203           0.4841918945           
38.0000000000          -0.3228759766          0.5260009766           -0.0757751465          0.3471374512           -0.0757751465          0.3469238281           0.4675292969           0.4606933594           
39.0000000000          -0.3104248047          0.5314331055           -0.0672607422          0.3525085449           -0.0673828125          0.3523864746           0.4842529297           0.4364013672           
40.0000000000          -0.2981567383          0.5365600586           -0.0587768555          0.3581237793           -0.0587768555          0.3578186035           0.4992675781           0.4113159180           
41.0000000000          -0.2858276367          0.5413208008           -0.0500183105          0.3636169434           -0.0500488281          0.3634948730           0.5125732422           0.3859252930           
42.0000000000          -0.2738037109          0.5455932617           -0.0412292480          0.3691101074           -0.0411987305          0.3688964844           0.5241088867           0.3599243164           
43.0000000000          -0.2617187500          0.5495605469           -0.0321350098          0.3745727539           -0.0322875977          0.3743286133           0.5338745117           0.3336181641           
44.0000000000          -0.2497558594          0.5530395508           -0.0229187012          0.3800048828           -0.0229187012          0.3797607422           0.5420532227           0.3067626953           
45.0000000000          -0.2380371094          0.5562133789           -0.0134277344          0.3853149414           -0.0134887695          0.3850708008           0.5480957031           0.2797241211           
46.0000000000          -0.2266845703          0.5590820313           -0.0039062500          0.3906555176           -0.0038146973          0.3904724121           0.5523071289           0.2526855469           
47.0000000000          -0.2153930664          0.5615234375           0.0061645508           0.3959655762           0.0061645508           0.3959960938           0.5548706055           0.2261962891           
48.0000000000          -0.2042846680          0.5637817383           0.0167236328           0.4015197754           0.0167541504           0.4012451172           0.5558471680           0.1994628906           
49.0000000000          -0.1931762695          0.5657958984           0.0276489258           0.4067535400           0.0275115967           0.4064636230           0.5554504395           0.1728515625           
50.0000000000          -0.1825256348          0.5674743652           0.0387878418           0.4117126465           0.0386810303           0.4115295410           0.5532226563           0.1463928223           
51.0000000000          -0.1721191406          0.5688476563           0.0502166748           0.4167785645           0.0501098633           0.4163818359           0.5487670898           0.1201477051           
!$Notes
!SBC  1:1 Voltage Balun.  
!Large fabric wrapped balun with terminal plate. 
! Cal 6.5 hours ago certified with T check at the time.
!$State
!Measurement Parameters
!  Measurement Points=51
!  Start Frequency =1 MHz
!  Stop Frequency =51 MHz
!  IF BW=10 Hz
!  Sweep Time=5.2s
!  Averaging: Off
!  Correction = Yes
!  Source Pwr=0 dBm
!  Port 1 Attenuation=0 dB
!  Port 2 Attenuation=0 dB
!  Delay S11 S21=0ps 0 ps
!  Delay S12 S22=0ps 0 ps
!Measurement Time= 14.6 s
