# MHz S RI R 50 
! S-Parameters data 
! Freq   reS11   imS11   reS21   imS21   reS12   imS12   reS22   imS22 
1.0000000000           0.2807159424           0.0223388672           -0.4225921631          0.0453948975           -0.4216156006          0.0449371338           -0.8484802246          0.1179809570           
2.0000000000           0.2804260254           0.0400085449           -0.4109039307          0.0900878906           -0.4102783203          0.0890808105           -0.8224487305          0.2301940918           
3.0000000000           0.2861175537           0.0587463379           -0.3952026367          0.1313323975           -0.3948364258          0.1300964355           -0.7834167480          0.3354187012           
4.0000000000           0.2942504883           0.0760498047           -0.3746185303          0.1692047119           -0.3746337891          0.1679992676           -0.7318115234          0.4322814941           
5.0000000000           0.3041381836           0.0918426514           -0.3500518799          0.2028503418           -0.3502502441          0.2014923096           -0.6701965332          0.5185852051           
6.0000000000           0.3155822754           0.1058349609           -0.3224334717          0.2318572998           -0.3230285645          0.2304077148           -0.6012268066          0.5932922363           
7.0000000000           0.3280181885           0.1179046631           -0.2929077148          0.2558593750           -0.2937622070          0.2544555664           -0.5271301270          0.6561584473           
8.0000000000           0.3410186768           0.1281280518           -0.2624511719          0.2751617432           -0.2635498047          0.2738037109           -0.4505310059          0.7069396973           
9.0000000000           0.3542938232           0.1365356445           -0.2318725586          0.2899017334           -0.2332153320          0.2887878418           -0.3732604980          0.7469787598           
10.0000000000          0.3679809570           0.1434020996           -0.2015838623          0.3011016846           -0.2030639648          0.2994384766           -0.2966308594          0.7767333984           
11.0000000000          0.3806152344           0.1483764648           -0.1725006104          0.3079071045           -0.1743927002          0.3071746826           -0.2229309082          0.7977600098           
12.0000000000          0.3934020996           0.1522521973           -0.1445922852          0.3119659424           -0.1465454102          0.3115386963           -0.1518554688          0.8109436035           
13.0000000000          0.4056701660           0.1549072266           -0.1184234619          0.3133850098           -0.1204681396          0.3131866455           -0.0846862793          0.8174438477           
14.0000000000          0.4173583984           0.1565551758           -0.0939941406          0.3126525879           -0.0959777832          0.3125915527           -0.0213623047          0.8182373047           
15.0000000000          0.4284057617           0.1574096680           -0.0712585449          0.3100891113           -0.0732727051          0.3103332520           0.0374145508           0.8143310547           
16.0000000000          0.4390869141           0.1577758789           -0.0511779785          0.3057250977           -0.0523986816          0.3065795898           0.0898437500           0.8068847656           
17.0000000000          0.4489746094           0.1574096680           -0.0321655273          0.3007812500           -0.0332336426          0.3016052246           0.1403808594           0.7965698242           
18.0000000000          0.4584960938           0.1564941406           -0.0146484375          0.2947692871           -0.0156555176          0.2958374023           0.1865844727           0.7841796875           
19.0000000000          0.4672851563           0.1550903320           0.0011901855           0.2879943848           0.0001831055           0.2894287109           0.2293701172           0.7698974609           
20.0000000000          0.4756469727           0.1537475586           0.0155029297           0.2810668945           0.0147094727           0.2823181152           0.2681884766           0.7545166016           
21.0000000000          0.4834594727           0.1518554688           0.0285949707           0.2737121582           0.0278015137           0.2750854492           0.3040771484           0.7380371094           
22.0000000000          0.4910278320           0.1498413086           0.0403747559           0.2662658691           0.0397338867           0.2675476074           0.3371582031           0.7210693359           
23.0000000000          0.4978637695           0.1475219727           0.0508117676           0.2585144043           0.0504150391           0.2599487305           0.3676757813           0.7038574219           
24.0000000000          0.5044555664           0.1456298828           0.0600585938           0.2512207031           0.0596008301           0.2525329590           0.3947753906           0.6861572266           
25.0000000000          0.5109252930           0.1430053711           0.0686950684           0.2438964844           0.0682678223           0.2453918457           0.4201660156           0.6689453125           
26.0000000000          0.5170288086           0.1405639648           0.0763549805           0.2364807129           0.0760803223           0.2380371094           0.4432373047           0.6514892578           
27.0000000000          0.5230102539           0.1380615234           0.0833129883           0.2294311523           0.0831909180           0.2309265137           0.4647216797           0.6346435547           
28.0000000000          0.5285644531           0.1353149414           0.0895080566           0.2225036621           0.0893707275           0.2240295410           0.4841918945           0.6177978516           
29.0000000000          0.5337524414           0.1325378418           0.0949249268           0.2156677246           0.0949096680           0.2172546387           0.5023193359           0.6011962891           
30.0000000000          0.5386657715           0.1296081543           0.0995788574           0.2090759277           0.0996551514           0.2106323242           0.5187988281           0.5847778320           
31.0000000000          0.5435180664           0.1270446777           0.1037902832           0.2030944824           0.1039581299           0.2046661377           0.5342407227           0.5690917969           
32.0000000000          0.5484924316           0.1241760254           0.1078186035           0.1973114014           0.1080169678           0.1987915039           0.5486450195           0.5537109375           
33.0000000000          0.5533142090           0.1210632324           0.1114654541           0.1914520264           0.1117553711           0.1930541992           0.5618896484           0.5385742188           
34.0000000000          0.5577392578           0.1178894043           0.1145324707           0.1860198975           0.1147766113           0.1872711182           0.5743408203           0.5238647461           
35.0000000000          0.5619812012           0.1147460938           0.1173095703           0.1806945801           0.1177368164           0.1822814941           0.5859985352           0.5095825195           
36.0000000000          0.5660095215           0.1116027832           0.1196289063           0.1755218506           0.1200103760           0.1769256592           0.5964965820           0.4956054688           
37.0000000000          0.5698852539           0.1082763672           0.1217193604           0.1710510254           0.1221771240           0.1721801758           0.6066894531           0.4819335938           
38.0000000000          0.5736694336           0.1048889160           0.1235198975           0.1662597656           0.1239776611           0.1676025391           0.6158447266           0.4687500000           
39.0000000000          0.5773925781           0.1015625000           0.1251373291           0.1620635986           0.1256103516           0.1632537842           0.6245117188           0.4558715820           
40.0000000000          0.5809326172           0.0981750488           0.1264190674           0.1580505371           0.1270446777           0.1592254639           0.6325073242           0.4431762695           
41.0000000000          0.5844116211           0.0947570801           0.1277313232           0.1542053223           0.1282653809           0.1554260254           0.6398925781           0.4310302734           
42.0000000000          0.5875244141           0.0913085938           0.1287384033           0.1506805420           0.1293334961           0.1518859863           0.6470336914           0.4194335938           
43.0000000000          0.5906372070           0.0876770020           0.1296081543           0.1472473145           0.1302795410           0.1484069824           0.6534423828           0.4075927734           
44.0000000000          0.5936279297           0.0841674805           0.1303863525           0.1441192627           0.1310729980           0.1452178955           0.6594848633           0.3963623047           
45.0000000000          0.5966796875           0.0804138184           0.1311340332           0.1412048340           0.1316986084           0.1423645020           0.6652221680           0.3854370117           
46.0000000000          0.5992126465           0.0767822266           0.1315612793           0.1385040283           0.1322937012           0.1396331787           0.6705322266           0.3746337891           
47.0000000000          0.6018676758           0.0729980469           0.1319732666           0.1359252930           0.1327972412           0.1371765137           0.6756591797           0.3641967773           
48.0000000000          0.6044311523           0.0693359375           0.1325378418           0.1336517334           0.1332397461           0.1347045898           0.6805419922           0.3538818359           
49.0000000000          0.6069335938           0.0654907227           0.1328735352           0.1314392090           0.1336364746           0.1324615479           0.6849670410           0.3440856934           
50.0000000000          0.6091003418           0.0616760254           0.1331024170           0.1293945313           0.1338653564           0.1303405762           0.6891174316           0.3341979980           
51.0000000000          0.6113281250           0.0578002930           0.1334075928           0.1275329590           0.1342010498           0.1284790039           0.6929016113           0.3247375488           
!$Notes
!Commercial Balun #1
!SBC 
!$State
!Measurement Parameters
!  Measurement Points=51
!  Start Frequency =1 MHz
!  Stop Frequency =51 MHz
!  IF BW=10 Hz
!  Sweep Time=5.2s
!  Averaging: Off
!  Correction = Yes
!  Source Pwr=0 dBm
!  Port 1 Attenuation=0 dB
!  Port 2 Attenuation=0 dB
!  Delay S11 S21=0ps 0 ps
!  Delay S12 S22=0ps 0 ps
!Measurement Time= 14.6 s
