# MHz S RI R 50 
! S-Parameters data 
! Freq   reS11   imS11   reS21   imS21   reS12   imS12   reS22   imS22 
1.0000000000           0.6317443848           0.1022949219           0.2671356201           0.1395721436           0.2672729492           0.1396636963           0.5032348633           0.3814392090           
1.2500000000           0.6385192871           0.0848693848           0.2814025879           0.1157226563           0.2816619873           0.1158142090           0.5400085449           0.3190917969           
1.5000000000           0.6428527832           0.0726623535           0.2900390625           0.0985412598           0.2902526855           0.0985717773           0.5621948242           0.2745361328           
1.7500000000           0.6456909180           0.0638732910           0.2956390381           0.0855102539           0.2960510254           0.0856323242           0.5775451660           0.2417907715           
2.0000000000           0.6477355957           0.0569763184           0.2995300293           0.0752868652           0.2999725342           0.0752563477           0.5878295898           0.2157287598           
2.2500000000           0.6493835449           0.0517272949           0.3025207520           0.0669708252           0.3028564453           0.0670013428           0.5955810547           0.1953735352           
2.5000000000           0.6506347656           0.0473632813           0.3047180176           0.0601501465           0.3050842285           0.0602264404           0.6018066406           0.1791076660           
2.7500000000           0.6515808105           0.0438842773           0.3064270020           0.0543518066           0.3067932129           0.0544128418           0.6067199707           0.1653442383           
3.0000000000           0.6524353027           0.0408020020           0.3078308105           0.0493774414           0.3081665039           0.0494384766           0.6105957031           0.1536254883           
3.2500000000           0.6531372070           0.0383605957           0.3089904785           0.0451049805           0.3093566895           0.0450897217           0.6139221191           0.1437988281           
3.5000000000           0.6538085938           0.0361633301           0.3098602295           0.0412750244           0.3102264404           0.0413055420           0.6166076660           0.1351318359           
3.7500000000           0.6543579102           0.0343322754           0.3105773926           0.0378723145           0.3109893799           0.0378570557           0.6192016602           0.1275939941           
4.0000000000           0.6548767090           0.0327148438           0.3112182617           0.0347442627           0.3116912842           0.0347442627           0.6212768555           0.1209411621           
4.2500000000           0.6553955078           0.0311889648           0.3118743896           0.0319061279           0.3121490479           0.0319671631           0.6231384277           0.1150207520           
4.5000000000           0.6558227539           0.0299987793           0.3123016357           0.0294036865           0.3126678467           0.0293426514           0.6247558594           0.1098327637           
4.7500000000           0.6561889648           0.0287475586           0.3126678467           0.0270843506           0.3130798340           0.0270690918           0.6264343262           0.1051940918           
5.0000000000           0.6565856934           0.0278320313           0.3130645752           0.0248870850           0.3134307861           0.0248870850           0.6276855469           0.1008300781           
5.2500000000           0.6570739746           0.0269165039           0.3134002686           0.0228424072           0.3137359619           0.0228271484           0.6289978027           0.0968933105           
5.5000000000           0.6573791504           0.0261535645           0.3136596680           0.0209808350           0.3140716553           0.0209655762           0.6302490234           0.0933227539           
5.7500000000           0.6577758789           0.0253601074           0.3138885498           0.0191650391           0.3143157959           0.0191802979           0.6314392090           0.0900573730           
6.0000000000           0.6580810547           0.0247192383           0.3141021729           0.0175170898           0.3144836426           0.0174713135           0.6324157715           0.0870361328           
6.2500000000           0.6582946777           0.0239562988           0.3143005371           0.0158691406           0.3146057129           0.0158843994           0.6332702637           0.0843200684           
6.5000000000           0.6585693359           0.0234069824           0.3144378662           0.0143585205           0.3147888184           0.0144042969           0.6342163086           0.0816955566           
6.7500000000           0.6589965820           0.0229187012           0.3145904541           0.0129394531           0.3149414063           0.0129241943           0.6350097656           0.0791931152           
7.0000000000           0.6592102051           0.0223083496           0.3146362305           0.0115661621           0.3150329590           0.0115814209           0.6356811523           0.0769958496           
7.2500000000           0.6596374512           0.0219116211           0.3147888184           0.0102233887           0.3150939941           0.0102386475           0.6366577148           0.0749206543           
7.5000000000           0.6598510742           0.0213623047           0.3148345947           0.0089721680           0.3151855469           0.0089721680           0.6373291016           0.0728454590           
7.7500000000           0.6600341797           0.0210571289           0.3148040771           0.0077819824           0.3152923584           0.0077362061           0.6379089355           0.0708618164           
8.0000000000           0.6604003906           0.0208129883           0.3149414063           0.0066223145           0.3153228760           0.0065307617           0.6387023926           0.0692138672           
8.2500000000           0.6606750488           0.0204467773           0.3149566650           0.0054321289           0.3153533936           0.0054626465           0.6394042969           0.0676879883           
8.5000000000           0.6609191895           0.0201110840           0.3149108887           0.0043640137           0.3154144287           0.0042572021           0.6400146484           0.0659790039           
8.7500000000           0.6611938477           0.0196533203           0.3150329590           0.0033111572           0.3154144287           0.0032653809           0.6405029297           0.0643920898           
9.0000000000           0.6614990234           0.0193786621           0.3150329590           0.0022430420           0.3153991699           0.0021820068           0.6411132813           0.0630798340           
9.2500000000           0.6616821289           0.0189208984           0.3149719238           0.0012207031           0.3154449463           0.0012207031           0.6417846680           0.0616455078           
9.5000000000           0.6619567871           0.0187683105           0.3149261475           0.0003662109           0.3153839111           0.0002899170           0.6421508789           0.0604248047           
9.7500000000           0.6622009277           0.0186767578           0.3148803711           -0.0006561279          0.3153686523           -0.0006408691          0.6427917480           0.0591735840           
10.0000000000          0.6626586914           0.0183410645           0.3149261475           -0.0016021729          0.3151245117           -0.0016021729          0.6429443359           0.0578308105           
10.2500000000          0.6628417969           0.0180664063           0.3149414063           -0.0025177002          0.3153076172           -0.0025177002          0.6438293457           0.0567321777           
10.5000000000          0.6629943848           0.0178527832           0.3148193359           -0.0033874512          0.3152618408           -0.0034027100          0.6443786621           0.0556335449           
10.7500000000          0.6633605957           0.0175781250           0.3147583008           -0.0042724609          0.3152313232           -0.0043945313          0.6447753906           0.0545654297           
11.0000000000          0.6636962891           0.0174560547           0.3146820068           -0.0051574707          0.3151397705           -0.0051727295          0.6452026367           0.0536193848           
11.2500000000          0.6638793945           0.0172729492           0.3146057129           -0.0059356689          0.3150329590           -0.0060424805          0.6456604004           0.0525512695           
11.5000000000          0.6641540527           0.0169372559           0.3145751953           -0.0068511963          0.3149566650           -0.0068054199          0.6460571289           0.0516662598           
11.7500000000          0.6642456055           0.0168762207           0.3144226074           -0.0076446533          0.3148345947           -0.0075988770          0.6465759277           0.0508422852           
12.0000000000          0.6645202637           0.0167236328           0.3143768311           -0.0083770752          0.3147430420           -0.0084991455          0.6470031738           0.0497741699           
12.2500000000          0.6649475098           0.0165405273           0.3142395020           -0.0092620850          0.3147125244           -0.0092010498          0.6475524902           0.0489501953           
12.5000000000          0.6651000977           0.0162048340           0.3141326904           -0.0099334717          0.3146057129           -0.0100860596          0.6477966309           0.0480346680           
12.7500000000          0.6654052734           0.0160827637           0.3141021729           -0.0107574463          0.3145904541           -0.0106658936          0.6483764648           0.0475769043           
13.0000000000          0.6657409668           0.0159606934           0.3140106201           -0.0114593506          0.3144531250           -0.0114898682          0.6485900879           0.0466613770           
13.2500000000          0.6660156250           0.0158081055           0.3138732910           -0.0122070313          0.3143157959           -0.0122375488          0.6490478516           0.0457763672           
13.5000000000          0.6662902832           0.0157775879           0.3136749268           -0.0129547119          0.3141784668           -0.0130157471          0.6492919922           0.0449829102           
13.7500000000          0.6664428711           0.0154418945           0.3135681152           -0.0136413574          0.3141021729           -0.0136108398          0.6499633789           0.0442199707           
14.0000000000          0.6667175293           0.0154418945           0.3134002686           -0.0142822266          0.3138580322           -0.0144500732          0.6500854492           0.0435485840           
14.2500000000          0.6669311523           0.0152587891           0.3132934570           -0.0149688721          0.3137359619           -0.0150909424          0.6505737305           0.0429077148           
14.5000000000          0.6675415039           0.0149536133           0.3131713867           -0.0157318115          0.3137207031           -0.0157928467          0.6508789063           0.0422668457           
14.7500000000          0.6677246094           0.0148620605           0.3131713867           -0.0163574219          0.3135528564           -0.0163879395          0.6512451172           0.0415649414           
15.0000000000          0.6678771973           0.0147094727           0.3129425049           -0.0170440674          0.3134002686           -0.0172119141          0.6517333984           0.0408325195           
15.2500000000          0.6683654785           0.0145263672           0.3128356934           -0.0176849365          0.3132781982           -0.0178527832          0.6520690918           0.0401306152           
15.5000000000          0.6685180664           0.0144348145           0.3127288818           -0.0182342529          0.3131408691           -0.0183258057          0.6523437500           0.0397644043           
15.7500000000          0.6688842773           0.0141296387           0.3125762939           -0.0189819336          0.3129425049           -0.0190887451          0.6528320313           0.0392456055           
16.0000000000          0.6671752930           0.0152587891           0.3111877441           -0.0189666748          0.3113250732           -0.0185852051          0.6515808105           0.0384521484           
16.2500000000          0.6672668457           0.0149841309           0.3109893799           -0.0196685791          0.3110809326           -0.0192108154          0.6518249512           0.0377197266           
16.5000000000          0.6676025391           0.0148925781           0.3108825684           -0.0202636719          0.3108673096           -0.0198669434          0.6520996094           0.0371093750           
16.7500000000          0.6678466797           0.0146484375           0.3107147217           -0.0209350586          0.3107299805           -0.0205230713          0.6524353027           0.0365295410           
17.0000000000          0.6681823730           0.0144958496           0.3105468750           -0.0215301514          0.3105163574           -0.0211181641          0.6527709961           0.0358886719           
17.2500000000          0.6684570313           0.0143737793           0.3103485107           -0.0221405029          0.3104095459           -0.0217590332          0.6531982422           0.0353393555           
17.5000000000          0.6687316895           0.0140686035           0.3101348877           -0.0227508545          0.3101959229           -0.0223083496          0.6534729004           0.0347290039           
17.7500000000          0.6688842773           0.0139770508           0.3099517822           -0.0233459473          0.3100128174           -0.0229034424          0.6537170410           0.0342102051           
18.0000000000          0.6692810059           0.0138549805           0.3097839355           -0.0239105225          0.3097381592           -0.0234985352          0.6540222168           0.0335998535           
18.2500000000          0.6696166992           0.0135803223           0.3096160889           -0.0245056152          0.3096008301           -0.0240631104          0.6542663574           0.0330505371           
18.5000000000          0.6697082520           0.0133361816           0.3093719482           -0.0251007080          0.3094024658           -0.0246734619          0.6545715332           0.0325317383           
18.7500000000          0.6701354980           0.0132751465           0.3092041016           -0.0256652832          0.3092041016           -0.0252380371          0.6549987793           0.0319824219           
19.0000000000          0.6702575684           0.0130615234           0.3089752197           -0.0261993408          0.3089447021           -0.0257873535          0.6551818848           0.0313720703           
19.2500000000          0.6705932617           0.0129089355           0.3087615967           -0.0267944336          0.3087768555           -0.0263214111          0.6554565430           0.0309143066           
19.5000000000          0.6708984375           0.0127563477           0.3085174561           -0.0273132324          0.3085479736           -0.0269317627          0.6556701660           0.0303344727           
19.7500000000          0.6711425781           0.0124816895           0.3083038330           -0.0278778076          0.3082885742           -0.0274810791          0.6558532715           0.0298767090           
20.0000000000          0.6714477539           0.0123291016           0.3081054688           -0.0284271240          0.3080902100           -0.0279998779          0.6561584473           0.0293273926           
20.2500000000          0.6716918945           0.0120849609           0.3078918457           -0.0289611816          0.3078765869           -0.0285644531          0.6565551758           0.0287475586           
20.5000000000          0.6720275879           0.0118713379           0.3076629639           -0.0294952393          0.3076629639           -0.0290679932          0.6566772461           0.0282897949           
20.7500000000          0.6723327637           0.0117797852           0.3074340820           -0.0300140381          0.3074340820           -0.0295562744          0.6569519043           0.0277709961           
21.0000000000          0.6725158691           0.0115356445           0.3072052002           -0.0305175781          0.3072357178           -0.0300903320          0.6572875977           0.0272827148           
21.2500000000          0.6728515625           0.0113525391           0.3070068359           -0.0310974121          0.3069915771           -0.0306396484          0.6575317383           0.0267639160           
21.5000000000          0.6730651855           0.0111083984           0.3067779541           -0.0315551758          0.3067626953           -0.0311584473          0.6576843262           0.0262451172           
21.7500000000          0.6734008789           0.0108947754           0.3065490723           -0.0320739746          0.3064727783           -0.0316314697          0.6578979492           0.0257568359           
22.0000000000          0.6737365723           0.0108032227           0.3063507080           -0.0326080322          0.3062591553           -0.0321350098          0.6581726074           0.0252990723           
22.2500000000          0.6738891602           0.0104675293           0.3060302734           -0.0330963135          0.3060150146           -0.0326385498          0.6584167480           0.0248413086           
22.5000000000          0.6742553711           0.0102539063           0.3058319092           -0.0336303711          0.3057403564           -0.0331573486          0.6587219238           0.0242614746           
22.7500000000          0.6745300293           0.0101013184           0.3056335449           -0.0340881348          0.3055114746           -0.0336303711          0.6588745117           0.0236816406           
23.0000000000          0.6748962402           0.0098571777           0.3053588867           -0.0345458984          0.3052825928           -0.0341186523          0.6591186523           0.0232849121           
23.2500000000          0.6750793457           0.0095825195           0.3050842285           -0.0350494385          0.3050079346           -0.0346221924          0.6593017578           0.0227661133           
23.5000000000          0.6753845215           0.0094604492           0.3048706055           -0.0355072021          0.3048095703           -0.0350799561          0.6595458984           0.0223083496           
23.7500000000          0.6757507324           0.0091552734           0.3045654297           -0.0360260010          0.3045501709           -0.0355529785          0.6598815918           0.0218200684           
24.0000000000          0.6759643555           0.0089416504           0.3043060303           -0.0364685059          0.3043060303           -0.0360412598          0.6600646973           0.0213928223           
24.2500000000          0.6762084961           0.0087585449           0.3040008545           -0.0369415283          0.3040008545           -0.0364227295          0.6603088379           0.0209045410           
24.5000000000          0.6764526367           0.0085754395           0.3037567139           -0.0373687744          0.3037261963           -0.0368957520          0.6604003906           0.0204162598           
