# MHz S RI R 50 
! S-Parameters data 
! Freq   reS11   imS11   reS21   imS21   reS12   imS12   reS22   imS22 
1.0000000000           0.0356216431           0.1008605957           0.0725097656           0.2015075684           0.0725555420           0.2015533447           -0.8465270996          0.4266662598           
2.0000000000           0.1049499512           0.1524353027           0.2152099609           0.3015747070           0.2152709961           0.3016357422           -0.5488891602          0.6416625977           
3.0000000000           0.1670227051           0.1642761230           0.3424072266           0.3190917969           0.3424072266           0.3189086914           -0.2835083008          0.6847534180           
4.0000000000           0.2111511230           0.1580505371           0.4327392578           0.2999267578           0.4328613281           0.2998657227           -0.0952148438          0.6517333984           
5.0000000000           0.2409362793           0.1467285156           0.4928588867           0.2699584961           0.4931030273           0.2700195313           0.0309448242           0.5966186523           
6.0000000000           0.2611694336           0.1350250244           0.5332946777           0.2396545410           0.5334167480           0.2394714355           0.1161499023           0.5402832031           
7.0000000000           0.2754058838           0.1246185303           0.5608520508           0.2118530273           0.5609130859           0.2117614746           0.1748657227           0.4893798828           
8.0000000000           0.2857208252           0.1157226563           0.5800476074           0.1873474121           0.5801696777           0.1872863770           0.2167053223           0.4450378418           
9.0000000000           0.2935180664           0.1083068848           0.5939331055           0.1659545898           0.5939331055           0.1659545898           0.2473144531           0.4072875977           
10.0000000000          0.2995300293           0.1020507813           0.6039428711           0.1473999023           0.6040039063           0.1473388672           0.2703857422           0.3750000000           
11.0000000000          0.3044128418           0.0969238281           0.6115112305           0.1309204102           0.6115722656           0.1309814453           0.2882690430           0.3474121094           
12.0000000000          0.3085021973           0.0926208496           0.6170043945           0.1165161133           0.6171875000           0.1165161133           0.3025512695           0.3234863281           
13.0000000000          0.3120117188           0.0890197754           0.6212768555           0.1034545898           0.6213989258           0.1033935547           0.3139648438           0.3028564453           
14.0000000000          0.3149719238           0.0859985352           0.6243286133           0.0919799805           0.6245727539           0.0918579102           0.3234252930           0.2846679688           
15.0000000000          0.3177490234           0.0834350586           0.6268310547           0.0814208984           0.6268920898           0.0811767578           0.3313598633           0.2687377930           
16.0000000000          0.3202209473           0.0812988281           0.6284179688           0.0717163086           0.6286010742           0.0717773438           0.3380737305           0.2546386719           
17.0000000000          0.3226013184           0.0794372559           0.6296997070           0.0629882813           0.6298217773           0.0629882813           0.3438110352           0.2419433594           
18.0000000000          0.3247985840           0.0778503418           0.6304931641           0.0548095703           0.6305541992           0.0548095703           0.3490600586           0.2307739258           
19.0000000000          0.3269042969           0.0765380859           0.6309204102           0.0473632813           0.6311035156           0.0474853516           0.3535156250           0.2205810547           
20.0000000000          0.3289642334           0.0753021240           0.6310424805           0.0406188965           0.6310729980           0.0404663086           0.3576965332           0.2112426758           
21.0000000000          0.3309783936           0.0741882324           0.6309509277           0.0340881348           0.6310119629           0.0340270996           0.3613891602           0.2028198242           
22.0000000000          0.3330383301           0.0733642578           0.6307983398           0.0280456543           0.6306457520           0.0279846191           0.3648071289           0.1951293945           
23.0000000000          0.3349914551           0.0725250244           0.6302795410           0.0223083496           0.6302795410           0.0223999023           0.3679809570           0.1880798340           
24.0000000000          0.3368682861           0.0718688965           0.6295471191           0.0169372559           0.6295776367           0.0169677734           0.3710327148           0.1814575195           
25.0000000000          0.3388366699           0.0711059570           0.6287536621           0.0119018555           0.6287841797           0.0119628906           0.3738403320           0.1754455566           
26.0000000000          0.3408355713           0.0704650879           0.6278686523           0.0072021484           0.6279296875           0.0073242188           0.3765258789           0.1697692871           
27.0000000000          0.3426971436           0.0698242188           0.6268920898           0.0027465820           0.6268920898           0.0028991699           0.3791198730           0.1644287109           
28.0000000000          0.3446807861           0.0692291260           0.6257934570           -0.0013732910          0.6259155273           -0.0013427734          0.3815917969           0.1594238281           
29.0000000000          0.3466033936           0.0687103271           0.6246337891           -0.0054626465          0.6246948242           -0.0053405762          0.3839416504           0.1546630859           
30.0000000000          0.3486022949           0.0680847168           0.6233520508           -0.0092163086          0.6234130859           -0.0091247559          0.3862304688           0.1501464844           
31.0000000000          0.3505706787           0.0675048828           0.6220703125           -0.0127258301          0.6221008301           -0.0127563477          0.3883972168           0.1459350586           
32.0000000000          0.3525848389           0.0668334961           0.6206665039           -0.0160827637          0.6207885742           -0.0160827637          0.3905029297           0.1417846680           
33.0000000000          0.3545989990           0.0662078857           0.6193237305           -0.0191955566          0.6194763184           -0.0193786621          0.3926086426           0.1379089355           
34.0000000000          0.3565826416           0.0656280518           0.6178283691           -0.0223693848          0.6178588867           -0.0223388672          0.3947448730           0.1339721680           
35.0000000000          0.3586578369           0.0648956299           0.6163024902           -0.0252685547          0.6164245605           -0.0252075195          0.3967895508           0.1304321289           
36.0000000000          0.3606414795           0.0641174316           0.6149291992           -0.0279541016          0.6148681641           -0.0279541016          0.3987426758           0.1268005371           
37.0000000000          0.3625946045           0.0633697510           0.6133728027           -0.0304870605          0.6133728027           -0.0305480957          0.4006347656           0.1233215332           
38.0000000000          0.3645782471           0.0626373291           0.6117553711           -0.0330505371          0.6117248535           -0.0328674316          0.4025878906           0.1200561523           
39.0000000000          0.3665771484           0.0617065430           0.6100769043           -0.0353088379          0.6101684570           -0.0350341797          0.4044189453           0.1168212891           
40.0000000000          0.3686218262           0.0608673096           0.6084899902           -0.0375671387          0.6084899902           -0.0373229980          0.4062805176           0.1134643555           
41.0000000000          0.3706665039           0.0599212646           0.6069335938           -0.0394592285          0.6068420410           -0.0393066406          0.4079895020           0.1102600098           
42.0000000000          0.3725738525           0.0589599609           0.6052246094           -0.0411682129          0.6052551270           -0.0412292480          0.4096984863           0.1071166992           
43.0000000000          0.3745117188           0.0578918457           0.6036682129           -0.0429382324          0.6036987305           -0.0428771973          0.4114685059           0.1040649414           
44.0000000000          0.3764648438           0.0567321777           0.6020507813           -0.0446777344          0.6020812988           -0.0446166992          0.4132080078           0.1008300781           
45.0000000000          0.3784484863           0.0555725098           0.6004028320           -0.0462341309          0.6004028320           -0.0461120605          0.4147644043           0.0978393555           
46.0000000000          0.3803405762           0.0543365479           0.5988769531           -0.0476379395          0.5989074707           -0.0474548340          0.4164123535           0.0946960449           
47.0000000000          0.3822326660           0.0529022217           0.5971984863           -0.0490417480          0.5972900391           -0.0489196777          0.4178771973           0.0916442871           
48.0000000000          0.3840484619           0.0516204834           0.5956726074           -0.0500488281          0.5956420898           -0.0500488281          0.4192810059           0.0886230469           
49.0000000000          0.3859252930           0.0502319336           0.5941772461           -0.0511169434          0.5942077637           -0.0511169434          0.4208831787           0.0856475830           
50.0000000000          0.3877410889           0.0487518311           0.5927429199           -0.0520324707          0.5926818848           -0.0519409180          0.4222412109           0.0825805664           
51.0000000000          0.3894805908           0.0472259521           0.5911254883           -0.0531005859          0.5911865234           -0.0528869629          0.4236297607           0.0794830322           
!$Notes
!SBC choke balun, 2X yellow cores.
!Fresh cal (well 30 minutes ago) certified with T check. 
!$State
!Measurement Parameters
!  Measurement Points=51
!  Start Frequency =1 MHz
!  Stop Frequency =51 MHz
!  IF BW=10 Hz
!  Sweep Time=5.2s
!  Averaging: Off
!  Correction = Yes
!  Source Pwr=0 dBm
!  Port 1 Attenuation=0 dB
!  Port 2 Attenuation=0 dB
!  Delay S11 S21=0ps 0 ps
!  Delay S12 S22=0ps 0 ps
!Measurement Time= 14.6 s
