# MHz S RI R 50 
! S-Parameters data 
! Freq   reS11   imS11   reS21   imS21   reS12   imS12   reS22   imS22 
1.0000000000           -0.7332458496          0.1646423340           -0.2501525879          -0.1207122803          -0.2485198975          -0.1203002930          -0.7629394531          0.1634216309           
2.0000000000           -0.6727600098          0.1219482422           -0.3043823242          -0.0464630127          -0.3026123047          -0.0467529297          -0.7066040039          0.1419677734           
3.0000000000           -0.6571655273          0.1087951660           -0.3153839111          -0.0005798340          -0.3137207031          -0.0010070801          -0.6895446777          0.1461791992           
4.0000000000           -0.6500244141          0.1083679199           -0.3173980713          0.0331878662           -0.3158264160          0.0326690674           -0.6788940430          0.1610412598           
5.0000000000           -0.6450500488          0.1133117676           -0.3158874512          0.0614776611           -0.3143310547          0.0606079102           -0.6695861816          0.1806335449           
6.0000000000           -0.6409912109          0.1212768555           -0.3126220703          0.0866088867           -0.3112182617          0.0855407715           -0.6600952148          0.2024536133           
7.0000000000           -0.6370239258          0.1308593750           -0.3080902100          0.1096801758           -0.3066864014          0.1084747314           -0.6497192383          0.2251281738           
8.0000000000           -0.6327819824          0.1414489746           -0.3024902344          0.1313781738           -0.3011474609          0.1299896240           -0.6383666992          0.2481079102           
9.0000000000           -0.6284179688          0.1526489258           -0.2961578369          0.1519622803           -0.2949676514          0.1504669189           -0.6260681152          0.2710266113           
10.0000000000          -0.6238708496          0.1640930176           -0.2890014648          0.1716613770           -0.2877960205          0.1701660156           -0.6127624512          0.2937011719           
11.0000000000          -0.6188659668          0.1756286621           -0.2809600830          0.1906738281           -0.2800903320          0.1888275146           -0.5983276367          0.3157653809           
12.0000000000          -0.6134338379          0.1872253418           -0.2723693848          0.2088928223           -0.2716064453          0.2069244385           -0.5830383301          0.3371887207           
13.0000000000          -0.6078186035          0.1988830566           -0.2631225586          0.2263488770           -0.2626647949          0.2242889404           -0.5667419434          0.3576965332           
14.0000000000          -0.6019287109          0.2102966309           -0.2533264160          0.2431945801           -0.2529602051          0.2410583496           -0.5497436523          0.3776550293           
15.0000000000          -0.5956726074          0.2215881348           -0.2430877686          0.2592315674           -0.2429046631          0.2572174072           -0.5318603516          0.3964538574           
16.0000000000          -0.5891418457          0.2326965332           -0.2327270508          0.2740783691           -0.2322998047          0.2725982666           -0.5138549805          0.4129333496           
17.0000000000          -0.5825195313          0.2436218262           -0.2215118408          0.2889709473           -0.2212677002          0.2873992920           -0.4948425293          0.4296875000           
18.0000000000          -0.5754089355          0.2542724609           -0.2099456787          0.3031463623           -0.2097930908          0.3015899658           -0.4753570557          0.4454040527           
19.0000000000          -0.5681457520          0.2645263672           -0.1979827881          0.3166656494           -0.1980438232          0.3150787354           -0.4554595947          0.4599609375           
20.0000000000          -0.5607910156          0.2746582031           -0.1856536865          0.3295898438           -0.1858673096          0.3277893066           -0.4351043701          0.4733581543           
21.0000000000          -0.5530700684          0.2843627930           -0.1730651855          0.3418121338           -0.1733551025          0.3401031494           -0.4143066406          0.4857788086           
22.0000000000          -0.5452575684          0.2938842773           -0.1602783203          0.3535308838           -0.1606140137          0.3518371582           -0.3932495117          0.4970092773           
23.0000000000          -0.5375366211          0.3029174805           -0.1471557617          0.3645172119           -0.1475677490          0.3628997803           -0.3720703125          0.5072631836           
24.0000000000          -0.5294494629          0.3117370605           -0.1338806152          0.3749084473           -0.1344451904          0.3731689453           -0.3507385254          0.5161743164           
25.0000000000          -0.5213623047          0.3203735352           -0.1205139160          0.3847198486           -0.1211853027          0.3831787109           -0.3296203613          0.5241699219           
26.0000000000          -0.5131530762          0.3284301758           -0.1069946289          0.3939361572           -0.1077117920          0.3925170898           -0.3085632324          0.5310363770           
27.0000000000          -0.5048828125          0.3364562988           -0.0932617188          0.4027557373           -0.0942535400          0.4012451172           -0.2875671387          0.5368957520           
28.0000000000          -0.4966278076          0.3439788818           -0.0795898438          0.4108581543           -0.0806579590          0.4093322754           -0.2669067383          0.5415649414           
29.0000000000          -0.4883422852          0.3511657715           -0.0659332275          0.4184265137           -0.0669555664          0.4170684814           -0.2462463379          0.5455322266           
30.0000000000          -0.4799346924          0.3581695557           -0.0520629883          0.4253997803           -0.0531768799          0.4241638184           -0.2257385254          0.5483398438           
31.0000000000          -0.4716339111          0.3648681641           -0.0381774902          0.4319915771           -0.0393981934          0.4308776855           -0.2054748535          0.5501708984           
32.0000000000          -0.4633789063          0.3714447021           -0.0244750977          0.4382019043           -0.0258178711          0.4371185303           -0.1857910156          0.5513305664           
33.0000000000          -0.4551849365          0.3777313232           -0.0106353760          0.4439239502           -0.0119476318          0.4429016113           -0.1664123535          0.5516967773           
34.0000000000          -0.4466705322          0.3835754395           0.0030975342           0.4490356445           0.0017700195           0.4480743408           -0.1473388672          0.5511779785           
35.0000000000          -0.4384765625          0.3893585205           0.0169525146           0.4537811279           0.0156250000           0.4529876709           -0.1286010742          0.5500183105           
36.0000000000          -0.4301910400          0.3947753906           0.0306701660           0.4581298828           0.0293579102           0.4574279785           -0.1103820801          0.5479125977           
37.0000000000          -0.4221801758          0.4000701904           0.0441894531           0.4620666504           0.0430908203           0.4614562988           -0.0925903320          0.5453491211           
38.0000000000          -0.4138946533          0.4049377441           0.0579223633           0.4653930664           0.0566406250           0.4650268555           -0.0754699707          0.5419616699           
39.0000000000          -0.4058685303          0.4098663330           0.0715942383           0.4686279297           0.0701599121           0.4680786133           -0.0587768555          0.5377197266           
40.0000000000          -0.3980712891          0.4143371582           0.0848693848           0.4712219238           0.0835266113           0.4709167480           -0.0428771973          0.5332336426           
41.0000000000          -0.3901824951          0.4185333252           0.0982971191           0.4734802246           0.0969543457           0.4732360840           -0.0274353027          0.5280456543           
42.0000000000          -0.3823394775          0.4226379395           0.1115417480           0.4755249023           0.1100769043           0.4752807617           -0.0126953125          0.5226440430           
43.0000000000          -0.3746337891          0.4267272949           0.1247558594           0.4771423340           0.1234130859           0.4769897461           0.0014343262           0.5163879395           
44.0000000000          -0.3670806885          0.4305419922           0.1377258301           0.4783935547           0.1364746094           0.4783325195           0.0149841309           0.5099487305           
45.0000000000          -0.3597106934          0.4341278076           0.1507263184           0.4794921875           0.1494140625           0.4794006348           0.0279541016           0.5030212402           
46.0000000000          -0.3522644043          0.4376525879           0.1634521484           0.4801025391           0.1621704102           0.4801940918           0.0400695801           0.4958190918           
47.0000000000          -0.3449401855          0.4409942627           0.1762084961           0.4803161621           0.1749877930           0.4805908203           0.0518798828           0.4883728027           
48.0000000000          -0.3378601074          0.4441528320           0.1887207031           0.4804687500           0.1875000000           0.4807128906           0.0628051758           0.4805908203           
49.0000000000          -0.3309020996          0.4472656250           0.2011108398           0.4801025391           0.2000732422           0.4805297852           0.0733642578           0.4726562500           
50.0000000000          -0.3240051270          0.4503479004           0.2135009766           0.4798583984           0.2122802734           0.4799804688           0.0831909180           0.4645996094           
51.0000000000          -0.3171386719          0.4531555176           0.2258300781           0.4790039063           0.2246704102           0.4793701172           0.0922851563           0.4562988281           
!$Notes
!SBC  Ferrite Rod Balun
!$State
!Measurement Parameters
!  Measurement Points=51
!  Start Frequency =1 MHz
!  Stop Frequency =51 MHz
!  IF BW=10 Hz
!  Sweep Time=5.2s
!  Averaging: Off
!  Correction = Yes
!  Source Pwr=0 dBm
!  Port 1 Attenuation=0 dB
!  Port 2 Attenuation=0 dB
!  Delay S11 S21=0ps 0 ps
!  Delay S12 S22=0ps 0 ps
!Measurement Time= 14.3 s
