# MHz S RI R 50 
! S-Parameters data 
! Freq   reS11   imS11   reS21   imS21   reS12   imS12   reS22   imS22 
1.0000000000           0.3298797607           0.0167999268           0.6575317383           0.0282897949           0.6575317383           0.0282592773           0.3187408447           0.0644531250           
2.0000000000           0.3318328857           0.0095672607           0.6599426270           0.0104064941           0.6599731445           0.0103759766           0.3254241943           0.0343780518           
3.0000000000           0.3327484131           0.0071258545           0.6603088379           0.0023498535           0.6602172852           0.0023193359           0.3275909424           0.0237426758           
4.0000000000           0.3333892822           0.0058746338           0.6602478027           -0.0029296875          0.6602478027           -0.0029296875          0.3288879395           0.0181884766           
5.0000000000           0.3340606689           0.0050811768           0.6599121094           -0.0072937012          0.6600646973           -0.0073242188          0.3299255371           0.0145263672           
6.0000000000           0.3346252441           0.0044250488           0.6596679688           -0.0111694336          0.6596679688           -0.0113525391          0.3309326172           0.0117187500           
7.0000000000           0.3353271484           0.0043640137           0.6592407227           -0.0143432617          0.6592407227           -0.0144653320          0.3316955566           0.0099792480           
8.0000000000           0.3359680176           0.0038757324           0.6586914063           -0.0175170898          0.6587524414           -0.0177001953          0.3324890137           0.0081481934           
9.0000000000           0.3367919922           0.0035095215           0.6582031250           -0.0206298828          0.6581420898           -0.0206909180          0.3332519531           0.0065307617           
10.0000000000          0.3375549316           0.0031738281           0.6575317383           -0.0235595703          0.6575927734           -0.0237426758          0.3339843750           0.0051269531           
11.0000000000          0.3384094238           0.0027008057           0.6569824219           -0.0264892578          0.6569824219           -0.0264892578          0.3346557617           0.0037994385           
12.0000000000          0.3392028809           0.0022888184           0.6561279297           -0.0290832520          0.6562805176           -0.0292358398          0.3354034424           0.0025482178           
13.0000000000          0.3400878906           0.0018463135           0.6554870605           -0.0318298340          0.6555175781           -0.0318603516          0.3361663818           0.0012969971           
14.0000000000          0.3409423828           0.0012969971           0.6547546387           -0.0342712402          0.6546630859           -0.0342712402          0.3367309570           0.0000305176           
15.0000000000          0.3418731689           0.0008087158           0.6539306641           -0.0367126465          0.6539001465           -0.0368652344          0.3373565674           -0.0012207031          
16.0000000000          0.3427734375           0.0002288818           0.6528320313           -0.0391235352          0.6531677246           -0.0391235352          0.3379974365           -0.0024108887          
17.0000000000          0.3438568115           -0.0004119873          0.6520385742           -0.0415039063          0.6522216797           -0.0414733887          0.3385925293           -0.0036621094          
18.0000000000          0.3447113037           -0.0010986328          0.6510314941           -0.0437316895          0.6512145996           -0.0437927246          0.3392333984           -0.0049438477          
19.0000000000          0.3458251953           -0.0018768311          0.6502380371           -0.0458679199          0.6503906250           -0.0460205078          0.3397827148           -0.0062408447          
20.0000000000          0.3467559814           -0.0027465820          0.6491699219           -0.0479125977          0.6493835449           -0.0480957031          0.3404388428           -0.0076141357          
21.0000000000          0.3477630615           -0.0037536621          0.6483154297           -0.0501403809          0.6484680176           -0.0499877930          0.3410339355           -0.0089263916          
22.0000000000          0.3488006592           -0.0046539307          0.6474304199           -0.0520019531          0.6474304199           -0.0520935059          0.3415527344           -0.0104370117          
23.0000000000          0.3498382568           -0.0056304932          0.6464538574           -0.0539245605          0.6465454102           -0.0539855957          0.3421478271           -0.0116882324          
24.0000000000          0.3508453369           -0.0067138672          0.6455078125           -0.0557861328          0.6455993652           -0.0558166504          0.3427429199           -0.0132293701          
25.0000000000          0.3518676758           -0.0079345703          0.6443786621           -0.0577087402          0.6446228027           -0.0575866699          0.3431854248           -0.0147094727          
26.0000000000          0.3528442383           -0.0092010498          0.6435546875           -0.0593261719          0.6436767578           -0.0592956543          0.3436889648           -0.0162658691          
27.0000000000          0.3539123535           -0.0106048584          0.6426086426           -0.0610656738          0.6427612305           -0.0610046387          0.3442077637           -0.0179443359          
28.0000000000          0.3549499512           -0.0119323730          0.6416931152           -0.0626831055          0.6417236328           -0.0626525879          0.3444671631           -0.0195312500          
29.0000000000          0.3558807373           -0.0135345459          0.6406555176           -0.0642395020          0.6408996582           -0.0641784668          0.3449096680           -0.0211944580          
30.0000000000          0.3567810059           -0.0150909424          0.6398315430           -0.0655517578          0.6399230957           -0.0657653809          0.3451385498           -0.0229339600          
31.0000000000          0.3576507568           -0.0166778564          0.6390380859           -0.0670776367          0.6390380859           -0.0670166016          0.3454895020           -0.0246734619          
32.0000000000          0.3585510254           -0.0184936523          0.6381225586           -0.0684814453          0.6382446289           -0.0684509277          0.3456268311           -0.0264587402          
33.0000000000          0.3593597412           -0.0203094482          0.6372680664           -0.0697937012          0.6375427246           -0.0699157715          0.3458251953           -0.0284118652          
34.0000000000          0.3601379395           -0.0221252441          0.6365356445           -0.0711669922          0.6366271973           -0.0710754395          0.3459167480           -0.0302734375          
35.0000000000          0.3609771729           -0.0240631104          0.6358032227           -0.0724792480          0.6359558105           -0.0724182129          0.3460083008           -0.0321502686          
36.0000000000          0.3616790771           -0.0260620117          0.6351623535           -0.0735168457          0.6353149414           -0.0734863281          0.3460693359           -0.0339965820          
37.0000000000          0.3622436523           -0.0280303955          0.6346740723           -0.0747070313          0.6347351074           -0.0747070313          0.3459625244           -0.0359344482          
38.0000000000          0.3628997803           -0.0301818848          0.6339111328           -0.0758972168          0.6340332031           -0.0757751465          0.3458709717           -0.0379028320          
39.0000000000          0.3633575439           -0.0323028564          0.6334228516           -0.0768432617          0.6334838867           -0.0768127441          0.3457031250           -0.0399627686          
40.0000000000          0.3638458252           -0.0346069336          0.6327819824           -0.0780639648          0.6330871582           -0.0780029297          0.3453979492           -0.0420074463          
41.0000000000          0.3643341064           -0.0368347168          0.6325073242           -0.0789794922          0.6326293945           -0.0789489746          0.3450622559           -0.0440826416          
42.0000000000          0.3646240234           -0.0391693115          0.6321411133           -0.0799560547          0.6322631836           -0.0798950195          0.3446502686           -0.0460968018          
43.0000000000          0.3648376465           -0.0414733887          0.6317749023           -0.0809326172          0.6319580078           -0.0808105469          0.3442382813           -0.0480651855          
44.0000000000          0.3649749756           -0.0439300537          0.6315917969           -0.0820312500          0.6317749023           -0.0818786621          0.3436584473           -0.0502014160          
45.0000000000          0.3650817871           -0.0464630127          0.6314697266           -0.0828857422          0.6315917969           -0.0828857422          0.3429870605           -0.0523071289          
46.0000000000          0.3651123047           -0.0489959717          0.6313476563           -0.0839233398          0.6315612793           -0.0839233398          0.3423919678           -0.0543212891          
47.0000000000          0.3650054932           -0.0515594482          0.6312561035           -0.0849914551          0.6315002441           -0.0849304199          0.3414611816           -0.0564117432          
48.0000000000          0.3649291992           -0.0540313721          0.6313781738           -0.0858459473          0.6314697266           -0.0857849121          0.3406524658           -0.0583953857          
49.0000000000          0.3647003174           -0.0566253662          0.6315612793           -0.0868835449          0.6316528320           -0.0867919922          0.3397216797           -0.0604248047          
50.0000000000          0.3643646240           -0.0592041016          0.6316528320           -0.0878295898          0.6318054199           -0.0877685547          0.3387451172           -0.0625000000          
51.0000000000          0.3639526367           -0.0618438721          0.6319274902           -0.0888671875          0.6320190430           -0.0886840820          0.3375701904           -0.0644683838          
!$Notes
!SBC snap on ferrite choke balun.
!Fresh cal, certified with T check. 
!$State
!Measurement Parameters
!  Measurement Points=51
!  Start Frequency =1 MHz
!  Stop Frequency =51 MHz
!  IF BW=10 Hz
!  Sweep Time=5.2s
!  Averaging: Off
!  Correction = Yes
!  Source Pwr=0 dBm
!  Port 1 Attenuation=0 dB
!  Port 2 Attenuation=0 dB
!  Delay S11 S21=0ps 0 ps
!  Delay S12 S22=0ps 0 ps
!Measurement Time= 14.6 s
