# MHz S RI R 50 
! S-Parameters data 
! Freq   reS11   imS11   reS21   imS21   reS12   imS12   reS22   imS22 
1.0000000000           -0.3288269043          -0.0000915527          0.6713256836           -0.0000610352          0.6713562012           -0.0000915527          -0.3287811279          -0.0000457764          
2.0000000000           -0.3288574219          -0.0001220703          0.6713562012           -0.0000305176          0.6713867188           -0.0000610352          -0.3289031982          -0.0001068115          
3.0000000000           -0.3288116455          -0.0001068115          0.6712646484           -0.0000610352          0.6714172363           -0.0001525879          -0.3289031982          -0.0001068115          
4.0000000000           -0.3288269043          -0.0001220703          0.6713867188           -0.0000915527          0.6712951660           -0.0001525879          -0.3287963867          -0.0001525879          
5.0000000000           -0.3288421631          -0.0001220703          0.6712341309           -0.0001831055          0.6714172363           -0.0002441406          -0.3288726807          -0.0001678467          
6.0000000000           -0.3288116455          -0.0000915527          0.6713256836           -0.0003051758          0.6713562012           -0.0003967285          -0.3288421631          -0.0001831055          
7.0000000000           -0.3288574219          -0.0001220703          0.6714172363           -0.0003356934          0.6713867188           -0.0004272461          -0.3288421631          -0.0001678467          
8.0000000000           -0.3288574219          -0.0001831055          0.6712646484           -0.0003051758          0.6714172363           -0.0004272461          -0.3288421631          -0.0001831055          
9.0000000000           -0.3288726807          -0.0001831055          0.6713256836           -0.0003356934          0.6714172363           -0.0004577637          -0.3288574219          -0.0002288818          
10.0000000000          -0.3288574219          -0.0001983643          0.6712341309           -0.0004272461          0.6713562012           -0.0005798340          -0.3288116455          -0.0002288818          
11.0000000000          -0.3288116455          -0.0002288818          0.6713867188           -0.0005798340          0.6713867188           -0.0005187988          -0.3288574219          -0.0002136230          
12.0000000000          -0.3288726807          -0.0002441406          0.6712036133           -0.0004272461          0.6713256836           -0.0005187988          -0.3288879395          -0.0001678467          
13.0000000000          -0.3289337158          -0.0002136230          0.6714172363           -0.0006103516          0.6713562012           -0.0007019043          -0.3288574219          -0.0002899170          
14.0000000000          -0.3288116455          -0.0002288818          0.6712646484           -0.0005187988          0.6714477539           -0.0006408691          -0.3288879395          -0.0003051758          
15.0000000000          -0.3288879395          -0.0002288818          0.6713256836           -0.0006408691          0.6713562012           -0.0007934570          -0.3288269043          -0.0003356934          
16.0000000000          -0.3287963867          -0.0002593994          0.6712036133           -0.0007019043          0.6713256836           -0.0006408691          -0.3288574219          -0.0002288818          
17.0000000000          -0.3287963867          -0.0002441406          0.6712341309           -0.0008239746          0.6713256836           -0.0007934570          -0.3288879395          -0.0002899170          
18.0000000000          -0.3287658691          -0.0002593994          0.6712036133           -0.0009460449          0.6712646484           -0.0009765625          -0.3288269043          -0.0002441406          
19.0000000000          -0.3287506104          -0.0003051758          0.6712646484           -0.0009155273          0.6713562012           -0.0009460449          -0.3288421631          -0.0002899170          
20.0000000000          -0.3287353516          -0.0003051758          0.6711425781           -0.0009765625          0.6713562012           -0.0009765625          -0.3289031982          -0.0003204346          
21.0000000000          -0.3287811279          -0.0002441406          0.6712951660           -0.0009155273          0.6711425781           -0.0008544922          -0.3288421631          -0.0002288818          
22.0000000000          -0.3287200928          -0.0002899170          0.6713256836           -0.0010070801          0.6712951660           -0.0010070801          -0.3288421631          -0.0003814697          
23.0000000000          -0.3287658691          -0.0004272461          0.6712341309           -0.0010986328          0.6713867188           -0.0010986328          -0.3289031982          -0.0003662109          
24.0000000000          -0.3287963867          -0.0004577637          0.6713562012           -0.0010986328          0.6713256836           -0.0011291504          -0.3289031982          -0.0003662109          
25.0000000000          -0.3287048340          -0.0004577637          0.6714172363           -0.0011596680          0.6714172363           -0.0012512207          -0.3289184570          -0.0002899170          
26.0000000000          -0.3287200928          -0.0004730225          0.6713256836           -0.0011291504          0.6713562012           -0.0011596680          -0.3289184570          -0.0003662109          
27.0000000000          -0.3287353516          -0.0004577637          0.6713256836           -0.0013122559          0.6713256836           -0.0012512207          -0.3289184570          -0.0004425049          
28.0000000000          -0.3287353516          -0.0004882813          0.6713562012           -0.0013122559          0.6713867188           -0.0013427734          -0.3288421631          -0.0003509521          
29.0000000000          -0.3287506104          -0.0005187988          0.6713867188           -0.0013427734          0.6713867188           -0.0014343262          -0.3289184570          -0.0004119873          
30.0000000000          -0.3286437988          -0.0004882813          0.6712951660           -0.0013732910          0.6714172363           -0.0014038086          -0.3288726807          -0.0004577637          
31.0000000000          -0.3285675049          -0.0005035400          0.6712341309           -0.0015563965          0.6712646484           -0.0015563965          -0.3287811279          -0.0003662109          
32.0000000000          -0.3286590576          -0.0005187988          0.6712036133           -0.0015869141          0.6712951660           -0.0014343262          -0.3287506104          -0.0004119873          
33.0000000000          -0.3286437988          -0.0004425049          0.6712341309           -0.0015563965          0.6713562012           -0.0015869141          -0.3288421631          -0.0003814697          
34.0000000000          -0.3287048340          -0.0005950928          0.6712341309           -0.0017089844          0.6713562012           -0.0017089844          -0.3289184570          -0.0003814697          
35.0000000000          -0.3287048340          -0.0005187988          0.6712646484           -0.0017395020          0.6712646484           -0.0015869141          -0.3287658691          -0.0004730225          
36.0000000000          -0.3285522461          -0.0005340576          0.6710510254           -0.0017395020          0.6713256836           -0.0018005371          -0.3288116455          -0.0003662109          
37.0000000000          -0.3285675049          -0.0006103516          0.6712341309           -0.0016784668          0.6713256836           -0.0018310547          -0.3287506104          -0.0004425049          
38.0000000000          -0.3286132813          -0.0006713867          0.6712341309           -0.0018310547          0.6712646484           -0.0018615723          -0.3287658691          -0.0004577637          
39.0000000000          -0.3285827637          -0.0006561279          0.6711730957           -0.0017700195          0.6712646484           -0.0018920898          -0.3288421631          -0.0005645752          
40.0000000000          -0.3285369873          -0.0007629395          0.6710815430           -0.0019531250          0.6712341309           -0.0019531250          -0.3286895752          -0.0004882813          
41.0000000000          -0.3285522461          -0.0007934570          0.6712341309           -0.0019836426          0.6712341309           -0.0019531250          -0.3287200928          -0.0005340576          
42.0000000000          -0.3285369873          -0.0007629395          0.6712036133           -0.0019836426          0.6712341309           -0.0019836426          -0.3287048340          -0.0005340576          
43.0000000000          -0.3284912109          -0.0007934570          0.6710815430           -0.0020141602          0.6712951660           -0.0019836426          -0.3287353516          -0.0005340576          
44.0000000000          -0.3285217285          -0.0007629395          0.6711425781           -0.0021362305          0.6712341309           -0.0019836426          -0.3286743164          -0.0005950928          
45.0000000000          -0.3284606934          -0.0007781982          0.6712036133           -0.0021972656          0.6711730957           -0.0021057129          -0.3286895752          -0.0005645752          
46.0000000000          -0.3284454346          -0.0007324219          0.6711730957           -0.0021057129          0.6712646484           -0.0021972656          -0.3287200928          -0.0005340576          
47.0000000000          -0.3284149170          -0.0007781982          0.6711730957           -0.0023193359          0.6712036133           -0.0022888184          -0.3287200928          -0.0005950928          
48.0000000000          -0.3284759521          -0.0008697510          0.6712036133           -0.0022277832          0.6713256836           -0.0022888184          -0.3286743164          -0.0006103516          
49.0000000000          -0.3285217285          -0.0007934570          0.6713562012           -0.0024414063          0.6712646484           -0.0023498535          -0.3286895752          -0.0005645752          
50.0000000000          -0.3284759521          -0.0008544922          0.6712951660           -0.0024414063          0.6712646484           -0.0022888184          -0.3286895752          -0.0006256104          
51.0000000000          -0.3284606934          -0.0009460449          0.6712341309           -0.0024414063          0.6712341309           -0.0023193359          -0.3287658691          -0.0005645752          
!$Notes
!SMA T with 50 ohm load used for T check
!$State
!Measurement Parameters
!  Measurement Points=51
!  Start Frequency =1 MHz
!  Stop Frequency =51 MHz
!  IF BW=10 Hz
!  Sweep Time=5.2s
!  Averaging: Off
!  Correction = Yes
!  Source Pwr=0 dBm
!  Port 1 Attenuation=0 dB
!  Port 2 Attenuation=0 dB
!  Delay S11 S21=0ps 0 ps
!  Delay S12 S22=0ps 0 ps
!Measurement Time= 14.8 s
