# MHz S RI R 50 
! S-Parameters data 
! Freq   reS11   imS11   reS21   imS21   reS12   imS12   reS22   imS22 
1.0000000000           -0.3581245480          0.0990152058           0.7028583768           -0.0370656879          0.7028583768           -0.0370656879          0.6032438147           0.1984658361           
1.2500000000           -0.3503837368          0.0918945845           0.6927079479           -0.0388236831          0.6927079479           -0.0388236831          0.6223028925           0.1680073906           
1.5000000000           -0.3456090598          0.0881261194           0.6864447997           -0.0395689990          0.6864447997           -0.0395689990          0.6337721839           0.1459596493           
1.7500000000           -0.3424160748          0.0866115850           0.6823307267           -0.0402607700          0.6823307267           -0.0402607700          0.6411445058           0.1295769319           
2.0000000000           -0.3401188906          0.0866537067           0.6794691540           -0.0411508804          0.6794691540           -0.0411508804          0.6461507386           0.1171128454           
2.2500000000           -0.3383533952          0.0878029713           0.6773739507           -0.0422832845          0.6773739507           -0.0422832845          0.6497099279           0.1074408060           
2.5000000000           -0.3369139981          0.0897616916           0.6757671224           -0.0436411114          0.6757671224           -0.0436411114          0.6523411282           0.0998147139           
2.7500000000           -0.3356783041          0.0923268935           0.6744817754           -0.0451927639          0.6744817754           -0.0451927639          0.6543534624           0.0937260587           
3.0000000000           -0.3345700920          0.0953562614           0.6734133522           -0.0469064631          0.6734133522           -0.0469064631          0.6559395416           0.0888185837           
3.2500000000           -0.3335400427          0.0987474216           0.6724938837           -0.0487543883          0.6724938837           -0.0487543883          0.6572241008           0.0848363275           
3.5000000000           -0.3325551835          0.1024250132           0.6716777498           -0.0507133439          0.6716777498           -0.0507133439          0.6582906392           0.0815911748           
3.7500000000           -0.3315928430          0.1063323994           0.6709334685           -0.0527643344          0.6709334685           -0.0527643344          0.6591966759           0.0789420473           
4.0000000000           -0.3306370522          0.1104262178           0.6702387822           -0.0548918767          0.6702387822           -0.0548918767          0.6599828346           0.0767812158           
4.2500000000           -0.3296763266          0.1146727089           0.6695776176           -0.0570833306          0.6695776176           -0.0570833306          0.6606784402           0.0750250785           
4.5000000000           -0.3287022578          0.1190451897           0.6689381492           -0.0593283275          0.6689381492           -0.0593283275          0.6613050739           0.0736078115           
4.7500000000           -0.3277085947          0.1235222786           0.6683115330           -0.0616183079          0.6683115330           -0.0616183079          0.6618788918           0.0724769092           
5.0000000000           -0.3266906299          0.1280866257           0.6676910587           -0.0639461560          0.6676910587           -0.0639461560          0.6624121748           0.0715899928           
5.2500000000           -0.3256447798          0.1327239900           0.6670715697           -0.0663059115          0.6670715697           -0.0663059115          0.6629143861           0.0709124903           
5.5000000000           -0.3245682936          0.1374225572           0.6664490591           -0.0686925451          0.6664490591           -0.0686925451          0.6633929075           0.0704159216           
5.7500000000           -0.3234590461          0.1421724293           0.6658203829           -0.0711017814          0.6658203829           -0.0711017814          0.6638535609           0.0700766157           
6.0000000000           -0.3223153891          0.1469652378           0.6651830538           -0.0735299601          0.6651830538           -0.0735299601          0.6643009836           0.0698747367           
6.2500000000           -0.3211360427          0.1517938461           0.6645350899           -0.0759739255          0.6645350899           -0.0759739255          0.6647389026           0.0697935370           
6.5000000000           -0.3199200150          0.1566521195           0.6638749032           -0.0784309382          0.6638749032           -0.0784309382          0.6651703371           0.0698187771           
6.7500000000           -0.3186665413          0.1615347445           0.6632012155           -0.0808986057          0.6632012155           -0.0808986057          0.6655977510           0.0699382722           
7.0000000000           -0.3173750389          0.1664370863           0.6625129950           -0.0833748245          0.6625129950           -0.0833748245          0.6660231678           0.0701415323           
7.2500000000           -0.3160450717          0.1713550746           0.6618094075           -0.0858577349          0.6618094075           -0.0858577349          0.6664482586           0.0704194760           
7.5000000000           -0.3146763232          0.1762851123           0.6610897787           -0.0883456831          0.6610897787           -0.0883456831          0.6668744109           0.0707642001           
7.7500000000           -0.3132685752          0.1812240014           0.6603535647           -0.0908371903          0.6603535647           -0.0908371903          0.6673027811           0.0711687927           
8.0000000000           -0.3118216913          0.1861688827           0.6596003289           -0.0933309276          0.6596003289           -0.0933309276          0.6677343372           0.0716271811           
8.2500000000           -0.3103356034          0.1911171856           0.6588297235           -0.0958256945          0.6588297235           -0.0958256945          0.6681698914           0.0721340066           
8.5000000000           -0.3088103011          0.1960665879           0.6580414747           -0.0983204018          0.6580414747           -0.0983204018          0.6686101267           0.0726845210           
8.7500000000           -0.3072458232          0.2010149812           0.6572353712           -0.1008140565          0.6572353712           -0.1008140565          0.6690556187           0.0732745010           
9.0000000000           -0.3056422505          0.2059604427           0.6564112541           -0.1033057496          0.6564112541           -0.1033057496          0.6695068525           0.0739001764           
9.2500000000           -0.3039997005          0.2109012112           0.6555690091           -0.1057946457          0.6555690091           -0.1057946457          0.6699642371           0.0745581695           
9.5000000000           -0.3023183221          0.2158356670           0.6547085605           -0.1082799740          0.6547085605           -0.1082799740          0.6704281166           0.0752454444           
9.7500000000           -0.3005982922          0.2207623151           0.6538298652           -0.1107610208          0.6538298652           -0.1107610208          0.6708987803           0.0759592639           
10.0000000000          -0.2988398122          0.2256797704           0.6529329090           -0.1132371232          0.6529329090           -0.1132371232          0.6713764701           0.0766971526           
10.2500000000          -0.2970431053          0.2305867453           0.6520177021           -0.1157076631          0.6520177021           -0.1157076631          0.6718613871           0.0774568658           
10.5000000000          -0.2952084139          0.2354820392           0.6510842766           -0.1181720630          0.6510842766           -0.1181720630          0.6723536978           0.0782363621           
10.7500000000          -0.2933359982          0.2403645293           0.6501326836           -0.1206297815          0.6501326836           -0.1206297815          0.6728535378           0.0790337804           
11.0000000000          -0.2914261339          0.2452331627           0.6491629910           -0.1230803096          0.6491629910           -0.1230803096          0.6733610165           0.0798474197           
11.2500000000          -0.2894791112          0.2500869495           0.6481752817           -0.1255231682          0.6481752817           -0.1255231682          0.6738762197           0.0806757218           
11.5000000000          -0.2874952332          0.2549249569           0.6471696518           -0.1279579048          0.6471696518           -0.1279579048          0.6743992133           0.0815172559           
11.7500000000          -0.2854748151          0.2597463040           0.6461462093           -0.1303840912          0.6461462093           -0.1303840912          0.6749300450           0.0823707056           
12.0000000000          -0.2834181826          0.2645501572           0.6451050729           -0.1328013216          0.6451050729           -0.1328013216          0.6754687467           0.0832348568           
12.2500000000          -0.2813256721          0.2693357262           0.6440463708           -0.1352092109          0.6440463708           -0.1352092109          0.6760153362           0.0841085883           
12.5000000000          -0.2791976289          0.2741022604           0.6429702401           -0.1376073927          0.6429702401           -0.1376073927          0.6765698190           0.0849908619           
12.7500000000          -0.2770344070          0.2788490463           0.6418768257           -0.1399955181          0.6418768257           -0.1399955181          0.6771321892           0.0858807153           
13.0000000000          -0.2748363685          0.2835754040           0.6407662794           -0.1423732543          0.6407662794           -0.1423732543          0.6777024311           0.0867772543           
13.2500000000          -0.2726038829          0.2882806854           0.6396387600           -0.1447402838          0.6396387600           -0.1447402838          0.6782805201           0.0876796473           
13.5000000000          -0.2703373267          0.2929642718           0.6384944318           -0.1470963031          0.6384944318           -0.1470963031          0.6788664234           0.0885871191           
13.7500000000          -0.2680370827          0.2976255717           0.6373334649           -0.1494410217          0.6373334649           -0.1494410217          0.6794601011           0.0894989464           
14.0000000000          -0.2657035400          0.3022640197           0.6361560343           -0.1517741618          0.6361560343           -0.1517741618          0.6800615067           0.0904144534           
14.2500000000          -0.2633370931          0.3068790744           0.6349623196           -0.1540954569          0.6349623196           -0.1540954569          0.6806705878           0.0913330074           
14.5000000000          -0.2609381420          0.3114702175           0.6337525047           -0.1564046520          0.6337525047           -0.1564046520          0.6812872866           0.0922540158           
14.7500000000          -0.2585070913          0.3160369520           0.6325267773           -0.1587015020          0.6325267773           -0.1587015020          0.6819115406           0.0931769224           
15.0000000000          -0.2560443505          0.3205788016           0.6312853287           -0.1609857722          0.6312853287           -0.1609857722          0.6825432826           0.0941012049           
15.2500000000          -0.2535503334          0.3250953095           0.6300283537           -0.1632572371          0.6300283537           -0.1632572371          0.6831824416           0.0950263723           
15.5000000000          -0.2510254574          0.3295860372           0.6287560499           -0.1655156803          0.6287560499           -0.1655156803          0.6838289429           0.0959519624           
15.7500000000          -0.2484701441          0.3340505644           0.6274686179           -0.1677608941          0.6274686179           -0.1677608941          0.6844827084           0.0968775396           
16.0000000000          -0.2458848182          0.3384884872           0.6261662609           -0.1699926789          0.6261662609           -0.1699926789          0.6851436569           0.0978026932           
16.2500000000          -0.2432699077          0.3428994186           0.6248491844           -0.1722108432          0.6248491844           -0.1722108432          0.6858117043           0.0987270356           
16.5000000000          -0.2406258435          0.3472829867           0.6235175961           -0.1744152032          0.6235175961           -0.1744152032          0.6864867644           0.0996502006           
16.7500000000          -0.2379530594          0.3516388352           0.6221717058           -0.1766055823          0.6221717058           -0.1766055823          0.6871687481           0.1005718421           
17.0000000000          -0.2352519915          0.3559666219           0.6208117250           -0.1787818112          0.6208117250           -0.1787818112          0.6878575645           0.1014916326           
17.2500000000          -0.2325230781          0.3602660189           0.6194378671           -0.1809437275          0.6194378671           -0.1809437275          0.6885531207           0.1024092623           
17.5000000000          -0.2297667598          0.3645367120           0.6180503468           -0.1830911755          0.6180503468           -0.1830911755          0.6892553221           0.1033244374           
17.7500000000          -0.2269834787          0.3687784001           0.6166493802           -0.1852240058          0.6166493802           -0.1852240058          0.6899640722           0.1042368798           
18.0000000000          -0.2241736789          0.3729907947           0.6152351849           -0.1873420755          0.6152351849           -0.1873420755          0.6906792733           0.1051463259           
18.2500000000          -0.2213378057          0.3771736202           0.6138079793           -0.1894452479          0.6138079793           -0.1894452479          0.6914008262           0.1060525253           
18.5000000000          -0.2184763057          0.3813266126           0.6123679829           -0.1915333921          0.6123679829           -0.1915333921          0.6921286307           0.1069552407           
18.7500000000          -0.2155896266          0.3854495201           0.6109154162           -0.1936063831          0.6109154162           -0.1936063831          0.6928625853           0.1078542469           
19.0000000000          -0.2126782171          0.3895421023           0.6094505002           -0.1956641015          0.6094505002           -0.1956641015          0.6936025875           0.1087493298           
19.2500000000          -0.2097425264          0.3936041297           0.6079734568           -0.1977064337          0.6079734568           -0.1977064337          0.6943485342           0.1096402863           
19.5000000000          -0.2067830044          0.3976353843           0.6064845081           -0.1997332712          0.6064845081           -0.1997332712          0.6951003211           0.1105269236           
19.7500000000          -0.2038001014          0.4016356584           0.6049838769           -0.2017445111          0.6049838769           -0.2017445111          0.6958578436           0.1114090583           
20.0000000000          -0.2007942677          0.4056047548           0.6034717864           -0.2037400555          0.6034717864           -0.2037400555          0.6966209963           0.1122865163           
20.2500000000          -0.1977659539          0.4095424867           0.6019484596           -0.2057198115          0.6019484596           -0.2057198115          0.6973896732           0.1131591322           
20.5000000000          -0.1947156104          0.4134486772           0.6004141201           -0.2076836915          0.6004141201           -0.2076836915          0.6981637680           0.1140267490           
20.7500000000          -0.1916436873          0.4173231593           0.5988689913           -0.2096316124          0.5988689913           -0.2096316124          0.6989431740           0.1148892174           
21.0000000000          -0.1885506343          0.4211657755           0.5973132966           -0.2115634962          0.5973132966           -0.2115634962          0.6997277841           0.1157463956           
21.2500000000          -0.1854369007          0.4249763778           0.5957472593           -0.2134792694          0.5957472593           -0.2134792694          0.7005174910           0.1165981493           
21.5000000000          -0.1823029349          0.4287548276           0.5941711025           -0.2153788631          0.5941711025           -0.2153788631          0.7013121873           0.1174443507           
21.7500000000          -0.1791491846          0.4325009950           0.5925850490           -0.2172622131          0.5925850490           -0.2172622131          0.7021117654           0.1182848786           
22.0000000000          -0.1759760965          0.4362147592           0.5909893212           -0.2191292592          0.5909893212           -0.2191292592          0.7029161177           0.1191196181           
22.2500000000          -0.1727841162          0.4398960082           0.5893841411           -0.2209799461          0.5893841411           -0.2209799461          0.7037251365           0.1199484604           
22.5000000000          -0.1695736881          0.4435446384           0.5877697302           -0.2228142224          0.5877697302           -0.2228142224          0.7045387141           0.1207713024           
22.7500000000          -0.1663452552          0.4471605546           0.5861463093           -0.2246320408          0.5861463093           -0.2246320408          0.7053567431           0.1215880462           
23.0000000000          -0.1630992590          0.4507436701           0.5845140989           -0.2264333586          0.5845140989           -0.2264333586          0.7061791161           0.1223985996           
23.2500000000          -0.1598361396          0.4542939058           0.5828733183           -0.2282181365          0.5828733183           -0.2282181365          0.7070057258           0.1232028753           
23.5000000000          -0.1565563351          0.4578111911           0.5812241864           -0.2299863397          0.5812241864           -0.2299863397          0.7078364653           0.1240007907           
23.7500000000          -0.1532602820          0.4612954627           0.5795669211           -0.2317379370          0.5795669211           -0.2317379370          0.7086712279           0.1247922681           
24.0000000000          -0.1499484147          0.4647466653           0.5779017394           -0.2334729010          0.5779017394           -0.2334729010          0.7095099071           0.1255772343           
24.2500000000          -0.1466211658          0.4681647509           0.5762288573           -0.2351912082          0.5762288573           -0.2351912082          0.7103523969           0.1263556204           
24.5000000000          -0.1432789655          0.4715496790           0.5745484900           -0.2368928387          0.5745484900           -0.2368928387          0.7111985917           0.1271273615           
