# MHz S RI R 50 
! S-Parameters data 
! Freq   reS11   imS11   reS21   imS21   reS12   imS12   reS22   imS22 
1.0000000000           -0.3631929017          0.1739701639           0.6973995993           -0.1098130727          0.6973995993           -0.1098130727          0.6037294739           0.1820069522           
1.2500000000           -0.3498414666          0.1877847615           0.6855747326           -0.1327807925          0.6855747326           -0.1327807925          0.6200252076           0.1527881556           
1.5000000000           -0.3373569393          0.2042803896           0.6759537520           -0.1546029807          0.6759537520           -0.1546029807          0.6301025559           0.1319756835           
1.7500000000           -0.3246477369          0.2221881365           0.6671447950           -0.1760239980          0.6671447950           -0.1760239980          0.6369633200           0.1165757694           
2.0000000000           -0.3112270592          0.2407115359           0.6584651689           -0.1972217587          0.6584651689           -0.1972217587          0.6420427395           0.1047879781           
2.2500000000           -0.2968797065          0.2593229240           0.6495647623           -0.2182090617          0.6495647623           -0.2182090617          0.6460816390           0.0954875928           
2.5000000000           -0.2815241448          0.2776538073           0.6402587925           -0.2389503478          0.6402587925           -0.2389503478          0.6494866239           0.0879435630           
2.7500000000           -0.2651503101          0.2954348487           0.6304499529           -0.2593986375          0.6304499529           -0.2593986375          0.6524913971           0.0816629437           
3.0000000000           -0.2477892009          0.3124619155           0.6200899132           -0.2795076503          0.6200899132           -0.2795076503          0.6552345278           0.0763024092           
3.2500000000           -0.2294968446          0.3285761383           0.6091591065           -0.2992356363          0.6091591065           -0.2992356363          0.6577994336           0.0716160942           
3.5000000000           -0.2103452105          0.3436517389           0.5976555037           -0.3185463272          0.5976555037           -0.3185463272          0.6602361207           0.0674237482           
3.7500000000           -0.1904166911          0.3575883084           0.5855880438           -0.3374088855          0.5855880438           -0.3374088855          0.6625735980           0.0635906436           
4.0000000000           -0.1698005207          0.3703057103           0.5729725938           -0.3557975250          0.5729725938           -0.3557975250          0.6648272796           0.0600145120           
4.2500000000           -0.1485903077          0.3817405729           0.5598293470           -0.3736910465          0.5598293470           -0.3736910465          0.6670035754           0.0566168108           
4.5000000000           -0.1268822417          0.3918437686           0.5461810742           -0.3910723715          0.5461810742           -0.3910723715          0.6691028390           0.0533367366           
4.7500000000           -0.1047737370          0.4005785188           0.5320519015           -0.4079280971          0.5320519015           -0.4079280971          0.6711213252           0.0501270207           
5.0000000000           -0.0823623747          0.4079189043           0.5174664262           -0.4242480759          0.5174664262           -0.4242480759          0.6730525291           0.0469509115           
5.2500000000           -0.0597450629          0.4138486446           0.5024490617           -0.4400250155          0.5024490617           -0.4400250155          0.6748881292           0.0437799600           
5.5000000000           -0.0370173636          0.4183600614           0.4870235389           -0.4552540940          0.4870235389           -0.4552540940          0.6766186719           0.0405923594           
5.7500000000           -0.0142729546          0.4214531716           0.4712125229           -0.4699325850          0.4712125229           -0.4699325850          0.6782340826           0.0373716724           
6.0000000000           0.0083967964           0.4231348756           0.4550373152           -0.4840594873          0.4550373152           -0.4840594873          0.6797240602           0.0341058321           
6.2500000000           0.0309031635           0.4234182167           0.4385176210           -0.4976351553          0.4385176210           -0.4976351553          0.6810783952           0.0307863336           
6.5000000000           0.0531603134           0.4223216980           0.4216713653           -0.5106609236          0.4216713653           -0.5106609236          0.6822872384           0.0274075586           
6.7500000000           0.0750854874           0.4198686424           0.4045145468           -0.5231387189          0.4045145468           -0.5231387189          0.6833413456           0.0239661829           
7.0000000000           0.0965991268           0.4160865830           0.3870611169           -0.5350706461          0.3870611169           -0.5350706461          0.6842323184           0.0204606251           
7.2500000000           0.1176249541           0.4110066716           0.3693228709           -0.5464585335          0.3693228709           -0.5464585335          0.6849528658           0.0168904923           
7.5000000000           0.1380900209           0.4046630805           0.3513093362           -0.5573034066          0.3513093362           -0.5573034066          0.6854971162           0.0132559677           
7.7500000000           0.1579247394           0.3970923660           0.3330276367           -0.5676048444          0.3330276367           -0.5676048444          0.6858610226           0.0095570652           
8.0000000000           0.1770629133           0.3883327350           0.3144823012           -0.5773601371          0.3144823012           -0.5773601371          0.6860429275           0.0057926284           
8.2500000000           0.1954417944           0.3784231123           0.2956749641           -0.5865630988          0.2956749641           -0.5865630988          0.6860443991           0.0019588667           
8.5000000000           0.2130021964           0.3674018198           0.2766038720           -0.5952022656          0.2766038720           -0.5952022656          0.6858715323           -0.0019529579          
8.7500000000           0.2296887193           0.3553044929           0.2572630386           -0.6032579393          0.2572630386           -0.6032579393          0.6855370802           -0.0059604504          
9.0000000000           0.2454501570           0.3421604523           0.2376407543           -0.6106969441          0.2376407543           -0.6106969441          0.6850641225           -0.0100972129          
9.2500000000           0.2602401901           0.3279857522           0.2177168796           -0.6174624999          0.2177168796           -0.6174624999          0.6844927498           -0.0144268731          
9.5000000000           0.2740183970           0.3127684465           0.1974577911           -0.6234526551          0.1974577911           -0.6234526551          0.6838930333           -0.0190734027          
9.7500000000           0.2867508952           0.2964333768           0.1768069015           -0.6284684037          0.1768069015           -0.6284684037          0.6833919533           -0.0242950300          
10.0000000000          0.2984045375           0.2787436106           0.1556692421           -0.6320668356          0.1556692421           -0.6320668356          0.6832323099           -0.0306966501          
10.2500000000          0.3088824365           0.2589542080           0.1339220440           -0.6330349651          0.1339220440           -0.6330349651          0.6838860289           -0.0400075343          
10.5000000000          0.3172294095           0.2340869547           0.1121642608           -0.6266531388          0.1121642608           -0.6266531388          0.6856186703           -0.0592966706          
10.7500000000          0.2984322407           0.1927668359           0.1243962512           -0.5899449514          0.1243962512           -0.5899449514          0.6439393376           -0.1306907790          
11.0000000000          0.3060899365           0.2332677519           0.1155728105           -0.6807015328          0.1155728105           -0.6807015328          0.6014065419           -0.0081949823          
11.2500000000          0.3263648528           0.2078150063           0.0699112280           -0.6776757548          0.0699112280           -0.6776757548          0.6353264698           -0.0139205926          
11.5000000000          0.3334783138           0.1853099667           0.0421626987           -0.6759711134          0.0421626987           -0.6759711134          0.6417898946           -0.0210590731          
11.7500000000          0.3371071107           0.1642617899           0.0176422509           -0.6756211876          0.0176422509           -0.6756211876          0.6424314703           -0.0259212525          
12.0000000000          0.3386300849           0.1438064139           -0.0059491297          -0.6755478487          -0.0059491297          -0.6755478487          0.6409100987           -0.0294778769          
12.2500000000          0.3384033680           0.1236755162           -0.0292513838          -0.6752926548          -0.0292513838          -0.6752926548          0.6382928170           -0.0321878941          
12.5000000000          0.3365497116           0.1038026048           -0.0525037137          -0.6746291074          -0.0525037137          -0.6746291074          0.6350043810           -0.0342625747          
12.7500000000          0.3331193770           0.0842028440           -0.0758099148          -0.6734248271          -0.0758099148          -0.6734248271          0.6312526123           -0.0358040533          
13.0000000000          0.3281369622           0.0649303705           -0.0992165945          -0.6715901652          -0.0992165945          -0.6715901652          0.6271569323           -0.0368623104          
13.2500000000          0.3216186404           0.0460606810           -0.1227415630          -0.6690566758          -0.1227415630          -0.6690566758          0.6227961851           -0.0374604345          
13.5000000000          0.3135797755           0.0276823938           -0.1463856656          -0.6657672225          -0.1463856656          -0.6657672225          0.6182292127           -0.0376069008          
13.7500000000          0.3040388783           0.0098929199           -0.1701381946          -0.6616711508          -0.1701381946          -0.6616711508          0.6135047082           -0.0373020782          
14.0000000000          0.2930199966           -0.0072041120          -0.1939795172          -0.6567218916          -0.1939795172          -0.6567218916          0.6086663334           -0.0365419666          
14.2500000000          0.2805543665           -0.0235006190          -0.2178823980          -0.6508758313          -0.2178823980          -0.6508758313          0.6037555392           -0.0353205216          
14.5000000000          0.2666816764           -0.0388854646          -0.2418126805          -0.6440919000          -0.2418126805          -0.6440919000          0.5988131781           -0.0336312177          
14.7500000000          0.2514510954           -0.0532457248          -0.2657296531          -0.6363315936          -0.2657296531          -0.6363315936          0.5938804319           -0.0314681831          
15.0000000000          0.2349221317           -0.0664679436          -0.2895862758          -0.6275592784          -0.2895862758          -0.6275592784          0.5889993212           -0.0288270815          
15.2500000000          0.2171653380           -0.0784394433          -0.3133293673          -0.6177426864          -0.3133293673          -0.6177426864          0.5842129351           -0.0257058368          
15.5000000000          0.1982628592           -0.0890497256          -0.3368998176          -0.6068535442          -0.3368998176          -0.6068535442          0.5795654627           -0.0221052506          
15.7500000000          0.1783088041           -0.0981919757          -0.3602328681          -0.5948682910          -0.3602328681          -0.5948682910          0.5751020685           -0.0180295399          
16.0000000000          0.1574094175           -0.1057646683          -0.3832584896          -0.5817688512          -0.3832584896          -0.5817688512          0.5708686413           -0.0134868034          
16.2500000000          0.1356830236           -0.1116732591          -0.4059018801          -0.5675434297          -0.4059018801          -0.5675434297          0.5669114335           -0.0084894198          
16.5000000000          0.1132597148           -0.1158319374          -0.4280840957          -0.5521872958          -0.4280840957          -0.5521872958          0.5632766063           -0.0030543714          
16.7500000000          0.0902807624           -0.1181654011          -0.4497228220          -0.5357035257          -0.4497228220          -0.5357035257          0.5600096938           0.0027965143           
17.0000000000          0.0668977317           -0.1186106123          -0.4707332873          -0.5181036695          -0.4707332873          -0.5181036695          0.5571550005           0.0090364143           
17.2500000000          0.0432712915           -0.1171184798          -0.4910293093          -0.4994083106          -0.4910293093          -0.4994083106          0.5547549471           0.0156334634           
17.5000000000          0.0195697203           -0.1136554112          -0.5105244625          -0.4796474862          -0.5105244625          -0.4796474862          0.5528493837           0.0225508177           
17.7500000000          -0.0040328784          -0.1082046777          -0.5291333450          -0.4588609396          -0.5291333450          -0.4588609396          0.5514748900           0.0297468374           
18.0000000000          -0.0273586248          -0.1007675295          -0.5467729157          -0.4370981800          -0.5467729157          -0.4370981800          0.5506640845           0.0371753910           
18.2500000000          -0.0502281361          -0.0913640093          -0.5633638691          -0.4144183306          -0.5633638691          -0.4144183306          0.5504449663           0.0447862818           
18.5000000000          -0.0724629716          -0.0800334139          -0.5788320067          -0.3908897532          -0.5788320067          -0.3908897532          0.5508403142           0.0525257908           
18.7500000000          -0.0938881858          -0.0668343675          -0.5931095642          -0.3665894459          -0.5931095642          -0.3665894459          0.5518671645           0.0603373266           
19.0000000000          -0.1143349165          -0.0518444819          -0.6061364511          -0.3416022203          -0.6061364511          -0.3416022203          0.5535363896           0.0681621681           
19.2500000000          -0.1336429303          -0.0351595952          -0.6178613580          -0.3160196726          -0.6178613580          -0.3160196726          0.5558523957           0.0759402791           
19.5000000000          -0.1516630434          -0.0168925978          -0.6282426962          -0.2899389751          -0.6282426962          -0.2899389751          0.5588129532           0.0836111736           
19.7500000000          -0.1682593420          0.0028281292           -0.6372493327          -0.2634615200          -0.6372493327          -0.2634615200          0.5624091674           0.0911148051           
20.0000000000          -0.1833111297          0.0238606198           -0.6448610975          -0.2366914556          -0.6448610975          -0.2366914556          0.5666255946           0.0983924516           
20.2500000000          -0.1967145409          0.0460515165           -0.6510690454          -0.2097341610          -0.6510690454          -0.2097341610          0.5714404991           0.1053875716           
20.5000000000          -0.2083837741          0.0692384824           -0.6558754657          -0.1826947050          -0.6558754657          -0.1826947050          0.5768262418           0.1120466018           
20.7500000000          -0.2182519137          0.0932527559           -0.6592936443          -0.1556763375          -0.6592936443          -0.1556763375          0.5827497888           0.1183196756           
21.0000000000          -0.2262713258          0.1179217663           -0.6613473914          -0.1287790586          -0.6613473914          -0.1287790586          0.5891733181           0.1241612415           
21.2500000000          -0.2324136332          0.1430717302           -0.6620703572          -0.1020983049          -0.6620703572          -0.1020983049          0.5960549060           0.1295305674           
21.5000000000          -0.2366692895          0.1685301545           -0.6615051660          -0.0757237863          -0.6615051660          -0.0757237863          0.6033492659           0.1343921200           
21.7500000000          -0.2390467854          0.1941281763           -0.6597024029          -0.0497385006          -0.6597024029          -0.0497385006          0.6110085173           0.1387158169           
22.0000000000          -0.2395715373          0.2197026834           -0.6567194931          -0.0242179421          -0.6567194931          -0.0242179421          0.6189829598           0.1424771504           
22.2500000000          -0.2382845091          0.2450981724           -0.6526195114          0.0007704877           -0.6526195114          0.0007704877           0.6272218293           0.1456571902           
22.5000000000          -0.2352406306          0.2701683118           -0.6474699625          0.0251678649           -0.6474699625          0.0251678649           0.6356740172           0.1482424748           
22.7500000000          -0.2305070735          0.2947771948           -0.6413415668          0.0489239337           -0.6413415668          0.0489239337           0.6442887350           0.1502248038           
23.0000000000          -0.2241614440          0.3188002773           -0.6343070844          0.0719971140           -0.6343070844          0.0719971140           0.6530161127           0.1516009466           
23.2500000000          -0.2162899522          0.3421250084           -0.6264402041          0.0943543444           -0.6264402041          0.0943543444           0.6618077204           0.1523722849           
23.5000000000          -0.2069856053          0.3646511724           -0.6178145191          0.1159707851           -0.6178145191          0.1159707851           0.6706170082           0.1525444043           
23.7500000000          -0.1963464706          0.3862909650           -0.6085026049          0.1368294010           -0.6085026049          0.1368294010           0.6793996629           0.1521266528           
24.0000000000          -0.1844740431          0.4069688358           -0.5985752101          0.1569204524           -0.5985752101          0.1569204524           0.6881138820           0.1511316804           
24.2500000000          -0.1714717442          0.4266211309           -0.5881005645          0.1762409170           -0.5881005645          0.1762409170           0.6967205683           0.1495749747           
24.5000000000          -0.1574435703          0.4451955694           -0.5771438059          0.1947938645           -0.5771438059          0.1947938645           0.7051834518           0.1474744031           
