# MHz S RI R 50 
! S-Parameters data 
! Freq   reS11   imS11   reS21   imS21   reS12   imS12   reS22   imS22 
1.0000000000           -0.3336260326          0.0088510789           0.6670765348           -0.0044115601          0.6670765348           -0.0044115601          0.6659349171           0.0220774450           
1.2500000000           -0.3335208571          0.0070947097           0.6669293549           -0.0035401877          0.6669293549           -0.0035401877          0.6661978556           0.0176739531           
1.5000000000           -0.3334636571          0.0059242167           0.6668492987           -0.0029579562          0.6668492987           -0.0029579562          0.6663408551           0.0147351525           
1.7500000000           -0.3334291442          0.0050891615           0.6668009910           -0.0025419633          0.6668009910           -0.0025419633          0.6664271368           0.0126349468           
2.0000000000           -0.3334067345          0.0044639935           0.6667696227           -0.0022302414          0.6667696227           -0.0022302414          0.6664831602           0.0110594596           
2.2500000000           -0.3333913662          0.0039788518           0.6667481100           -0.0019881917          0.6667481100           -0.0019881917          0.6665215802           0.0098340381           
2.5000000000           -0.3333803710          0.0035917765           0.6667327187           -0.0017949874          0.6667327187           -0.0017949874          0.6665490671           0.0088537829           
2.7500000000           -0.3333722346          0.0032760472           0.6667213290           -0.0016373459          0.6667213290           -0.0016373459          0.6665694071           0.0080518927           
3.0000000000           -0.3333660453          0.0030138409           0.6667126651           -0.0015063978          0.6667126651           -0.0015063978          0.6665848791           0.0073838104           
3.2500000000           -0.3333612281          0.0027928143           0.6667059218           -0.0013959954          0.6667059219           -0.0013959954          0.6665969209           0.0068186772           
3.5000000000           -0.3333574053          0.0026041480           0.6667005708           -0.0013017438          0.6667005708           -0.0013017438          0.6666064763           0.0063344447           
3.7500000000           -0.3333543210          0.0024413730           0.6666962536           -0.0012204176          0.6666962536           -0.0012204176          0.6666141856           0.0059149405           
4.0000000000           -0.3333517964          0.0022996367           0.6666927200           -0.0011495964          0.6666927200           -0.0011495964          0.6666204954           0.0055480331           
4.2500000000           -0.3333497039          0.0021752277           0.6666897912           -0.0010874284          0.6666897912           -0.0010874284          0.6666257250           0.0052244441           
4.5000000000           -0.3333479501          0.0020652591           0.6666873367           -0.0010324730          0.6666873367           -0.0010324730          0.6666301076           0.0049369561           
4.7500000000           -0.3333464657          0.0019674515           0.6666852593           -0.0009835924          0.6666852593           -0.0009835924          0.6666338168           0.0046798706           
5.0000000000           -0.3333451981          0.0018799812           0.6666834856           -0.0009398760          0.6666834856           -0.0009398760          0.6666369837           0.0044486283           
5.2500000000           -0.3333441071          0.0018013718           0.6666819590           -0.0009005867          0.6666819590           -0.0009005867          0.6666397092           0.0042395383           
5.5000000000           -0.3333431612          0.0017304152           0.6666806357           -0.0008651211          0.6666806357           -0.0008651211          0.6666420716           0.0040495805           
5.7500000000           -0.3333423358          0.0016661135           0.6666794811           -0.0008329809          0.6666794812           -0.0008329809          0.6666441326           0.0038762597           
6.0000000000           -0.3333416113          0.0016076350           0.6666784678           -0.0008037505          0.6666784678           -0.0008037505          0.6666459415           0.0037174968           
6.2500000000           -0.3333409717          0.0015542809           0.6666775735           -0.0007770810          0.6666775735           -0.0007770810          0.6666475378           0.0035715452           
6.5000000000           -0.3333404044          0.0015054601           0.6666767802           -0.0007526771          0.6666767803           -0.0007526771          0.6666489535           0.0034369267           
6.7500000000           -0.3333398987          0.0014606689           0.6666760734           -0.0007302870          0.6666760734           -0.0007302870          0.6666502149           0.0033123823           
7.0000000000           -0.3333394460          0.0014194757           0.6666754409           -0.0007096952          0.6666754409           -0.0007096952          0.6666513437           0.0031968329           
7.2500000000           -0.3333390392          0.0013815083           0.6666748725           -0.0006907156          0.6666748726           -0.0006907156          0.6666523577           0.0030893480           
7.5000000000           -0.3333386722          0.0013464442           0.6666743600           -0.0006731872          0.6666743600           -0.0006731872          0.6666532721           0.0029891212           
7.7500000000           -0.3333383400          0.0013140024           0.6666738962           -0.0006569694          0.6666738962           -0.0006569694          0.6666540995           0.0028954502           
8.0000000000           -0.3333380382          0.0012839370           0.6666734750           -0.0006419396          0.6666734750           -0.0006419396          0.6666548506           0.0028077205           
8.2500000000           -0.3333377633          0.0012560322           0.6666730915           -0.0006279896          0.6666730915           -0.0006279896          0.6666555344           0.0027253921           
8.5000000000           -0.3333375121          0.0012300973           0.6666727412           -0.0006150243          0.6666727413           -0.0006150243          0.6666561589           0.0026479882           
8.7500000000           -0.3333372819          0.0012059633           0.6666724205           -0.0006029593          0.6666724205           -0.0006029593          0.6666567307           0.0025750870           
9.0000000000           -0.3333370705          0.0011834804           0.6666721260           -0.0005917196          0.6666721260           -0.0005917196          0.6666572555           0.0025063132           
9.2500000000           -0.3333368758          0.0011625145           0.6666718549           -0.0005812382          0.6666718549           -0.0005812382          0.6666577384           0.0024413321           
9.5000000000           -0.3333366961          0.0011429460           0.6666716049           -0.0005714553          0.6666716049           -0.0005714553          0.6666581838           0.0023798445           
9.7500000000           -0.3333365299          0.0011246673           0.6666713738           -0.0005623173          0.6666713738           -0.0005623173          0.6666585953           0.0023215814           
10.0000000000          -0.3333363757          0.0011075818           0.6666711597           -0.0005537756          0.6666711597           -0.0005537756          0.6666589765           0.0022663012           
10.2500000000          -0.3333362326          0.0010916021           0.6666709610           -0.0005457868          0.6666709610           -0.0005457868          0.6666593301           0.0022137856           
10.5000000000          -0.3333360993          0.0010766493           0.6666707762           -0.0005383114          0.6666707762           -0.0005383114          0.6666596588           0.0021638371           
10.7500000000          -0.3333359751          0.0010626517           0.6666706041           -0.0005313134          0.6666706041           -0.0005313134          0.6666599649           0.0021162767           
11.0000000000          -0.3333358591          0.0010495441           0.6666704434           -0.0005247604          0.6666704435           -0.0005247604          0.6666602504           0.0020709414           
11.2500000000          -0.3333357505          0.0010372674           0.6666702933           -0.0005186227          0.6666702933           -0.0005186227          0.6666605171           0.0020276831           
11.5000000000          -0.3333356488          0.0010257672           0.6666701528           -0.0005128733          0.6666701528           -0.0005128733          0.6666607667           0.0019863662           
11.7500000000          -0.3333355533          0.0010149940           0.6666700211           -0.0005074873          0.6666700211           -0.0005074873          0.6666610006           0.0019468668           
12.0000000000          -0.3333354635          0.0010049023           0.6666698974           -0.0005024420          0.6666698974           -0.0005024420          0.6666612200           0.0019090713           
12.2500000000          -0.3333353790          0.0009954505           0.6666697811           -0.0004977166          0.6666697811           -0.0004977166          0.6666614262           0.0018728755           
12.5000000000          -0.3333352993          0.0009866002           0.6666696716           -0.0004932919          0.6666696716           -0.0004932919          0.6666616202           0.0018381833           
12.7500000000          -0.3333352241          0.0009783160           0.6666695684           -0.0004891503          0.6666695685           -0.0004891503          0.6666618029           0.0018049062           
13.0000000000          -0.3333351530          0.0009705651           0.6666694711           -0.0004852752          0.6666694711           -0.0004852752          0.6666619753           0.0017729628           
13.2500000000          -0.3333350857          0.0009633175           0.6666693790           -0.0004816518          0.6666693791           -0.0004816518          0.6666621380           0.0017422774           
13.5000000000          -0.3333350219          0.0009565452           0.6666692920           -0.0004782660          0.6666692920           -0.0004782660          0.6666622918           0.0017127802           
13.7500000000          -0.3333349614          0.0009502222           0.6666692096           -0.0004751048          0.6666692096           -0.0004751048          0.6666624374           0.0016844063           
14.0000000000          -0.3333349039          0.0009443245           0.6666691315           -0.0004721563          0.6666691315           -0.0004721563          0.6666625752           0.0016570957           
14.2500000000          -0.3333348492          0.0009388297           0.6666690573           -0.0004694092          0.6666690573           -0.0004694092          0.6666627059           0.0016307923           
14.5000000000          -0.3333347972          0.0009337169           0.6666689869           -0.0004668530          0.6666689869           -0.0004668530          0.6666628300           0.0016054440           
14.7500000000          -0.3333347476          0.0009289668           0.6666689199           -0.0004644782          0.6666689199           -0.0004644782          0.6666629478           0.0015810023           
15.0000000000          -0.3333347003          0.0009245612           0.6666688561           -0.0004622756          0.6666688561           -0.0004622756          0.6666630599           0.0015574219           
15.2500000000          -0.3333346551          0.0009204831           0.6666687954           -0.0004602368          0.6666687954           -0.0004602368          0.6666631665           0.0015346603           
15.5000000000          -0.3333346118          0.0009167168           0.6666687375           -0.0004583539          0.6666687375           -0.0004583539          0.6666632681           0.0015126780           
15.7500000000          -0.3333345705          0.0009132473           0.6666686822           -0.0004566193          0.6666686822           -0.0004566193          0.6666633649           0.0014914379           
16.0000000000          -0.3333345309          0.0009100607           0.6666686294           -0.0004550262          0.6666686294           -0.0004550262          0.6666634573           0.0014709052           
16.2500000000          -0.3333344929          0.0009071441           0.6666685790           -0.0004535680          0.6666685790           -0.0004535680          0.6666635454           0.0014510471           
16.5000000000          -0.3333344564          0.0009044850           0.6666685307           -0.0004522387          0.6666685307           -0.0004522387          0.6666636297           0.0014318332           
16.7500000000          -0.3333344214          0.0009020721           0.6666684845           -0.0004510324          0.6666684845           -0.0004510324          0.6666637102           0.0014132344           
17.0000000000          -0.3333343878          0.0008998944           0.6666684402           -0.0004499436          0.6666684402           -0.0004499436          0.6666637873           0.0013952238           
17.2500000000          -0.3333343554          0.0008979416           0.6666683977           -0.0004489674          0.6666683977           -0.0004489674          0.6666638610           0.0013777756           
17.5000000000          -0.3333343242          0.0008962043           0.6666683570           -0.0004480989          0.6666683570           -0.0004480989          0.6666639317           0.0013608659           
17.7500000000          -0.3333342941          0.0008946732           0.6666683178           -0.0004473335          0.6666683178           -0.0004473335          0.6666639995           0.0013444718           
18.0000000000          -0.3333342651          0.0008933398           0.6666682802           -0.0004466669          0.6666682802           -0.0004466669          0.6666640645           0.0013285719           
18.2500000000          -0.3333342371          0.0008921959           0.6666682440           -0.0004460950          0.6666682441           -0.0004460950          0.6666641269           0.0013131458           
18.5000000000          -0.3333342100          0.0008912339           0.6666682092           -0.0004456141          0.6666682093           -0.0004456141          0.6666641868           0.0012981744           
18.7500000000          -0.3333341838          0.0008904465           0.6666681757           -0.0004452205          0.6666681758           -0.0004452205          0.6666642444           0.0012836395           
19.0000000000          -0.3333341585          0.0008898267           0.6666681435           -0.0004449107          0.6666681435           -0.0004449107          0.6666642998           0.0012695238           
19.2500000000          -0.3333341339          0.0008893682           0.6666681123           -0.0004446815          0.6666681123           -0.0004446815          0.6666643531           0.0012558109           
19.5000000000          -0.3333341102          0.0008890646           0.6666680823           -0.0004445298          0.6666680823           -0.0004445298          0.6666644044           0.0012424856           
19.7500000000          -0.3333340871          0.0008889100           0.6666680533           -0.0004444526          0.6666680533           -0.0004444526          0.6666644538           0.0012295329           
20.0000000000          -0.3333340647          0.0008888990           0.6666680253           -0.0004444472          0.6666680253           -0.0004444472          0.6666645014           0.0012169389           
20.2500000000          -0.3333340429          0.0008890261           0.6666679982           -0.0004445108          0.6666679983           -0.0004445108          0.6666645473           0.0012046903           
20.5000000000          -0.3333340218          0.0008892864           0.6666679721           -0.0004446410          0.6666679721           -0.0004446410          0.6666645916           0.0011927746           
20.7500000000          -0.3333340012          0.0008896749           0.6666679467           -0.0004448354          0.6666679468           -0.0004448354          0.6666646343           0.0011811796           
21.0000000000          -0.3333339812          0.0008901872           0.6666679222           -0.0004450916          0.6666679223           -0.0004450916          0.6666646756           0.0011698939           
21.2500000000          -0.3333339617          0.0008908188           0.6666678985           -0.0004454075          0.6666678985           -0.0004454075          0.6666647155           0.0011589067           
21.5000000000          -0.3333339427          0.0008915657           0.6666678755           -0.0004457809          0.6666678755           -0.0004457809          0.6666647540           0.0011482074           
21.7500000000          -0.3333339242          0.0008924237           0.6666678532           -0.0004462100          0.6666678532           -0.0004462100          0.6666647912           0.0011377861           
22.0000000000          -0.3333339061          0.0008933892           0.6666678315           -0.0004466928          0.6666678315           -0.0004466928          0.6666648273           0.0011276335           
22.2500000000          -0.3333338884          0.0008944585           0.6666678105           -0.0004472275          0.6666678105           -0.0004472275          0.6666648621           0.0011177403           
22.5000000000          -0.3333338711          0.0008956282           0.6666677901           -0.0004478124          0.6666677901           -0.0004478124          0.6666648959           0.0011080981           
22.7500000000          -0.3333338542          0.0008968948           0.6666677702           -0.0004484458          0.6666677702           -0.0004484458          0.6666649286           0.0010986984           
23.0000000000          -0.3333338377          0.0008982554           0.6666677509           -0.0004491261          0.6666677510           -0.0004491261          0.6666649603           0.0010895335           
23.2500000000          -0.3333338215          0.0008997068           0.6666677322           -0.0004498519          0.6666677322           -0.0004498519          0.6666649910           0.0010805956           
23.5000000000          -0.3333338056          0.0009012462           0.6666677139           -0.0004506216          0.6666677139           -0.0004506216          0.6666650208           0.0010718777           
23.7500000000          -0.3333337901          0.0009028707           0.6666676961           -0.0004514339          0.6666676962           -0.0004514339          0.6666650497           0.0010633726           
24.0000000000          -0.3333337749          0.0009045777           0.6666676788           -0.0004522874          0.6666676789           -0.0004522874          0.6666650778           0.0010550739           
24.2500000000          -0.3333337599          0.0009063647           0.6666676620           -0.0004531810          0.6666676620           -0.0004531810          0.6666651050           0.0010469750           
24.5000000000          -0.3333337452          0.0009082293           0.6666676455           -0.0004541133          0.6666676455           -0.0004541133          0.6666651314           0.0010390699           
