# MHz S RI R 50 
! S-Parameters data 
! Freq   reS11   imS11   reS21   imS21   reS12   imS12   reS22   imS22 
1.0000000000           -0.3336260326          0.0088510789           -0.6656716201          -0.0220467178          -0.6656716202          -0.0220467178          0.6631277490           0.0749941155           
1.2500000000           -0.3335208571          0.0070947097           -0.6660291508          -0.0176458479          -0.6660291508          -0.0176458479          0.6644001106           0.0600461161           
1.5000000000           -0.3334636571          0.0059242167           -0.6662236064          -0.0147058724          -0.6662236064          -0.0147058724          0.6650921347           0.0500628862           
1.7500000000           -0.3334291442          0.0050891615           -0.6663409391          -0.0126030120          -0.6663409392          -0.0126030120          0.6655096980           0.0429249630           
2.0000000000           -0.3334067345          0.0044639935           -0.6664171257          -0.0110241975          -0.6664171257          -0.0110241975          0.6657808315           0.0375683948           
2.2500000000           -0.3333913662          0.0039788518           -0.6664693740          -0.0097951080          -0.6664693740          -0.0097951080          0.6659667737           0.0334006884           
2.5000000000           -0.3333803710          0.0035917765           -0.6665067543          -0.0088109971          -0.6665067543          -0.0088109972          0.6660998041           0.0300657979           
2.7500000000           -0.3333722346          0.0032760472           -0.6665344155          -0.0080051410          -0.6665344155          -0.0080051410          0.6661982461           0.0273369082           
3.0000000000           -0.3333660453          0.0030138409           -0.6665554563          -0.0073330246          -0.6665554563          -0.0073330246          0.6662731276           0.0250626933           
3.2500000000           -0.3333612281          0.0027928143           -0.6665718323          -0.0067638134          -0.6665718323          -0.0067638134          0.6663314080           0.0231383300           
3.5000000000           -0.3333574053          0.0026041480           -0.6665848269          -0.0062754735          -0.6665848269          -0.0062754735          0.6663776548           0.0214889121           
3.7500000000           -0.3333543210          0.0024413730           -0.6665953108          -0.0058518417          -0.6665953108          -0.0058518417          0.6664149664           0.0200594896           
4.0000000000           -0.3333517964          0.0022996367           -0.6666038913          -0.0054807924          -0.6666038914          -0.0054807924          0.6664455045           0.0188088391           
4.2500000000           -0.3333497039          0.0021752277           -0.6666110029          -0.0051530510          -0.6666110029          -0.0051530510          0.6664708147           0.0177054298           
4.5000000000           -0.3333479501          0.0020652591           -0.6666169625          -0.0048614030          -0.6666169625          -0.0048614030          0.6664920256           0.0167247335           
4.7500000000           -0.3333464657          0.0019674515           -0.6666220062          -0.0046001517          -0.6666220062          -0.0046001517          0.6665099769           0.0158473828           
5.0000000000           -0.3333451981          0.0018799812           -0.6666263124          -0.0043647394          -0.6666263124          -0.0043647394          0.6665253038           0.0150578818           
5.2500000000           -0.3333441071          0.0018013718           -0.6666300181          -0.0041514759          -0.6666300182          -0.0041514759          0.6665384939           0.0143436851           
5.5000000000           -0.3333431612          0.0017304152           -0.6666332301          -0.0039573419          -0.6666332301          -0.0039573419          0.6665499269           0.0136945271           
5.7500000000           -0.3333423358          0.0016661135           -0.6666360323          -0.0037798429          -0.6666360323          -0.0037798429          0.6665599014           0.0131019271           
6.0000000000           -0.3333416113          0.0016076350           -0.6666384915          -0.0036169001          -0.6666384915          -0.0036169001          0.6665686554           0.0125588170           
6.2500000000           -0.3333409717          0.0015542809           -0.6666406614          -0.0034667672          -0.6666406614          -0.0034667672          0.6665763803           0.0120592597           
6.5000000000           -0.3333404044          0.0015054601           -0.6666425858          -0.0033279663          -0.6666425858          -0.0033279663          0.6665832312           0.0115982308           
6.7500000000           -0.3333398987          0.0014606689           -0.6666443002          -0.0031992387          -0.6666443003          -0.0031992387          0.6665893351           0.0111714505           
7.0000000000           -0.3333394460          0.0014194757           -0.6666458342          -0.0030795052          -0.6666458342          -0.0030795052          0.6665947969           0.0107752498           
7.2500000000           -0.3333390392          0.0013815083           -0.6666472122          -0.0029678356          -0.6666472122          -0.0029678356          0.6665997036           0.0104064659           
7.5000000000           -0.3333386722          0.0013464442           -0.6666484546          -0.0028634236          -0.6666484546          -0.0028634236          0.6666041278           0.0100623577           
7.7500000000           -0.3333383400          0.0013140024           -0.6666495786          -0.0027655670          -0.6666495786          -0.0027655670          0.6666081310           0.0097405375           
8.0000000000           -0.3333380382          0.0012839370           -0.6666505989          -0.0026736512          -0.6666505989          -0.0026736512          0.6666117648           0.0094389162           
8.2500000000           -0.3333377633          0.0012560322           -0.6666515277          -0.0025871364          -0.6666515277          -0.0025871364          0.6666150733           0.0091556576           
8.5000000000           -0.3333375121          0.0012300973           -0.6666523756          -0.0025055459          -0.6666523757          -0.0025055459          0.6666180943           0.0088891419           
8.7500000000           -0.3333372819          0.0012059633           -0.6666531519          -0.0024284578          -0.6666531519          -0.0024284578          0.6666208601           0.0086379341           
9.0000000000           -0.3333370705          0.0011834804           -0.6666538643          -0.0023554969          -0.6666538643          -0.0023554969          0.6666233988           0.0084007586           
9.2500000000           -0.3333368758          0.0011625145           -0.6666545196          -0.0022863286          -0.6666545196          -0.0022863286          0.6666257344           0.0081764778           
9.5000000000           -0.3333366961          0.0011429460           -0.6666551238          -0.0022206535          -0.6666551238          -0.0022206535          0.6666278881           0.0079640739           
9.7500000000           -0.3333365299          0.0011246673           -0.6666556820          -0.0021582030          -0.6666556820          -0.0021582030          0.6666298783           0.0077626333           
10.0000000000          -0.3333363757          0.0011075818           -0.6666561988          -0.0020987351          -0.6666561988          -0.0020987351          0.6666317212           0.0075713338           
10.2500000000          -0.3333362326          0.0010916021           -0.6666566781          -0.0020420317          -0.6666566781          -0.0020420317          0.6666334309           0.0073894335           
10.5000000000          -0.3333360993          0.0010766493           -0.6666571235          -0.0019878954          -0.6666571235          -0.0019878954          0.6666350201           0.0072162610           
10.7500000000          -0.3333359751          0.0010626517           -0.6666575381          -0.0019361470          -0.6666575382          -0.0019361470          0.6666364997           0.0070512076           
11.0000000000          -0.3333358591          0.0010495441           -0.6666579247          -0.0018866237          -0.6666579247          -0.0018866237          0.6666378796           0.0068937196           
11.2500000000          -0.3333357505          0.0010372674           -0.6666582857          -0.0018391773          -0.6666582857          -0.0018391773          0.6666391686           0.0067432928           
11.5000000000          -0.3333356488          0.0010257672           -0.6666586234          -0.0017936722          -0.6666586234          -0.0017936722          0.6666403745           0.0065994666           
11.7500000000          -0.3333355533          0.0010149940           -0.6666589396          -0.0017499846          -0.6666589396          -0.0017499846          0.6666415043           0.0064618198           
12.0000000000          -0.3333354635          0.0010049023           -0.6666592362          -0.0017080009          -0.6666592362          -0.0017080009          0.6666425642           0.0063299662           
12.2500000000          -0.3333353790          0.0009954505           -0.6666595147          -0.0016676167          -0.6666595147          -0.0016676167          0.6666435600           0.0062035511           
12.5000000000          -0.3333352993          0.0009866002           -0.6666597765          -0.0016287362          -0.6666597766          -0.0016287362          0.6666444967           0.0060822482           
12.7500000000          -0.3333352241          0.0009783160           -0.6666600231          -0.0015912708          -0.6666600231          -0.0015912708          0.6666453789           0.0059657569           
13.0000000000          -0.3333351530          0.0009705651           -0.6666602554          -0.0015551390          -0.6666602555          -0.0015551390          0.6666462107           0.0058537995           
13.2500000000          -0.3333350857          0.0009633175           -0.6666604747          -0.0015202651          -0.6666604747          -0.0015202651          0.6666469959           0.0057461194           
13.5000000000          -0.3333350219          0.0009565452           -0.6666606818          -0.0014865795          -0.6666606818          -0.0014865795          0.6666477379           0.0056424791           
13.7500000000          -0.3333349614          0.0009502222           -0.6666608776          -0.0014540172          -0.6666608776          -0.0014540172          0.6666484399           0.0055426581           
14.0000000000          -0.3333349039          0.0009443245           -0.6666610629          -0.0014225180          -0.6666610629          -0.0014225180          0.6666491047           0.0054464519           
14.2500000000          -0.3333348492          0.0009388297           -0.6666612384          -0.0013920261          -0.6666612384          -0.0013920261          0.6666497348           0.0053536702           
14.5000000000          -0.3333347972          0.0009337169           -0.6666614049          -0.0013624893          -0.6666614049          -0.0013624893          0.6666503327           0.0052641360           
14.7500000000          -0.3333347476          0.0009289668           -0.6666615629          -0.0013338590          -0.6666615629          -0.0013338590          0.6666509005           0.0051776840           
15.0000000000          -0.3333347003          0.0009245612           -0.6666617129          -0.0013060900          -0.6666617129          -0.0013060900          0.6666514401           0.0050941602           
15.2500000000          -0.3333346551          0.0009204831           -0.6666618556          -0.0012791399          -0.6666618556          -0.0012791399          0.6666519535           0.0050134206           
15.5000000000          -0.3333346118          0.0009167168           -0.6666619913          -0.0012529690          -0.6666619913          -0.0012529690          0.6666524423           0.0049353305           
15.7500000000          -0.3333345705          0.0009132473           -0.6666621205          -0.0012275403          -0.6666621205          -0.0012275403          0.6666529080           0.0048597637           
16.0000000000          -0.3333345309          0.0009100607           -0.6666622436          -0.0012028189          -0.6666622436          -0.0012028189          0.6666533522           0.0047866019           
16.2500000000          -0.3333344929          0.0009071441           -0.6666623609          -0.0011787723          -0.6666623610          -0.0011787723          0.6666537760           0.0047157341           
16.5000000000          -0.3333344564          0.0009044850           -0.6666624729          -0.0011553697          -0.6666624730          -0.0011553697          0.6666541808           0.0046470562           
16.7500000000          -0.3333344214          0.0009020721           -0.6666625799          -0.0011325823          -0.6666625799          -0.0011325823          0.6666545676           0.0045804699           
17.0000000000          -0.3333343878          0.0008998944           -0.6666626820          -0.0011103830          -0.6666626820          -0.0011103830          0.6666549375           0.0045158831           
17.2500000000          -0.3333343554          0.0008979416           -0.6666627796          -0.0010887462          -0.6666627797          -0.0010887462          0.6666552916           0.0044532087           
17.5000000000          -0.3333343242          0.0008962043           -0.6666628730          -0.0010676478          -0.6666628731          -0.0010676478          0.6666556305           0.0043923650           
17.7500000000          -0.3333342941          0.0008946732           -0.6666629624          -0.0010470650          -0.6666629625          -0.0010470650          0.6666559554           0.0043332744           
18.0000000000          -0.3333342651          0.0008933398           -0.6666630480          -0.0010269764          -0.6666630481          -0.0010269764          0.6666562668           0.0042758640           
18.2500000000          -0.3333342371          0.0008921959           -0.6666631300          -0.0010073616          -0.6666631301          -0.0010073616          0.6666565655           0.0042200647           
18.5000000000          -0.3333342100          0.0008912339           -0.6666632087          -0.0009882015          -0.6666632087          -0.0009882015          0.6666568523           0.0041658111           
18.7500000000          -0.3333341838          0.0008904465           -0.6666632841          -0.0009694779          -0.6666632841          -0.0009694779          0.6666571277           0.0041130416           
19.0000000000          -0.3333341585          0.0008898267           -0.6666633564          -0.0009511735          -0.6666633564          -0.0009511735          0.6666573924           0.0040616974           
19.2500000000          -0.3333341339          0.0008893682           -0.6666634259          -0.0009332720          -0.6666634259          -0.0009332720          0.6666576469           0.0040117231           
19.5000000000          -0.3333341102          0.0008890646           -0.6666634926          -0.0009157579          -0.6666634926          -0.0009157579          0.6666578917           0.0039630660           
19.7500000000          -0.3333340871          0.0008889100           -0.6666635567          -0.0008986165          -0.6666635567          -0.0008986165          0.6666581273           0.0039156760           
20.0000000000          -0.3333340647          0.0008888990           -0.6666636183          -0.0008818338          -0.6666636184          -0.0008818338          0.6666583541           0.0038695057           
20.2500000000          -0.3333340429          0.0008890261           -0.6666636776          -0.0008653965          -0.6666636776          -0.0008653965          0.6666585727           0.0038245098           
20.5000000000          -0.3333340218          0.0008892864           -0.6666637346          -0.0008492920          -0.6666637346          -0.0008492920          0.6666587834           0.0037806454           
20.7500000000          -0.3333340012          0.0008896749           -0.6666637895          -0.0008335083          -0.6666637895          -0.0008335083          0.6666589865           0.0037378716           
21.0000000000          -0.3333339812          0.0008901872           -0.6666638423          -0.0008180339          -0.6666638424          -0.0008180339          0.6666591825           0.0036961495           
21.2500000000          -0.3333339617          0.0008908188           -0.6666638932          -0.0008028579          -0.6666638933          -0.0008028579          0.6666593716           0.0036554419           
21.5000000000          -0.3333339427          0.0008915657           -0.6666639423          -0.0007879699          -0.6666639423          -0.0007879699          0.6666595543           0.0036157134           
21.7500000000          -0.3333339242          0.0008924237           -0.6666639895          -0.0007733599          -0.6666639896          -0.0007733599          0.6666597307           0.0035769304           
22.0000000000          -0.3333339061          0.0008933892           -0.6666640351          -0.0007590186          -0.6666640351          -0.0007590186          0.6666599011           0.0035390604           
22.2500000000          -0.3333338884          0.0008944585           -0.6666640791          -0.0007449367          -0.6666640791          -0.0007449367          0.6666600660           0.0035020729           
22.5000000000          -0.3333338711          0.0008956282           -0.6666641215          -0.0007311057          -0.6666641215          -0.0007311057          0.6666602254           0.0034659383           
22.7500000000          -0.3333338542          0.0008968948           -0.6666641624          -0.0007175173          -0.6666641624          -0.0007175173          0.6666603796           0.0034306286           
23.0000000000          -0.3333338377          0.0008982554           -0.6666642019          -0.0007041636          -0.6666642019          -0.0007041636          0.6666605288           0.0033961168           
23.2500000000          -0.3333338215          0.0008997068           -0.6666642400          -0.0006910370          -0.6666642400          -0.0006910370          0.6666606734           0.0033623772           
23.5000000000          -0.3333338056          0.0009012462           -0.6666642769          -0.0006781303          -0.6666642769          -0.0006781303          0.6666608133           0.0033293852           
23.7500000000          -0.3333337901          0.0009028707           -0.6666643124          -0.0006654365          -0.6666643125          -0.0006654365          0.6666609490           0.0032971171           
24.0000000000          -0.3333337749          0.0009045777           -0.6666643468          -0.0006529490          -0.6666643469          -0.0006529490          0.6666610804           0.0032655504           
24.2500000000          -0.3333337599          0.0009063647           -0.6666643801          -0.0006406613          -0.6666643801          -0.0006406613          0.6666612079           0.0032346633           
24.5000000000          -0.3333337452          0.0009082293           -0.6666644122          -0.0006285675          -0.6666644122          -0.0006285675          0.6666613315           0.0032044350           
