# MHz S RI R 50 
! S-Parameters data 
! Freq   reS11   imS11   reS21   imS21   reS12   imS12   reS22   imS22 
1.0000000000           -0.3631929017          0.1739701639           -0.5679975750          -0.0734049207          -0.5679975750          -0.0734049207          0.4686352435           0.5903836582           
1.2500000000           -0.3498414666          0.1877847615           -0.5851790684          -0.0260150315          -0.5851790684          -0.0260150315          0.5501137762           0.4998381539           
1.5000000000           -0.3373569393          0.2042803896           -0.5930171477          0.0151089402           -0.5930171477          0.0151089402           0.5988724861           0.4299775960           
1.7500000000           -0.3246477369          0.2221881365           -0.5955091098          0.0515630971           -0.5955091098          0.0515630971           0.6302032356           0.3756352559           
2.0000000000           -0.3112270592          0.2407115359           -0.5946145052          0.0845596434           -0.5946145052          0.0845596434           0.6515672343           0.3325464617           
2.2500000000           -0.2968797065          0.2593229240           -0.5913733928          0.1149319576           -0.5913733928          0.1149319576           0.6668783245           0.2976626334           
2.5000000000           -0.2815241448          0.2776538073           -0.5863800837          0.1432451405           -0.5863800837          0.1432451405           0.6783244968           0.2688556718           
2.7500000000           -0.2651503101          0.2954348487           -0.5799979636          0.1698860955           -0.5799979636          0.1698860955           0.6871960720           0.2446290169           
3.0000000000           -0.2477892009          0.3124619155           -0.5724636347          0.1951242185           -0.5724636347          0.1951242185           0.6942883418           0.2239124691           
3.2500000000           -0.2294968446          0.3285761383           -0.5639404856          0.2191506813           -0.5639404856          0.2191506813           0.7001095158           0.2059260684           
3.5000000000           -0.2103452105          0.3436517389           -0.5545476856          0.2421038466           -0.5545476856          0.2421038466           0.7049939627           0.1900907247           
3.7500000000           -0.1904166911          0.3575883084           -0.5443765657          0.2640859157           -0.5443765657          0.2640859157           0.7091667919           0.1759690344           
4.0000000000           -0.1698005207          0.3703057103           -0.5335002123          0.2851740147           -0.5335002123          0.2851740147           0.7127822016           0.1632254720           
4.2500000000           -0.1485903077          0.3817405729           -0.5219792532          0.3054276987           -0.5219792532          0.3054276987           0.7159470714           0.1515991295           
4.5000000000           -0.1268822417          0.3918437686           -0.5098654343          0.3248941076           -0.5098654343          0.3248941076           0.7187359371           0.1408847041           
4.7500000000           -0.1047737370          0.4005785188           -0.4972038716          0.3436115539           -0.4972038716          0.3436115539           0.7212007634           0.1309190007           
5.0000000000           -0.0823623747          0.4079189043           -0.4840344941          0.3616120435           -0.4840344941          0.3616120435           0.7233774795           0.1215711818           
5.2500000000           -0.0597450629          0.4138486446           -0.4703929789          0.3789230577           -0.4703929789          0.3789230577           0.7252904463           0.1127356096           
5.5000000000           -0.0370173636          0.4183600614           -0.4563113657          0.3955688199           -0.4563113657          0.3955688199           0.7269555665           0.1043265062           
5.7500000000           -0.0142729546          0.4214531716           -0.4418184664          0.4115711954           -0.4418184664          0.4115711954           0.7283824836           0.0962739079           
6.0000000000           0.0083967964           0.4231348756           -0.4269401417          0.4269503325           -0.4269401417          0.4269503325           0.7295761548           0.0885205510           
6.2500000000           0.0309031635           0.4234182167           -0.4116994947          0.4417251215           -0.4116994947          0.4417251215           0.7305379814           0.0810194324           
6.5000000000           0.0531603134           0.4223216980           -0.3961170088          0.4559135282           -0.3961170088          0.4559135282           0.7312666159           0.0737318619           
6.7500000000           0.0750854874           0.4198686424           -0.3802106510          0.4695328502           -0.3802106510          0.4695328502           0.7317585242           0.0666258670           
7.0000000000           0.0965991268           0.4160865830           -0.3639959502          0.4825999351           -0.3639959502          0.4825999351           0.7320083475           0.0596748413           
7.2500000000           0.1176249541           0.4110066716           -0.3474860553          0.4951314016           -0.3474860553          0.4951314016           0.7320090849           0.0528563443           
7.5000000000           0.1380900209           0.4046630805           -0.3306917699          0.5071439115           -0.3306917699          0.5071439115           0.7317520918           0.0461509608           
7.7500000000           0.1579247394           0.3970923660           -0.3136215555          0.5186545557           -0.3136215555          0.5186545557           0.7312268577           0.0395411175           
8.0000000000           0.1770629133           0.3883327350           -0.2962814773          0.5296814530           -0.2962814773          0.5296814530           0.7304204782           0.0330097179           
8.2500000000           0.1954417944           0.3784231123           -0.2786750477          0.5402447256           -0.2786750477          0.5402447256           0.7293166512           0.0265383793           
8.5000000000           0.2130021964           0.3674018198           -0.2608028707          0.5503681489           -0.2608028707          0.5503681489           0.7278938573           0.0201049062           
8.7500000000           0.2296887193           0.3553044929           -0.2426618863          0.5600820452           -0.2426618863          0.5600820452           0.7261220339           0.0136793114           
9.0000000000           0.2454501570           0.3421604523           -0.2242437547          0.5694286019           -0.2242437547          0.5694286019           0.7239562457           0.0072170110           
9.2500000000           0.2602401901           0.3279857522           -0.2055312442          0.5784722423           -0.2055312442          0.5784722423           0.7213238347           0.0006462115           
9.5000000000           0.2740183970           0.3127684465           -0.1864894753          0.5873214932           -0.1864894753          0.5873214932           0.7180959091           -0.0061575501          
9.7500000000           0.2867508952           0.2964333768           -0.1670419387          0.5961801494           -0.1670419387          0.5961801494           0.7140159057           -0.0134281522          
10.0000000000          0.2984045375           0.2787436106           -0.1469918447          0.6054851660           -0.1469918447          0.6054851660           0.7084872852           -0.0216514686          
10.2500000000          0.3088824365           0.2589542080           -0.1256816329          0.6163595402           -0.1256816329          0.6163595402           0.6997584482           -0.0319745010          
10.5000000000          0.3172294095           0.2340869547           -0.0996134089          0.6325302250           -0.0996134089          0.6325302250           0.6801205683           -0.0472667068          
10.7500000000          0.2984322407           0.1927668359           -0.0246031583          0.6526092986           -0.0246031583          0.6526092986           0.5868878643           -0.0339132891          
11.0000000000          0.3060899365           0.2332677519           -0.0482216884          0.5734384196           -0.0482216884          0.5734384196           0.7065557414           0.0511492645           
11.2500000000          0.3263648528           0.2078150063           -0.0447732734          0.5982044445           -0.0447732734          0.5982044445           0.7125684948           0.0050297695           
11.5000000000          0.3334783138           0.1853099667           -0.0264009292          0.6092775249           -0.0264009292          0.6092775249           0.7065970080           -0.0114442613          
11.7500000000          0.3371071107           0.1642617899           -0.0059677189          0.6158482862           -0.0059677189          0.6158482862           0.7005951959           -0.0207350857          
12.0000000000          0.3386300849           0.1438064139           0.0151793313           0.6202659842           0.0151793313           0.6202659842           0.6948134949           -0.0272061902          
12.2500000000          0.3384033680           0.1236755162           0.0367467084           0.6232893732           0.0367467084           0.6232893732           0.6891195009           -0.0321765670          
12.5000000000          0.3365497116           0.1038026048           0.0586390436           0.6252191662           0.0586390436           0.6252191662           0.6834200012           -0.0361646563          
12.7500000000          0.3331193770           0.0842028440           0.0808136075           0.6261862120           0.0808136075           0.6261862120           0.6776641366           -0.0394074863          
13.0000000000          0.3281369622           0.0649303705           0.1032437752           0.6262462919           0.1032437752           0.6262462919           0.6718279164           -0.0420230877          
13.2500000000          0.3216186404           0.0460606810           0.1259072211           0.6254175203           0.1259072211           0.6254175203           0.6659041913           -0.0440724359          
13.5000000000          0.3135797755           0.0276823938           0.1487812869           0.6236972491           0.1487812869           0.6236972491           0.6598969866           -0.0455866682          
13.7500000000          0.3040388783           0.0098929199           0.1718408248           0.6210706077           0.1718408248           0.6210706077           0.6538182961           -0.0465804198          
14.0000000000          0.2930199966           -0.0072041120          0.1950570218           0.6175152780           0.1950570218           0.6175152780           0.6476862085           -0.0470589773          
14.2500000000          0.2805543665           -0.0235006190          0.2183966663           0.6130044471           0.2183966663           0.6130044471           0.6415237619           -0.0470224394          
14.5000000000          0.2666816764           -0.0388854646          0.2418216499           0.6075088335           0.2418216499           0.6075088335           0.6353581985           -0.0464683267          
14.7500000000          0.2514510954           -0.0532457248          0.2652886200           0.6009982284           0.2652886200           0.6009982284           0.6292204348           -0.0453933473          
15.0000000000          0.2349221317           -0.0664679436          0.2887487530           0.5934427800           0.2887487530           0.5934427800           0.6231446411           -0.0437946762          
15.2500000000          0.2171653380           -0.0784394433          0.3121476406           0.5848141418           0.3121476406           0.5848141418           0.6171678642           -0.0416709437          
15.5000000000          0.1982628592           -0.0890497256          0.3354252930           0.5750865501           0.3354252930           0.5750865501           0.6113296521           -0.0390230371          
15.7500000000          0.1783088041           -0.0981919757          0.3585162680           0.5642378596           0.3585162680           0.5642378596           0.6056716537           -0.0358547736          
16.0000000000          0.1574094175           -0.1057646683          0.3813499351           0.5522505490           0.3813499351           0.5522505490           0.6002371771           -0.0321734727          
16.2500000000          0.1356830236           -0.1116732591          0.4038508848           0.5391126905           0.4038508848           0.5391126905           0.5950706949           -0.0279904420          
16.5000000000          0.1132597148           -0.1158319374          0.4259394885           0.5248188730           0.4259394885           0.5248188730           0.5902172935           -0.0233213777          
16.7500000000          0.0902807624           -0.1181654011          0.4475326136           0.5093710571           0.4475326136           0.5093710571           0.5857220657           -0.0181866763          
17.0000000000          0.0668977317           -0.1186106123          0.4685444893           0.4927793379           0.4685444893           0.4927793379           0.5816294525           -0.0126116502          
17.2500000000          0.0432712915           -0.1171184798          0.4888877176           0.4750625898           0.4888877176           0.4750625898           0.5779825425           -0.0066266378          
17.5000000000          0.0195697203           -0.1136554112          0.5084744123           0.4562489639           0.5084744123           0.4562489639           0.5748223428           -0.0002670009          
17.7500000000          -0.0040328784          -0.1082046777          0.5272174468           0.4363762118           0.5272174468           0.4363762118           0.5721870383           0.0064269993           
18.0000000000          -0.0273586248          -0.1007675295          0.5450317802           0.4154918135           0.5450317802           0.4154918135           0.5701112586           0.0134104515           
18.2500000000          -0.0502281361          -0.0913640093          0.5618358302           0.3936528890           0.5618358302           0.3936528890           0.5686253750           0.0206341682           
18.5000000000          -0.0724629716          -0.0800334139          0.5775528506           0.3709258828           0.5775528506           0.3709258828           0.5677548503           0.0280451827           
18.7500000000          -0.0938881858          -0.0668343675          0.5921122734           0.3473860174           0.5921122734           0.3473860174           0.5675196636           0.0355873578           
19.0000000000          -0.1143349165          -0.0518444819          0.6054509702           0.3231165205           0.6054509702           0.3231165205           0.5679338333           0.0432020949           
19.2500000000          -0.1336429303          -0.0351595952          0.6175143903           0.2982076409           0.6175143903           0.2982076409           0.5690050545           0.0508291239           
19.5000000000          -0.1516630434          -0.0168925978          0.6282575350           0.2727554777           0.6282575350           0.2727554777           0.5707344681           0.0584073520           
19.7500000000          -0.1682593420          0.0028281292           0.6376457347           0.2468606537           0.6376457347           0.2468606537           0.5731165696           0.0658757459           
20.0000000000          -0.1833111297          0.0238606198           0.6456552006           0.2206268739           0.6456552006           0.2206268739           0.5761392641           0.0731742205           
20.2500000000          -0.1967145409          0.0460515165           0.6522733339           0.1941594130           0.6522733339           0.1941594130           0.5797840642           0.0802445064           
20.5000000000          -0.2083837741          0.0692384824           0.6574987837           0.1675635790           0.6574987837           0.1675635790           0.5840264250           0.0870309696           
20.7500000000          -0.2182519137          0.0932527559           0.6613412560           0.1409432014           0.6613412560           0.1409432014           0.5888362021           0.0934813585           
21.0000000000          -0.2262713258          0.1179217663           0.6638210867           0.1143991876           0.6638210867           0.1143991876           0.5941782175           0.0995474587           
21.2500000000          -0.2324136332          0.1430717302           0.6649685983           0.0880281905           0.6649685983           0.0880281905           0.6000129091           0.1051856381           
21.5000000000          -0.2366692895          0.1685301545           0.6648232709           0.0619214213           0.6648232709           0.0619214213           0.6062970441           0.1103572722           
21.7500000000          -0.2390467854          0.1941281763           0.6634327602           0.0361636331           0.6634327602           0.0361636331           0.6129844689           0.1150290430           
22.0000000000          -0.2395715373          0.2197026834           0.6608518017           0.0108322963           0.6608518017           0.0108322963           0.6200268730           0.1191731112           
22.2500000000          -0.2382845091          0.2450981724           0.6571410390           -0.0140030262          0.6571410390           -0.0140030262          0.6273745430           0.1227671666           
22.5000000000          -0.2352406306          0.2701683118           0.6523658162           -0.0382811017          0.6523658162           -0.0382811017          0.6349770873           0.1257943642           
22.7500000000          -0.2305070735          0.2947771948           0.6465949700           -0.0619492547          0.6465949700           -0.0619492547          0.6427841124           0.1282431593           
23.0000000000          -0.2241614440          0.3188002773           0.6398996536           -0.0849634100          0.6398996536           -0.0849634100          0.6507458387           0.1301070543           
23.2500000000          -0.2162899522          0.3421250084           0.6323522209           -0.1072879703          0.6323522209           -0.1072879703          0.6588136442           0.1313842745           
23.5000000000          -0.2069856053          0.3646511724           0.6240251922           -0.1288955491          0.6240251922           -0.1288955491          0.6669405299           0.1320773891           
23.7500000000          -0.1963464706          0.3862909650           0.6149903192           -0.1497665823          0.6149903192           -0.1497665823          0.6750815045           0.1321928922           
24.0000000000          -0.1844740431          0.4069688358           0.6053177591           -0.1698888425          0.6053177591           -0.1698888425          0.6831938883           0.1317407621           
24.2500000000          -0.1714717442          0.4266211309           0.5950753638           -0.1892568810          0.5950753638           -0.1892568810          0.6912375379           0.1307340091           
24.5000000000          -0.1574435703          0.4451955694           0.5843280864           -0.2078714183          0.5843280864           -0.2078714183          0.6991749983           0.1291882278           
