# MHz S RI R 50 
! S-Parameters data 
! Freq   reS11   imS11   reS21   imS21   reS12   imS12   reS22   imS22 
1.0000000000           -0.3581245480          0.0990152058           -0.5811168191          -0.1698890129          -0.5811168191          -0.1698890129          0.3821290372           0.6213645596           
1.2500000000           -0.3503837368          0.0918945845           -0.6063835905          -0.1404776993          -0.6063835905          -0.1404776993          0.4734063007           0.5341258132           
1.5000000000           -0.3456090598          0.0881261194           -0.6215878680          -0.1168097537          -0.6215878680          -0.1168097537          0.5286447031           0.4650401603           
1.7500000000           -0.3424160748          0.0866115850           -0.6312837401          -0.0976440185          -0.6312837401          -0.0976440185          0.5641701404           0.4107446247           
2.0000000000           -0.3401188906          0.0866537067           -0.6377634380          -0.0818312066          -0.6377634380          -0.0818312066          0.5882163989           0.3676422725           
2.2500000000           -0.3383533952          0.0878029713           -0.6422542458          -0.0685109967          -0.6422542458          -0.0685109967          0.6051964989           0.3329306041           
2.5000000000           -0.3369139981          0.0897616916           -0.6454528114          -0.0570676311          -0.6454528114          -0.0570676311          0.6176169139           0.3045668669           
2.7500000000           -0.3356783041          0.0923268935           -0.6477754161          -0.0470614476          -0.6477754161          -0.0470614476          0.6269759122           0.2810774184           
3.0000000000           -0.3345700920          0.0953562614           -0.6494820645          -0.0381749339          -0.6494820645          -0.0381749339          0.6342094694           0.2613909974           
3.2500000000           -0.3335400427          0.0987474216           -0.6507414490          -0.0301751418          -0.6507414490          -0.0301751418          0.6399248845           0.2447180108           
3.5000000000           -0.3325551835          0.1024250132           -0.6516666711          -0.0228882845          -0.6516666711          -0.0228882845          0.6445292959           0.2304673320           
3.7500000000           -0.3315928430          0.1063323994           -0.6523357548          -0.0161825889          -0.6523357548          -0.0161825889          0.6483035091           0.2181894717           
4.0000000000           -0.3306370522          0.1104262178           -0.6528038854          -0.0099566057          -0.6528038854          -0.0099566057          0.6514460571           0.2075375346           
4.2500000000           -0.3296763266          0.1146727089           -0.6531109636          -0.0041311263          -0.6531109636          -0.0041311263          0.6541003984           0.1982400773           
4.5000000000           -0.3287022578          0.1190451897           -0.6532864078          0.0013564930           -0.6532864078          0.0013564930           0.6563722134           0.1900819699           
4.7500000000           -0.3277085947          0.1235222786           -0.6533522913          0.0065563800           -0.6533522913          0.0065563800           0.6583407009           0.1828907040           
5.0000000000           -0.3266906299          0.1280866257           -0.6533254388          0.0115090785           -0.6533254388          0.0115090785           0.6600661334           0.1765264535           
5.2500000000           -0.3256447798          0.1327239900           -0.6532188600          0.0162477022           -0.6532188600          0.0162477022           0.6615950178           0.1708747589           
5.5000000000           -0.3245682936          0.1374225572           -0.6530427464          0.0207995388           -0.6530427464          0.0207995388           0.6629636908           0.1658410721           
5.7500000000           -0.3234590461          0.1421724293           -0.6528051794          0.0251872583           -0.6528051794          0.0251872583           0.6642008659           0.1613466381           
6.0000000000           -0.3223153891          0.1469652378           -0.6525126385          0.0294298366           -0.6525126385          0.0294298366           0.6653294683           0.1573253498           
6.2500000000           -0.3211360427          0.1517938461           -0.6521703739          0.0335432659           -0.6521703739          0.0335432659           0.6663679749           0.1537213202           
6.5000000000           -0.3199200150          0.1566521195           -0.6517826811          0.0375411096           -0.6517826811          0.0375411096           0.6673314063           0.1504869897           
6.7500000000           -0.3186665413          0.1615347445           -0.6513531078          0.0414349379           -0.6513531078          0.0414349379           0.6682320706           0.1475816365           
7.0000000000           -0.3173750389          0.1664370863           -0.6508846098          0.0452346738           -0.6508846098          0.0452346738           0.6690801271           0.1449701935           
7.2500000000           -0.3160450717          0.1713550746           -0.6503796712          0.0489488699           -0.6503796712          0.0489488699           0.6698840175           0.1426223023           
7.5000000000           -0.3146763232          0.1762851123           -0.6498403962          0.0525849311           -0.6498403962          0.0525849311           0.6706508003           0.1405115496           
7.7500000000           -0.3132685752          0.1812240014           -0.6492685823          0.0561492964           -0.6492685823          0.0561492964           0.6713864111           0.1386148470           
8.0000000000           -0.3118216913          0.1861688827           -0.6486657764          0.0596475865           -0.6486657764          0.0596475865           0.6720958676           0.1369119238           
8.2500000000           -0.3103356034          0.1911171856           -0.6480333199          0.0630847258           -0.6480333199          0.0630847258           0.6727834323           0.1353849099           
8.5000000000           -0.3088103011          0.1960665879           -0.6473723852          0.0664650433           -0.6473723852          0.0664650433           0.6734527424           0.1340179900           
8.7500000000           -0.3072458232          0.2010149812           -0.6466840042          0.0697923567           -0.6466840042          0.0697923567           0.6741069146           0.1327971161           
9.0000000000           -0.3056422505          0.2059604427           -0.6459690916          0.0730700423           -0.6459690916          0.0730700423           0.6747486295           0.1317097666           
9.2500000000           -0.3039997005          0.2109012112           -0.6452284646          0.0763010945           -0.6452284646          0.0763010945           0.6753802009           0.1307447439           
9.5000000000           -0.3023183221          0.2158356670           -0.6444628577          0.0794881757           -0.6444628577          0.0794881757           0.6760036322           0.1298920033           
9.7500000000           -0.3005982922          0.2207623151           -0.6436729364          0.0826336584           -0.6436729364          0.0826336584           0.6766206632           0.1291425076           
10.0000000000          -0.2988398122          0.2256797704           -0.6428593070          0.0857396616           -0.6428593070          0.0857396616           0.6772328083           0.1284881030           
10.2500000000          -0.2970431053          0.2305867453           -0.6420225261          0.0888080819           -0.6420225261          0.0888080819           0.6778413895           0.1279214136           
10.5000000000          -0.2952084139          0.2354820392           -0.6411631075          0.0918406198           -0.6411631075          0.0918406198           0.6784475623           0.1274357496           
10.7500000000          -0.2933359982          0.2403645293           -0.6402815290          0.0948388026           -0.6402815290          0.0948388026           0.6790523392           0.1270250294           
11.0000000000          -0.2914261339          0.2452331627           -0.6393782367          0.0978040048           -0.6393782367          0.0978040048           0.6796566081           0.1266837107           
11.2500000000          -0.2894791112          0.2500869495           -0.6384536502          0.1007374647           -0.6384536502          0.1007374647           0.6802611490           0.1264067324           
11.5000000000          -0.2874952332          0.2549249569           -0.6375081661          0.1036402999           -0.6375081661          0.1036402999           0.6808666474           0.1261894623           
11.7500000000          -0.2854748151          0.2597463040           -0.6365421608          0.1065135202           -0.6365421608          0.1065135202           0.6814737060           0.1260276525           
12.0000000000          -0.2834181826          0.2645501572           -0.6355559938          0.1093580393           -0.6355559938          0.1093580393           0.6820828553           0.1259174000           
12.2500000000          -0.2813256721          0.2693357262           -0.6345500094          0.1121746846           -0.6345500094          0.1121746846           0.6826945616           0.1258551119           
12.5000000000          -0.2791976289          0.2741022604           -0.6335245392          0.1149642066           -0.6335245392          0.1149642066           0.6833092346           0.1258374750           
12.7500000000          -0.2770344070          0.2788490463           -0.6324799035          0.1177272865           -0.6324799035          0.1177272865           0.6839272343           0.1258614285           
13.0000000000          -0.2748363685          0.2835754040           -0.6314164127          0.1204645430           -0.6314164127          0.1204645430           0.6845488762           0.1259241407           
13.2500000000          -0.2726038829          0.2882806854           -0.6303343689          0.1231765390           -0.6303343689          0.1231765390           0.6851744361           0.1260229872           
13.5000000000          -0.2703373267          0.2929642718           -0.6292340666          0.1258637867           -0.6292340666          0.1258637867           0.6858041547           0.1261555323           
13.7500000000          -0.2680370827          0.2976255717           -0.6281157940          0.1285267529           -0.6281157940          0.1285267529           0.6864382412           0.1263195119           
14.0000000000          -0.2657035400          0.3022640197           -0.6269798334          0.1311658629           -0.6269798334          0.1311658629           0.6870768763           0.1265128191           
14.2500000000          -0.2633370931          0.3068790744           -0.6258264622          0.1337815050           -0.6258264622          0.1337815050           0.6877202158           0.1267334899           
14.5000000000          -0.2609381420          0.3114702175           -0.6246559536          0.1363740335           -0.6246559536          0.1363740335           0.6883683921           0.1269796916           
14.7500000000          -0.2585070913          0.3160369520           -0.6234685767          0.1389437725           -0.6234685767          0.1389437725           0.6890215175           0.1272497117           
15.0000000000          -0.2560443505          0.3205788016           -0.6222645975          0.1414910180           -0.6222645975          0.1414910180           0.6896796854           0.1275419484           
15.2500000000          -0.2535503334          0.3250953095           -0.6210442788          0.1440160413           -0.6210442788          0.1440160413           0.6903429725           0.1278549014           
15.5000000000          -0.2510254574          0.3295860372           -0.6198078808          0.1465190908           -0.6198078808          0.1465190908           0.6910114404           0.1281871642           
15.7500000000          -0.2484701441          0.3340505644           -0.6185556616          0.1490003940           -0.6185556616          0.1490003940           0.6916851368           0.1285374166           
16.0000000000          -0.2458848182          0.3384884872           -0.6172878769          0.1514601601           -0.6172878769          0.1514601601           0.6923640967           0.1289044184           
16.2500000000          -0.2432699077          0.3428994186           -0.6160047806          0.1538985810           -0.6160047806          0.1538985810           0.6930483439           0.1292870032           
16.5000000000          -0.2406258435          0.3472829867           -0.6147066252          0.1563158333           -0.6147066252          0.1563158333           0.6937378916           0.1296840731           
16.7500000000          -0.2379530594          0.3516388352           -0.6133936613          0.1587120796           -0.6133936613          0.1587120796           0.6944327438           0.1300945938           
17.0000000000          -0.2352519915          0.3559666219           -0.6120661384          0.1610874697           -0.6120661384          0.1610874697           0.6951328956           0.1305175902           
17.2500000000          -0.2325230781          0.3602660189           -0.6107243046          0.1634421421           -0.6107243046          0.1634421421           0.6958383342           0.1309521417           
17.5000000000          -0.2297667598          0.3645367120           -0.6093684068          0.1657762249           -0.6093684068          0.1657762249           0.6965490397           0.1313973793           
17.7500000000          -0.2269834787          0.3687784001           -0.6079986911          0.1680898367           -0.6079986911          0.1680898367           0.6972649855           0.1318524813           
18.0000000000          -0.2241736789          0.3729907947           -0.6066154022          0.1703830876           -0.6066154022          0.1703830876           0.6979861390           0.1323166709           
18.2500000000          -0.2213378057          0.3771736202           -0.6052187841          0.1726560802           -0.6052187841          0.1726560802           0.6987124619           0.1327892127           
18.5000000000          -0.2184763057          0.3813266126           -0.6038090797          0.1749089100           -0.6038090797          0.1749089100           0.6994439109           0.1332694102           
18.7500000000          -0.2155896266          0.3854495201           -0.6023865312          0.1771416665           -0.6023865312          0.1771416665           0.7001804382           0.1337566035           
19.0000000000          -0.2126782171          0.3895421023           -0.6009513798          0.1793544336           -0.6009513798          0.1793544336           0.7009219914           0.1342501668           
19.2500000000          -0.2097425264          0.3936041297           -0.5995038658          0.1815472901           -0.5995038658          0.1815472901           0.7016685145           0.1347495066           
19.5000000000          -0.2067830044          0.3976353843           -0.5980442288          0.1837203105           -0.5980442288          0.1837203105           0.7024199477           0.1352540592           
19.7500000000          -0.2038001014          0.4016356584           -0.5965727073          0.1858735655           -0.5965727073          0.1858735655           0.7031762280           0.1357632895           
20.0000000000          -0.2007942677          0.4056047548           -0.5950895394          0.1880071221           -0.5950895394          0.1880071221           0.7039372894           0.1362766893           
20.2500000000          -0.1977659539          0.4095424867           -0.5935949618          0.1901210444           -0.5935949618          0.1901210444           0.7047030632           0.1367937751           
20.5000000000          -0.1947156104          0.4134486772           -0.5920892107          0.1922153938           -0.5920892107          0.1922153938           0.7054734779           0.1373140876           
20.7500000000          -0.1916436873          0.4173231593           -0.5905725213          0.1942902294           -0.5905725213          0.1942902294           0.7062484601           0.1378371895           
21.0000000000          -0.1885506343          0.4211657755           -0.5890451279          0.1963456084           -0.5890451279          0.1963456084           0.7070279340           0.1383626650           
21.2500000000          -0.1854369007          0.4249763778           -0.5875072638          0.1983815862           -0.5875072638          0.1983815862           0.7078118220           0.1388901181           
21.5000000000          -0.1823029349          0.4287548276           -0.5859591613          0.2003982168           -0.5859591613          0.2003982168           0.7086000450           0.1394191720           
21.7500000000          -0.1791491846          0.4325009950           -0.5844010520          0.2023955531           -0.5844010520          0.2023955531           0.7093925219           0.1399494676           
22.0000000000          -0.1759760965          0.4362147592           -0.5828331662          0.2043736473           -0.5828331662          0.2043736473           0.7101891706           0.1404806628           
22.2500000000          -0.1727841162          0.4398960082           -0.5812557333          0.2063325505           -0.5812557333          0.2063325505           0.7109899073           0.1410124320           
22.5000000000          -0.1695736881          0.4435446384           -0.5796689815          0.2082723137           -0.5796689815          0.2082723137           0.7117946476           0.1415444645           
22.7500000000          -0.1663452552          0.4471605546           -0.5780731380          0.2101929872           -0.5780731380          0.2101929872           0.7126033057           0.1420764645           
23.0000000000          -0.1630992590          0.4507436701           -0.5764684289          0.2120946214           -0.5764684289          0.2120946214           0.7134157950           0.1426081498           
23.2500000000          -0.1598361396          0.4542939058           -0.5748550790          0.2139772667           -0.5748550790          0.2139772667           0.7142320281           0.1431392515           
23.5000000000          -0.1565563351          0.4578111911           -0.5732333121          0.2158409736           -0.5732333121          0.2158409736           0.7150519170           0.1436695133           
23.7500000000          -0.1532602820          0.4612954627           -0.5716033504          0.2176857927           -0.5716033504          0.2176857927           0.7158753731           0.1441986907           
24.0000000000          -0.1499484147          0.4647466653           -0.5699654153          0.2195117753           -0.5699654153          0.2195117753           0.7167023073           0.1447265508           
24.2500000000          -0.1466211658          0.4681647509           -0.5683197265          0.2213189729           -0.5683197265          0.2213189729           0.7175326300           0.1452528713           
24.5000000000          -0.1432789655          0.4715496790           -0.5666665025          0.2231074377           -0.5666665025          0.2231074377           0.7183662515           0.1457774406           
