# MHz S RI R 50 
! S-Parameters data 
! Freq   reS11   imS11   reS21   imS21   reS12   imS12   reS22   imS22 
1.0000000000           0.6037294739           0.1820069522           0.2101609917           0.2212977606           0.2101609917           0.2212977606           0.4686352435           0.5903836582           
1.2500000000           0.6200252076           0.1527881556           0.2428190922           0.1873602338           0.2428190922           0.1873602338           0.5501137762           0.4998381539           
1.5000000000           0.6301025559           0.1319756835           0.2618621098           0.1607064955           0.2618621098           0.1607064955           0.5988724861           0.4299775960           
1.7500000000           0.6369633200           0.1165757694           0.2735719152           0.1398189724           0.2735719152           0.1398189724           0.6302032356           0.3756352559           
2.0000000000           0.6420427395           0.1047879781           0.2810285562           0.1232480392           0.2810285562           0.1232480392           0.6515672343           0.3325464617           
2.2500000000           0.6460816390           0.0954875928           0.2858577771           0.1099122903           0.2858577771           0.1099122903           0.6668783245           0.2976626334           
2.5000000000           0.6494866239           0.0879435630           0.2889772601           0.0990435345           0.2889772601           0.0990435345           0.6783244968           0.2688556718           
2.7500000000           0.6524913971           0.0816629437           0.2909365627           0.0900974622           0.2909365627           0.0900974622           0.6871960720           0.2446290169           
3.0000000000           0.6552345278           0.0763024092           0.2920825061           0.0826836892           0.2920825061           0.0826836892           0.6942883418           0.2239124691           
3.2500000000           0.6577994336           0.0716160942           0.2926445743           0.0765173992           0.2926445743           0.0765173992           0.7001095158           0.2059260684           
3.5000000000           0.6602361207           0.0674237482           0.2927813632           0.0713868811           0.2927813632           0.0713868811           0.7049939627           0.1900907247           
3.7500000000           0.6625735980           0.0635906436           0.2926070074           0.0671317375           0.2926070074           0.0671317375           0.7091667919           0.1759690344           
4.0000000000           0.6648272796           0.0600145120           0.2922068108           0.0636280984           0.2922068108           0.0636280984           0.7127822016           0.1632254720           
4.2500000000           0.6670035754           0.0566168108           0.2916468071           0.0607784416           0.2916468071           0.0607784416           0.7159470714           0.1515991295           
4.5000000000           0.6691028390           0.0533367366           0.2909797800           0.0585044730           0.2909797800           0.0585044730           0.7187359371           0.1408847041           
4.7500000000           0.6711213252           0.0501270207           0.2902491519           0.0567420668           0.2902491519           0.0567420668           0.7212007634           0.1309190007           
5.0000000000           0.6730525291           0.0469509115           0.2894915506           0.0554376168           0.2894915506           0.0554376168           0.7233774795           0.1215711818           
5.2500000000           0.6748881292           0.0437799600           0.2887385384           0.0545453626           0.2887385384           0.0545453626           0.7252904463           0.1127356096           
5.5000000000           0.6766186719           0.0405923594           0.2880177956           0.0540254025           0.2880177956           0.0540254025           0.7269555665           0.1043265062           
5.7500000000           0.6782340826           0.0373716724           0.2873539447           0.0538421906           0.2873539447           0.0538421906           0.7283824836           0.0962739079           
6.0000000000           0.6797240602           0.0341058321           0.2867691310           0.0539633777           0.2867691310           0.0539633777           0.7295761548           0.0885205510           
6.2500000000           0.6810783952           0.0307863336           0.2862834378           0.0543588941           0.2862834378           0.0543588941           0.7305379814           0.0810194324           
6.5000000000           0.6822872384           0.0274075586           0.2859151855           0.0550001963           0.2859151855           0.0550001963           0.7312666159           0.0737318619           
6.7500000000           0.6833413456           0.0239661829           0.2856811479           0.0558596165           0.2856811479           0.0558596165           0.7317585242           0.0666258670           
7.0000000000           0.6842323184           0.0204606251           0.2855967080           0.0569097572           0.2855967080           0.0569097572           0.7320083475           0.0596748413           
7.2500000000           0.6849528658           0.0168904923           0.2856759662           0.0581228755           0.2856759662           0.0581228755           0.7320090849           0.0528563443           
7.5000000000           0.6854971162           0.0132559677           0.2859318076           0.0594701870           0.2859318076           0.0594701870           0.7317520918           0.0461509608           
7.7500000000           0.6858610226           0.0095570652           0.2863759271           0.0609209938           0.2863759271           0.0609209938           0.7312268577           0.0395411175           
8.0000000000           0.6860429275           0.0057926284           0.2870188004           0.0624414886           0.2870188004           0.0624414886           0.7304204782           0.0330097179           
8.2500000000           0.6860443991           0.0019588667           0.2878695730           0.0639929811           0.2878695730           0.0639929811           0.7293166512           0.0265383793           
8.5000000000           0.6858715323           -0.0019529579          0.2889357956           0.0655290876           0.2889357956           0.0655290876           0.7278938573           0.0201049062           
8.7500000000           0.6855370802           -0.0059604504          0.2902228485           0.0669909947           0.2902228485           0.0669909947           0.7261220339           0.0136793114           
9.0000000000           0.6850641225           -0.0100972129          0.2917326650           0.0682989474           0.2917326650           0.0682989474           0.7239562457           0.0072170110           
9.2500000000           0.6844927498           -0.0144268731          0.2934607194           0.0693358132           0.2934607194           0.0693358132           0.7213238347           0.0006462115           
9.5000000000           0.6838930333           -0.0190734027          0.2953882163           0.0699124567           0.2953882163           0.0699124567           0.7180959091           -0.0061575501          
9.7500000000           0.6833919533           -0.0242950300          0.2974589701           0.0696862379           0.2974589701           0.0696862379           0.7140159057           -0.0134281522          
10.0000000000          0.6832323099           -0.0306966501          0.2994968859           0.0679383731           0.2994968859           0.0679383731           0.7084872852           -0.0216514686          
10.2500000000          0.6838860289           -0.0400075343          0.3008145350           0.0628232028           0.3008145350           0.0628232028           0.6997584482           -0.0319745010          
10.5000000000          0.6856186703           -0.0592966706          0.2971750009           0.0479605839           0.2971750009           0.0479605839           0.6801205683           -0.0472667068          
10.7500000000          0.6439393376           -0.1306907790          0.2231394186           0.0145637271           0.2231394186           0.0145637271           0.5868878643           -0.0339132891          
11.0000000000          0.6014065419           -0.0081949823          0.2709585080           0.1506481377           0.2709585080           0.1506481377           0.7065557414           0.0511492645           
11.2500000000          0.6353264698           -0.0139205926          0.3050597134           0.1260616425           0.3050597134           0.1260616425           0.7125684948           0.0050297695           
11.5000000000          0.6417898946           -0.0210590731          0.3145995013           0.1170502661           0.3145995013           0.1170502661           0.7065970080           -0.0114442613          
11.7500000000          0.6424314703           -0.0259212525          0.3207749538           0.1131599566           0.3207749538           0.1131599566           0.7005951959           -0.0207350857          
12.0000000000          0.6409100987           -0.0294778769          0.3261392778           0.1111999877           0.3261392778           0.1111999877           0.6948134949           -0.0272061902          
12.2500000000          0.6382928170           -0.0321878941          0.3313006302           0.1100618311           0.3313006302           0.1100618311           0.6891195009           -0.0321765670          
12.5000000000          0.6350043810           -0.0342625747          0.3364584941           0.1092595932           0.3364584941           0.1092595932           0.6834200012           -0.0361646563          
12.7500000000          0.6312526123           -0.0358040533          0.3416877718           0.1085411787           0.3416877718           0.1085411787           0.6776641366           -0.0394074863          
13.0000000000          0.6271569323           -0.0368623104          0.3470150472           0.1077578747           0.3470150472           0.1077578747           0.6718279164           -0.0420230877          
13.2500000000          0.6227961851           -0.0374604345          0.3524443763           0.1068125746           0.3524443763           0.1068125746           0.6659041913           -0.0440724359          
13.5000000000          0.6182292127           -0.0376069008          0.3579675033           0.1056365669           0.3579675033           0.1056365669           0.6598969866           -0.0455866682          
13.7500000000          0.6135047082           -0.0373020782          0.3635684055           0.1041781686           0.3635684055           0.1041781686           0.6538182961           -0.0465804198          
14.0000000000          0.6086663334           -0.0365419666          0.3692255087           0.1023968001           0.3692255087           0.1023968001           0.6476862085           -0.0470589773          
14.2500000000          0.6037555392           -0.0353205216          0.3749128651           0.1002597761           0.3749128651           0.1002597761           0.6415237619           -0.0470224394          
14.5000000000          0.5988131781           -0.0336312177          0.3806008405           0.0977405447           0.3806008405           0.0977405447           0.6353581985           -0.0464683267          
14.7500000000          0.5938804319           -0.0314681831          0.3862565721           0.0948177436           0.3862565721           0.0948177436           0.6292204348           -0.0453933473          
15.0000000000          0.5889993212           -0.0288270815          0.3918443249           0.0914747386           0.3918443249           0.0914747386           0.6231446411           -0.0437946762          
15.2500000000          0.5842129351           -0.0257058368          0.3973258183           0.0876994543           0.3973258183           0.0876994543           0.6171678642           -0.0416709437          
15.5000000000          0.5795654627           -0.0221052506          0.4026605643           0.0834843840           0.4026605643           0.0834843840           0.6113296521           -0.0390230371          
15.7500000000          0.5751020685           -0.0180295399          0.4078062404           0.0788267049           0.4078062404           0.0788267049           0.6056716537           -0.0358547736          
16.0000000000          0.5708686413           -0.0134868034          0.4127191131           0.0737284476           0.4127191131           0.0737284476           0.6002371771           -0.0321734727          
16.2500000000          0.5669114335           -0.0084894198          0.4173545192           0.0681966834           0.4173545192           0.0681966834           0.5950706949           -0.0279904420          
16.5000000000          0.5632766063           -0.0030543714          0.4216674072           0.0622436980           0.4216674072           0.0622436980           0.5902172935           -0.0233213777          
16.7500000000          0.5600096938           0.0027965143           0.4256129374           0.0558871262           0.4256129374           0.0558871262           0.5857220657           -0.0181866763          
17.0000000000          0.5571550005           0.0090364143           0.4291471334           0.0491500259           0.4291471334           0.0491500259           0.5816294525           -0.0126116502          
17.2500000000          0.5547549471           0.0156334634           0.4322275754           0.0420608736           0.4322275754           0.0420608736           0.5779825425           -0.0066266378          
17.5000000000          0.5528493837           0.0225508177           0.4348141205           0.0346534651           0.4348141205           0.0346534651           0.5748223428           -0.0002670009          
17.7500000000          0.5514748900           0.0297468374           0.4368696324           0.0269667101           0.4368696324           0.0269667101           0.5721870383           0.0064269993           
18.0000000000          0.5506640845           0.0371753910           0.4383607013           0.0190443138           0.4383607013           0.0190443138           0.5701112586           0.0134104515           
18.2500000000          0.5504449663           0.0447862818           0.4392583300           0.0109343433           0.4392583300           0.0109343433           0.5686253750           0.0206341682           
18.5000000000          0.5508403142           0.0525257908           0.4395385645           0.0026886795           0.4395385645           0.0026886795           0.5677548503           0.0280451827           
18.7500000000          0.5518671645           0.0603373266           0.4391830471           -0.0056376348          0.4391830471           -0.0056376348          0.5675196636           0.0355873578           
19.0000000000          0.5535363896           0.0681621681           0.4381794679           -0.0139871400          0.4381794679           -0.0139871400          0.5679338333           0.0432020949           
19.2500000000          0.5558523957           0.0759402791           0.4365219006           -0.0223007776          0.4365219006           -0.0223007776          0.5690050545           0.0508291239           
19.5000000000          0.5588129532           0.0836111736           0.4342110046           -0.0305187612          0.4342110046           -0.0305187612          0.5707344681           0.0584073520           
19.7500000000          0.5624091674           0.0911148051           0.4312540867           -0.0385814733          0.4312540867           -0.0385814733          0.5731165696           0.0658757459           
20.0000000000          0.5666255946           0.0983924516           0.4276650172           -0.0464303631          0.4276650172           -0.0464303631          0.5761392641           0.0731742205           
20.2500000000          0.5714404991           0.1053875716           0.4234640036           -0.0540088158          0.4234640036           -0.0540088158          0.5797840642           0.0802445064           
20.5000000000          0.5768262418           0.1120466018           0.4186772292           -0.0612629695          0.4186772292           -0.0612629695          0.5840264250           0.0870309696           
20.7500000000          0.5827497888           0.1183196756           0.4133363707           -0.0681424542          0.4133363707           -0.0681424542          0.5888362021           0.0934813585           
21.0000000000          0.5891733181           0.1241612415           0.4074780122           -0.0746010345          0.4074780122           -0.0746010345          0.5941782175           0.0995474587           
21.2500000000          0.5960549060           0.1295305674           0.4011429777           -0.0805971389          0.4011429777           -0.0805971389          0.6000129091           0.1051856381           
21.5000000000          0.6033492659           0.1343921200           0.3943756048           -0.0860942674          0.3943756048           -0.0860942674          0.6062970441           0.1103572722           
21.7500000000          0.6110085173           0.1387158169           0.3872229856           -0.0910612703          0.3872229856           -0.0910612703          0.6129844689           0.1150290430           
22.0000000000          0.6189829598           0.1424771504           0.3797341979           -0.0954725003          0.3797341979           -0.0954725003          0.6200268730           0.1191731112           
22.2500000000          0.6272218293           0.1456571902           0.3719595496           -0.0993078426          0.3719595496           -0.0993078426          0.6273745430           0.1227671666           
22.5000000000          0.6356740172           0.1482424748           0.3639498574           -0.1025526312          0.3639498574           -0.1025526312          0.6349770873           0.1257943642           
22.7500000000          0.6442887350           0.1502248038           0.3557557751           -0.1051974655          0.3557557751           -0.1051974655          0.6427841124           0.1282431593           
23.0000000000          0.6530161127           0.1516009466           0.3474271878           -0.1072379413          0.3474271878           -0.1072379413          0.6507458387           0.1301070543           
23.2500000000          0.6618077204           0.1523722849           0.3390126783           -0.1086743120          0.3390126783           -0.1086743120          0.6588136442           0.1313842745           
23.5000000000          0.6706170082           0.1525444043           0.3305590746           -0.1095110980          0.3305590746           -0.1095110980          0.6669405299           0.1320773891           
23.7500000000          0.6793996629           0.1521266528           0.3221110789           -0.1097566588          0.3221110789           -0.1097566588          0.6750815045           0.1321928922           
24.0000000000          0.6881138820           0.1511316804           0.3137109792           -0.1094227453          0.3137109792           -0.1094227453          0.6831938883           0.1317407621           
24.2500000000          0.6967205683           0.1495749747           0.3053984392           -0.1085240448          0.3053984392           -0.1085240448          0.6912375379           0.1307340091           
24.5000000000          0.7051834518           0.1474744031           0.2972103610           -0.1070777313          0.2972103610           -0.1070777313          0.6991749983           0.1291882278           
