# MHz S RI R 50 
! S-Parameters data 
! Freq   reS11   imS11   reS21   imS21   reS12   imS12   reS22   imS22 
1.0000000000           0.6659349171           0.0220774450           0.3317829563           0.0308670916           0.3317829563           0.0308670916           0.6631277490           0.0749941155           
1.2500000000           0.6661978556           0.0176739531           0.3323402550           0.0247124701           0.3323402550           0.0247124701           0.6644001106           0.0600461161           
1.5000000000           0.6663408551           0.0147351525           0.3326433668           0.0206008239           0.3326433668           0.0206008239           0.6650921347           0.0500628862           
1.7500000000           0.6664271368           0.0126349468           0.3328262637           0.0176602513           0.3328262637           0.0176602513           0.6655096980           0.0429249630           
2.0000000000           0.6664831602           0.0110594596           0.3329450232           0.0154529401           0.3329450232           0.0154529401           0.6657808315           0.0375683948           
2.2500000000           0.6665215802           0.0098340381           0.3330264681           0.0137350395           0.3330264681           0.0137350395           0.6659667737           0.0334006884           
2.5000000000           0.6665490671           0.0088537829           0.3330847370           0.0123599967           0.3330847370           0.0123599967           0.6660998041           0.0300657979           
2.7500000000           0.6665694071           0.0080518927           0.3331278558           0.0112344445           0.3331278558           0.0112344445           0.6661982461           0.0273369082           
3.0000000000           0.6665848791           0.0073838104           0.3331606548           0.0102960872           0.3331606548           0.0102960872           0.6662731276           0.0250626933           
3.2500000000           0.6665969209           0.0068186772           0.3331861822           0.0095017708           0.3331861822           0.0095017708           0.6663314080           0.0231383300           
3.5000000000           0.6666064763           0.0063344447           0.3332064388           0.0088206567           0.3332064388           0.0088206567           0.6663776548           0.0214889121           
3.7500000000           0.6666141856           0.0059149405           0.3332227816           0.0082301218           0.3332227816           0.0082301218           0.6664149664           0.0200594896           
4.0000000000           0.6666204954           0.0055480331           0.3332361575           0.0077131937           0.3332361575           0.0077131937           0.6664455045           0.0188088391           
4.2500000000           0.6666257250           0.0052244441           0.3332472435           0.0072568907           0.3332472435           0.0072568907           0.6664708147           0.0177054298           
4.5000000000           0.6666301076           0.0049369561           0.3332565339           0.0068511139           0.3332565339           0.0068511139           0.6664920256           0.0167247335           
4.7500000000           0.6666338168           0.0046798706           0.3332643965           0.0064878890           0.3332643965           0.0064878890           0.6665099769           0.0158473828           
5.0000000000           0.6666369837           0.0044486283           0.3332711096           0.0061608360           0.3332711096           0.0061608360           0.6665253038           0.0150578818           
5.2500000000           0.6666397092           0.0042395383           0.3332768867           0.0058647894           0.3332768867           0.0058647894           0.6665384939           0.0143436851           
5.5000000000           0.6666420716           0.0040495805           0.3332818942           0.0055955226           0.3332818942           0.0055955226           0.6665499269           0.0136945271           
5.7500000000           0.6666441326           0.0038762597           0.3332862628           0.0053495435           0.3332862628           0.0053495435           0.6665599014           0.0131019271           
6.0000000000           0.6666459415           0.0037174968           0.3332900968           0.0051239420           0.3332900968           0.0051239420           0.6665686554           0.0125588170           
6.2500000000           0.6666475378           0.0035715452           0.3332934800           0.0049162735           0.3332934800           0.0049162735           0.6665763803           0.0120592597           
6.5000000000           0.6666489535           0.0034369267           0.3332964804           0.0047244693           0.3332964804           0.0047244693           0.6665832312           0.0115982308           
6.7500000000           0.6666502149           0.0033123823           0.3332991535           0.0045467671           0.3332991535           0.0045467671           0.6665893351           0.0111714505           
7.0000000000           0.6666513437           0.0031968329           0.3333015454           0.0043816562           0.3333015454           0.0043816562           0.6665947969           0.0107752498           
7.2500000000           0.6666523577           0.0030893480           0.3333036941           0.0042278344           0.3333036941           0.0042278344           0.6665997036           0.0104064659           
7.5000000000           0.6666532721           0.0029891212           0.3333056316           0.0040841730           0.3333056316           0.0040841730           0.6666041278           0.0100623577           
7.7500000000           0.6666540995           0.0028954502           0.3333073845           0.0039496888           0.3333073845           0.0039496888           0.6666081310           0.0097405375           
8.0000000000           0.6666548506           0.0028077205           0.3333089756           0.0038235216           0.3333089756           0.0038235216           0.6666117648           0.0094389162           
8.2500000000           0.6666555344           0.0027253921           0.3333104243           0.0037049155           0.3333104243           0.0037049155           0.6666150733           0.0091556576           
8.5000000000           0.6666561589           0.0026479882           0.3333117469           0.0035932034           0.3333117469           0.0035932034           0.6666180943           0.0088891419           
8.7500000000           0.6666567307           0.0025750870           0.3333129578           0.0034877944           0.3333129578           0.0034877944           0.6666208601           0.0086379341           
9.0000000000           0.6666572555           0.0025063132           0.3333140692           0.0033881634           0.3333140692           0.0033881634           0.6666233988           0.0084007586           
9.2500000000           0.6666577384           0.0024413321           0.3333150916           0.0032938419           0.3333150916           0.0032938419           0.6666257344           0.0081764778           
9.5000000000           0.6666581838           0.0023798445           0.3333160343           0.0032044109           0.3333160343           0.0032044109           0.6666278881           0.0079640739           
9.7500000000           0.6666585953           0.0023215814           0.3333169054           0.0031194940           0.3333169054           0.0031194940           0.6666298783           0.0077626333           
10.0000000000          0.6666589765           0.0022663012           0.3333177120           0.0030387529           0.3333177120           0.0030387529           0.6666317212           0.0075713338           
10.2500000000          0.6666593301           0.0022137856           0.3333184602           0.0029618820           0.3333184602           0.0029618820           0.6666334309           0.0073894335           
10.5000000000          0.6666596588           0.0021638371           0.3333191556           0.0028886049           0.3333191556           0.0028886049           0.6666350201           0.0072162610           
10.7500000000          0.6666599649           0.0021162767           0.3333198029           0.0028186709           0.3333198029           0.0028186709           0.6666364997           0.0070512076           
11.0000000000          0.6666602504           0.0020709414           0.3333204066           0.0027518520           0.3333204066           0.0027518520           0.6666378796           0.0068937196           
11.2500000000          0.6666605171           0.0020276831           0.3333209705           0.0026879406           0.3333209705           0.0026879406           0.6666391686           0.0067432928           
11.5000000000          0.6666607667           0.0019863662           0.3333214979           0.0026267472           0.3333214979           0.0026267472           0.6666403745           0.0065994666           
11.7500000000          0.6666610006           0.0019468668           0.3333219920           0.0025680981           0.3333219920           0.0025680981           0.6666415043           0.0064618198           
12.0000000000          0.6666612200           0.0019090713           0.3333224555           0.0025118345           0.3333224555           0.0025118345           0.6666425642           0.0063299662           
12.2500000000          0.6666614262           0.0018728755           0.3333228908           0.0024578102           0.3333228908           0.0024578102           0.6666435600           0.0062035511           
12.5000000000          0.6666616202           0.0018381833           0.3333233003           0.0024058910           0.3333233003           0.0024058910           0.6666444967           0.0060822482           
12.7500000000          0.6666618029           0.0018049062           0.3333236859           0.0023559530           0.3333236859           0.0023559530           0.6666453789           0.0059657569           
13.0000000000          0.6666619753           0.0017729628           0.3333240493           0.0023078818           0.3333240493           0.0023078818           0.6666462107           0.0058537995           
13.2500000000          0.6666621380           0.0017422774           0.3333243924           0.0022615720           0.3333243924           0.0022615720           0.6666469959           0.0057461194           
13.5000000000          0.6666622918           0.0017127802           0.3333247165           0.0022169255           0.3333247165           0.0022169255           0.6666477379           0.0056424791           
13.7500000000          0.6666624374           0.0016844063           0.3333250231           0.0021738517           0.3333250231           0.0021738517           0.6666484399           0.0055426581           
14.0000000000          0.6666625752           0.0016570957           0.3333253133           0.0021322663           0.3333253133           0.0021322663           0.6666491047           0.0054464519           
14.2500000000          0.6666627059           0.0016307923           0.3333255884           0.0020920910           0.3333255884           0.0020920910           0.6666497348           0.0053536702           
14.5000000000          0.6666628300           0.0016054440           0.3333258493           0.0020532529           0.3333258493           0.0020532529           0.6666503327           0.0052641360           
14.7500000000          0.6666629478           0.0015810023           0.3333260970           0.0020156839           0.3333260970           0.0020156839           0.6666509005           0.0051776840           
15.0000000000          0.6666630599           0.0015574219           0.3333263324           0.0019793207           0.3333263324           0.0019793207           0.6666514401           0.0050941602           
15.2500000000          0.6666631665           0.0015346603           0.3333265562           0.0019441039           0.3333265562           0.0019441039           0.6666519535           0.0050134206           
15.5000000000          0.6666632681           0.0015126780           0.3333267693           0.0019099780           0.3333267693           0.0019099780           0.6666524423           0.0049353305           
15.7500000000          0.6666633649           0.0014914379           0.3333269723           0.0018768912           0.3333269723           0.0018768912           0.6666529080           0.0048597637           
16.0000000000          0.6666634573           0.0014709052           0.3333271657           0.0018447946           0.3333271657           0.0018447946           0.6666533522           0.0047866019           
16.2500000000          0.6666635454           0.0014510471           0.3333273503           0.0018136427           0.3333273503           0.0018136427           0.6666537760           0.0047157341           
16.5000000000          0.6666636297           0.0014318332           0.3333275265           0.0017833924           0.3333275265           0.0017833924           0.6666541808           0.0046470562           
16.7500000000          0.6666637102           0.0014132344           0.3333276948           0.0017540034           0.3333276948           0.0017540034           0.6666545676           0.0045804699           
17.0000000000          0.6666637873           0.0013952238           0.3333278557           0.0017254377           0.3333278557           0.0017254377           0.6666549375           0.0045158831           
17.2500000000          0.6666638610           0.0013777756           0.3333280096           0.0016976595           0.3333280096           0.0016976595           0.6666552916           0.0044532087           
17.5000000000          0.6666639317           0.0013608659           0.3333281569           0.0016706350           0.3333281569           0.0016706350           0.6666556305           0.0043923650           
17.7500000000          0.6666639995           0.0013444718           0.3333282980           0.0016443325           0.3333282980           0.0016443325           0.6666559554           0.0043332744           
18.0000000000          0.6666640645           0.0013285719           0.3333284332           0.0016187217           0.3333284332           0.0016187217           0.6666562668           0.0042758640           
18.2500000000          0.6666641269           0.0013131458           0.3333285629           0.0015937744           0.3333285629           0.0015937744           0.6666565655           0.0042200647           
18.5000000000          0.6666641868           0.0012981744           0.3333286872           0.0015694636           0.3333286872           0.0015694636           0.6666568523           0.0041658111           
18.7500000000          0.6666642444           0.0012836395           0.3333288066           0.0015457638           0.3333288066           0.0015457638           0.6666571277           0.0041130416           
19.0000000000          0.6666642998           0.0012695238           0.3333289213           0.0015226509           0.3333289213           0.0015226509           0.6666573924           0.0040616974           
19.2500000000          0.6666643531           0.0012558109           0.3333290314           0.0015001021           0.3333290314           0.0015001021           0.6666576469           0.0040117231           
19.5000000000          0.6666644044           0.0012424856           0.3333291374           0.0014780957           0.3333291374           0.0014780957           0.6666578917           0.0039630660           
19.7500000000          0.6666644538           0.0012295329           0.3333292392           0.0014566110           0.3333292392           0.0014566110           0.6666581273           0.0039156760           
20.0000000000          0.6666645014           0.0012169389           0.3333293373           0.0014356286           0.3333293373           0.0014356286           0.6666583541           0.0038695057           
20.2500000000          0.6666645473           0.0012046903           0.3333294317           0.0014151297           0.3333294317           0.0014151297           0.6666585727           0.0038245098           
20.5000000000          0.6666645916           0.0011927746           0.3333295226           0.0013950967           0.3333295226           0.0013950967           0.6666587834           0.0037806454           
20.7500000000          0.6666646343           0.0011811796           0.3333296102           0.0013755128           0.3333296102           0.0013755128           0.6666589865           0.0037378716           
21.0000000000          0.6666646756           0.0011698939           0.3333296946           0.0013563620           0.3333296946           0.0013563620           0.6666591825           0.0036961495           
21.2500000000          0.6666647155           0.0011589067           0.3333297760           0.0013376289           0.3333297760           0.0013376289           0.6666593716           0.0036554419           
21.5000000000          0.6666647540           0.0011482074           0.3333298546           0.0013192989           0.3333298546           0.0013192989           0.6666595543           0.0036157134           
21.7500000000          0.6666647912           0.0011377861           0.3333299304           0.0013013583           0.3333299304           0.0013013583           0.6666597307           0.0035769304           
22.0000000000          0.6666648273           0.0011276335           0.3333300036           0.0012837936           0.3333300036           0.0012837936           0.6666599011           0.0035390604           
22.2500000000          0.6666648621           0.0011177403           0.3333300743           0.0012665923           0.3333300743           0.0012665923           0.6666600660           0.0035020729           
22.5000000000          0.6666648959           0.0011080981           0.3333301426           0.0012497422           0.3333301426           0.0012497422           0.6666602254           0.0034659383           
22.7500000000          0.6666649286           0.0010986984           0.3333302086           0.0012332317           0.3333302086           0.0012332317           0.6666603796           0.0034306286           
23.0000000000          0.6666649603           0.0010895335           0.3333302725           0.0012170498           0.3333302725           0.0012170498           0.6666605288           0.0033961168           
23.2500000000          0.6666649910           0.0010805956           0.3333303342           0.0012011858           0.3333303342           0.0012011858           0.6666606734           0.0033623772           
23.5000000000          0.6666650208           0.0010718777           0.3333303940           0.0011856297           0.3333303940           0.0011856297           0.6666608133           0.0033293852           
23.7500000000          0.6666650497           0.0010633726           0.3333304518           0.0011703717           0.3333304518           0.0011703717           0.6666609490           0.0032971171           
24.0000000000          0.6666650778           0.0010550739           0.3333305077           0.0011554025           0.3333305077           0.0011554025           0.6666610804           0.0032655504           
24.2500000000          0.6666651050           0.0010469750           0.3333305620           0.0011407131           0.3333305620           0.0011407131           0.6666612079           0.0032346633           
24.5000000000          0.6666651314           0.0010390699           0.3333306145           0.0011262950           0.3333306145           0.0011262950           0.6666613315           0.0032044350           
