# MHz S RI R 50 
! S-Parameters data 
! Freq   reS11   imS11   reS21   imS21   reS12   imS12   reS22   imS22 
1.0000000000           0.6032438147           0.1984658361           0.2067351423           0.2420434462           0.2067351423           0.2420434462           0.3821290372           0.6213645596           
1.2500000000           0.6223028925           0.1680073906           0.2462056386           0.2062615592           0.2462056386           0.2062615592           0.4734063007           0.5341258132           
1.5000000000           0.6337721839           0.1459596493           0.2700731577           0.1769658739           0.2700731577           0.1769658739           0.5286447031           0.4650401603           
1.7500000000           0.6411445058           0.1295769319           0.2853835029           0.1533089933           0.2853835029           0.1533089933           0.5641701404           0.4107446247           
2.0000000000           0.6461507386           0.1171128454           0.2956993017           0.1340298523           0.2956993017           0.1340298523           0.5882163989           0.3676422725           
2.2500000000           0.6497099279           0.1074408060           0.3029325852           0.1180761889           0.3029325852           0.1180761889           0.6051964989           0.3329306041           
2.5000000000           0.6523411282           0.0998147139           0.3081702218           0.1046586806           0.3081702218           0.1046586806           0.6176169139           0.3045668669           
2.7500000000           0.6543534624           0.0937260587           0.3120622517           0.0931990981           0.3120622517           0.0931990981           0.6269759122           0.2810774184           
3.0000000000           0.6559395416           0.0888185837           0.3150149203           0.0832731508           0.3150149203           0.0832731508           0.6342094694           0.2613909974           
3.2500000000           0.6572241008           0.0848363275           0.3172919004           0.0745661771           0.3172919004           0.0745661771           0.6399248845           0.2447180108           
3.5000000000           0.6582906392           0.0815911748           0.3190700112           0.0668416022           0.3190700112           0.0668416022           0.6445292959           0.2304673320           
3.7500000000           0.6591966759           0.0789420473           0.3204712406           0.0599189905           0.3204712406           0.0599189905           0.6483035091           0.2181894717           
4.0000000000           0.6599828346           0.0767812158           0.3215818626           0.0536587851           0.3215818626           0.0536587851           0.6514460571           0.2075375346           
4.2500000000           0.6606784402           0.0750250785           0.3224642408           0.0479516115           0.3224642408           0.0479516115           0.6541003984           0.1982400773           
4.5000000000           0.6613050739           0.0736078115           0.3231643366           0.0427106901           0.3231643366           0.0427106901           0.6563722134           0.1900819699           
4.7500000000           0.6618788918           0.0724769092           0.3237166142           0.0378663833           0.3237166142           0.0378663833           0.6583407009           0.1828907040           
5.0000000000           0.6624121748           0.0715899928           0.3241473198           0.0333622226           0.3241473198           0.0333622226           0.6600661334           0.1765264535           
5.2500000000           0.6629143861           0.0709124903           0.3244767243           0.0291519771           0.3244767243           0.0291519771           0.6615950178           0.1708747589           
5.5000000000           0.6633929075           0.0704159216           0.3247206831           0.0251974618           0.3247206831           0.0251974618           0.6629636908           0.1658410721           
5.7500000000           0.6638535609           0.0700766157           0.3248917435           0.0214668802           0.3248917435           0.0214668802           0.6642008659           0.1613466381           
6.0000000000           0.6643009836           0.0698747367           0.3249999411           0.0179335568           0.3249999411           0.0179335568           0.6653294683           0.1573253498           
6.2500000000           0.6647389026           0.0697935370           0.3250533820           0.0145749564           0.3250533820           0.0145749564           0.6663679749           0.1537213202           
6.5000000000           0.6651703371           0.0698187771           0.3250586736           0.0113719200           0.3250586736           0.0113719200           0.6673314063           0.1504869897           
6.7500000000           0.6655977510           0.0699382722           0.3250212476           0.0083080618           0.3250212476           0.0083080618           0.6682320706           0.1475816365           
7.0000000000           0.6660231678           0.0701415323           0.3249456050           0.0053692905           0.3249456050           0.0053692905           0.6690801271           0.1449701935           
7.2500000000           0.6664482586           0.0704194760           0.3248355037           0.0025434258           0.3248355037           0.0025434258           0.6698840175           0.1426223023           
7.5000000000           0.6668744109           0.0707642001           0.3246941029           -0.0001801110          0.3246941029           -0.0001801110          0.6706508003           0.1405115496           
7.7500000000           0.6673027811           0.0711687927           0.3245240768           -0.0028105488          0.3245240768           -0.0028105488          0.6713864111           0.1386148470           
8.0000000000           0.6677343372           0.0716271811           0.3243277037           -0.0053559724          0.3243277037           -0.0053559724          0.6720958676           0.1369119238           
8.2500000000           0.6681698914           0.0721340066           0.3241069361           -0.0078234920          0.3241069361           -0.0078234920          0.6727834323           0.1353849099           
8.5000000000           0.6686101267           0.0726845210           0.3238634576           -0.0102193838          0.3238634576           -0.0102193838          0.6734527424           0.1340179900           
8.7500000000           0.6690556187           0.0732745010           0.3235987281           -0.0125492064          0.3235987281           -0.0125492064          0.6741069146           0.1327971161           
9.0000000000           0.6695068525           0.0739001764           0.3233140205           -0.0148178995          0.3233140205           -0.0148178995          0.6747486295           0.1317097666           
9.2500000000           0.6699642371           0.0745581695           0.3230104508           -0.0170298655          0.3230104508           -0.0170298655          0.6753802009           0.1307447439           
9.5000000000           0.6704281166           0.0752454444           0.3226890026           -0.0191890396          0.3226890026           -0.0191890396          0.6760036322           0.1298920033           
9.7500000000           0.6708987803           0.0759592639           0.3223505470           -0.0212989489          0.3223505470           -0.0212989489          0.6766206632           0.1291425076           
10.0000000000          0.6713764701           0.0766971526           0.3219958600           -0.0233627627          0.3219958600           -0.0233627627          0.6772328083           0.1284881030           
10.2500000000          0.6718613871           0.0774568658           0.3216256357           -0.0253833357          0.3216256357           -0.0253833357          0.6778413895           0.1279214136           
10.5000000000          0.6723536978           0.0782363621           0.3212404984           -0.0273632455          0.3212404984           -0.0273632455          0.6784475623           0.1274357496           
10.7500000000          0.6728535378           0.0790337804           0.3208410121           -0.0293048240          0.3208410121           -0.0293048240          0.6790523392           0.1270250294           
11.0000000000          0.6733610165           0.0798474197           0.3204276890           -0.0312101859          0.3204276890           -0.0312101859          0.6796566081           0.1266837107           
11.2500000000          0.6738762197           0.0806757218           0.3200009963           -0.0330812519          0.3200009963           -0.0330812519          0.6802611490           0.1264067324           
11.5000000000          0.6743992133           0.0815172559           0.3195613621           -0.0349197705          0.3195613621           -0.0349197705          0.6808666474           0.1261894623           
11.7500000000          0.6749300450           0.0823707056           0.3191091805           -0.0367273361          0.3191091805           -0.0367273361          0.6814737060           0.1260276525           
12.0000000000          0.6754687467           0.0832348568           0.3186448158           -0.0385054049          0.3186448158           -0.0385054049          0.6820828553           0.1259174000           
12.2500000000          0.6760153362           0.0841085883           0.3181686066           -0.0402553090          0.3181686066           -0.0402553090          0.6826945616           0.1258551119           
12.5000000000          0.6765698190           0.0849908619           0.3176808683           -0.0419782694          0.3176808683           -0.0419782694          0.6833092346           0.1258374750           
12.7500000000          0.6771321892           0.0858807153           0.3171818966           -0.0436754064          0.3171818966           -0.0436754064          0.6839272343           0.1258614285           
13.0000000000          0.6777024311           0.0867772543           0.3166719693           -0.0453477498          0.3166719693           -0.0453477498          0.6845488762           0.1259241407           
13.2500000000          0.6782805201           0.0876796473           0.3161513486           -0.0469962472          0.3161513486           -0.0469962472          0.6851744361           0.1260229872           
13.5000000000          0.6788664234           0.0885871191           0.3156202828           -0.0486217722          0.3156202828           -0.0486217722          0.6858041547           0.1261555323           
13.7500000000          0.6794601011           0.0894989464           0.3150790081           -0.0502251306          0.3150790081           -0.0502251306          0.6864382412           0.1263195119           
14.0000000000          0.6800615067           0.0904144534           0.3145277497           -0.0518070673          0.3145277497           -0.0518070673          0.6870768763           0.1265128191           
14.2500000000          0.6806705878           0.0913330074           0.3139667229           -0.0533682713          0.3139667229           -0.0533682713          0.6877202158           0.1267334899           
14.5000000000          0.6812872866           0.0922540158           0.3133961347           -0.0549093809          0.3133961347           -0.0549093809          0.6883683921           0.1269796916           
14.7500000000          0.6819115406           0.0931769224           0.3128161839           -0.0564309878          0.3128161839           -0.0564309878          0.6890215175           0.1272497117           
15.0000000000          0.6825432826           0.0941012049           0.3122270628           -0.0579336415          0.3122270628           -0.0579336415          0.6896796854           0.1275419484           
15.2500000000          0.6831824416           0.0950263723           0.3116289570           -0.0594178530          0.3116289570           -0.0594178530          0.6903429725           0.1278549014           
15.5000000000          0.6838289429           0.0959519624           0.3110220469           -0.0608840975          0.3110220469           -0.0608840975          0.6910114404           0.1281871642           
15.7500000000          0.6844827084           0.0968775396           0.3104065077           -0.0623328178          0.3104065077           -0.0623328178          0.6916851368           0.1285374166           
16.0000000000          0.6851436569           0.0978026932           0.3097825098           -0.0637644268          0.3097825098           -0.0637644268          0.6923640967           0.1289044184           
16.2500000000          0.6858117043           0.0987270356           0.3091502198           -0.0651793102          0.3091502198           -0.0651793102          0.6930483439           0.1292870032           
16.5000000000          0.6864867644           0.0996502006           0.3085098003           -0.0665778283          0.3085098003           -0.0665778283          0.6937378916           0.1296840731           
16.7500000000          0.6871687481           0.1005718421           0.3078614106           -0.0679603184          0.3078614106           -0.0679603184          0.6944327438           0.1300945938           
17.0000000000          0.6878575645           0.1014916326           0.3072052070           -0.0693270963          0.3072052070           -0.0693270963          0.6951328956           0.1305175902           
17.2500000000          0.6885531207           0.1024092623           0.3065413426           -0.0706784583          0.3065413426           -0.0706784583          0.6958383342           0.1309521417           
17.5000000000          0.6892553221           0.1033244374           0.3058699682           -0.0720146825          0.3058699682           -0.0720146825          0.6965490397           0.1313973793           
17.7500000000          0.6899640722           0.1042368798           0.3051912322           -0.0733360303          0.3051912322           -0.0733360303          0.6972649855           0.1318524813           
18.0000000000          0.6906792733           0.1051463259           0.3045052805           -0.0746427476          0.3045052805           -0.0746427476          0.6979861390           0.1323166709           
18.2500000000          0.6914008262           0.1060525253           0.3038122573           -0.0759350663          0.3038122573           -0.0759350663          0.6987124619           0.1327892127           
18.5000000000          0.6921286307           0.1069552407           0.3031123047           -0.0772132048          0.3031123047           -0.0772132048          0.6994439109           0.1332694102           
18.7500000000          0.6928625853           0.1078542469           0.3024055630           -0.0784773695          0.3024055630           -0.0784773695          0.7001804382           0.1337566035           
19.0000000000          0.6936025875           0.1087493298           0.3016921709           -0.0797277556          0.3016921709           -0.0797277556          0.7009219914           0.1342501668           
19.2500000000          0.6943485342           0.1096402863           0.3009722656           -0.0809645477          0.3009722656           -0.0809645477          0.7016685145           0.1347495066           
19.5000000000          0.6951003211           0.1105269236           0.3002459827           -0.0821879210          0.3002459827           -0.0821879210          0.7024199477           0.1352540592           
19.7500000000          0.6958578436           0.1114090583           0.2995134566           -0.0833980417          0.2995134566           -0.0833980417          0.7031762280           0.1357632895           
20.0000000000          0.6966209963           0.1122865163           0.2987748202           -0.0845950676          0.2987748202           -0.0845950676          0.7039372894           0.1362766893           
20.2500000000          0.6973896732           0.1131591322           0.2980302053           -0.0857791490          0.2980302053           -0.0857791490          0.7047030632           0.1367937751           
20.5000000000          0.6981637680           0.1140267490           0.2972797422           -0.0869504291          0.2972797422           -0.0869504291          0.7054734779           0.1373140876           
20.7500000000          0.6989431740           0.1148892174           0.2965235605           -0.0881090446          0.2965235605           -0.0881090446          0.7062484601           0.1378371895           
21.0000000000          0.6997277841           0.1157463956           0.2957617882           -0.0892551259          0.2957617882           -0.0892551259          0.7070279340           0.1383626650           
21.2500000000          0.7005174910           0.1165981493           0.2949945527           -0.0903887982          0.2949945527           -0.0903887982          0.7078118220           0.1388901181           
21.5000000000          0.7013121873           0.1174443507           0.2942219799           -0.0915101810          0.2942219799           -0.0915101810          0.7086000450           0.1394191720           
21.7500000000          0.7021117654           0.1182848786           0.2934441950           -0.0926193894          0.2934441950           -0.0926193894          0.7093925219           0.1399494676           
22.0000000000          0.7029161177           0.1191196181           0.2926613219           -0.0937165338          0.2926613219           -0.0937165338          0.7101891706           0.1404806628           
22.2500000000          0.7037251365           0.1199484604           0.2918734839           -0.0948017205          0.2918734839           -0.0948017205          0.7109899073           0.1410124320           
22.5000000000          0.7045387141           0.1207713024           0.2910808030           -0.0958750521          0.2910808030           -0.0958750521          0.7117946476           0.1415444645           
22.7500000000          0.7053567431           0.1215880462           0.2902834003           -0.0969366274          0.2902834003           -0.0969366274          0.7126033057           0.1420764645           
23.0000000000          0.7061791161           0.1223985996           0.2894813961           -0.0979865423          0.2894813961           -0.0979865423          0.7134157950           0.1426081498           
23.2500000000          0.7070057258           0.1232028753           0.2886749096           -0.0990248894          0.2886749096           -0.0990248894          0.7142320281           0.1431392515           
23.5000000000          0.7078364653           0.1240007907           0.2878640592           -0.1000517586          0.2878640592           -0.1000517586          0.7150519170           0.1436695133           
23.7500000000          0.7086712279           0.1247922681           0.2870489622           -0.1010672373          0.2870489622           -0.1010672373          0.7158753731           0.1441986907           
24.0000000000          0.7095099071           0.1255772343           0.2862297352           -0.1020714103          0.2862297352           -0.1020714103          0.7167023073           0.1447265508           
24.2500000000          0.7103523969           0.1263556204           0.2854064935           -0.1030643604          0.2854064935           -0.1030643604          0.7175326300           0.1452528713           
24.5000000000          0.7111985917           0.1271273615           0.2845793519           -0.1040461683          0.2845793519           -0.1040461683          0.7183662515           0.1457774406           
