# MHz S RI R 50
! S-Parameters data
! Freq   reS11   imS11   reS12   imS12   reS13   imS13
!        reS21   imS21   reS22   imS22   reS23   imS23
!        reS31   imS31   reS32   imS32   reS33   imS33
!     
1.0000000000                    -0.3581245480           0.0990152058           0.7028583768          -0.0370656879          -0.5811168191          -0.1698890129
                                 0.7028583768          -0.0370656879           0.6032438147           0.1984658361           0.2067351423           0.2420434462
                                -0.5811168191          -0.1698890129           0.2067351423           0.2420434462           0.3821290372           0.6213645596
1.2500000000                    -0.3503837368           0.0918945845           0.6927079479          -0.0388236831          -0.6063835905          -0.1404776993
                                 0.6927079479          -0.0388236831           0.6223028925           0.1680073906           0.2462056386           0.2062615592
                                -0.6063835905          -0.1404776993           0.2462056386           0.2062615592           0.4734063007           0.5341258132
1.5000000000                    -0.3456090598           0.0881261194           0.6864447997          -0.0395689990          -0.6215878680          -0.1168097537
                                 0.6864447997          -0.0395689990           0.6337721839           0.1459596493           0.2700731577           0.1769658739
                                -0.6215878680          -0.1168097537           0.2700731577           0.1769658739           0.5286447031           0.4650401603
1.7500000000                    -0.3424160748           0.0866115850           0.6823307267          -0.0402607700          -0.6312837401          -0.0976440185
                                 0.6823307267          -0.0402607700           0.6411445058           0.1295769319           0.2853835029           0.1533089933
                                -0.6312837401          -0.0976440185           0.2853835029           0.1533089933           0.5641701404           0.4107446247
2.0000000000                    -0.3401188906           0.0866537067           0.6794691540          -0.0411508804          -0.6377634380          -0.0818312066
                                 0.6794691540          -0.0411508804           0.6461507386           0.1171128454           0.2956993017           0.1340298523
                                -0.6377634380          -0.0818312066           0.2956993017           0.1340298523           0.5882163989           0.3676422725
2.2500000000                    -0.3383533952           0.0878029713           0.6773739507          -0.0422832845          -0.6422542458          -0.0685109967
                                 0.6773739507          -0.0422832845           0.6497099279           0.1074408060           0.3029325852           0.1180761889
                                -0.6422542458          -0.0685109967           0.3029325852           0.1180761889           0.6051964989           0.3329306041
2.5000000000                    -0.3369139981           0.0897616916           0.6757671224          -0.0436411114          -0.6454528114          -0.0570676311
                                 0.6757671224          -0.0436411114           0.6523411282           0.0998147139           0.3081702218           0.1046586806
                                -0.6454528114          -0.0570676311           0.3081702218           0.1046586806           0.6176169139           0.3045668669
2.7500000000                    -0.3356783041           0.0923268935           0.6744817754          -0.0451927639          -0.6477754161          -0.0470614476
                                 0.6744817754          -0.0451927639           0.6543534624           0.0937260587           0.3120622517           0.0931990981
                                -0.6477754161          -0.0470614476           0.3120622517           0.0931990981           0.6269759122           0.2810774184
3.0000000000                    -0.3345700920           0.0953562614           0.6734133522          -0.0469064631          -0.6494820645          -0.0381749339
                                 0.6734133522          -0.0469064631           0.6559395416           0.0888185837           0.3150149203           0.0832731508
                                -0.6494820645          -0.0381749339           0.3150149203           0.0832731508           0.6342094694           0.2613909974
3.2500000000                    -0.3335400427           0.0987474216           0.6724938837          -0.0487543883          -0.6507414490          -0.0301751418
                                 0.6724938837          -0.0487543883           0.6572241008           0.0848363275           0.3172919004           0.0745661771
                                -0.6507414490          -0.0301751418           0.3172919004           0.0745661771           0.6399248845           0.2447180108
3.5000000000                    -0.3325551835           0.1024250132           0.6716777498          -0.0507133439          -0.6516666711          -0.0228882845
                                 0.6716777498          -0.0507133439           0.6582906392           0.0815911748           0.3190700112           0.0668416022
                                -0.6516666711          -0.0228882845           0.3190700112           0.0668416022           0.6445292959           0.2304673320
3.7500000000                    -0.3315928430           0.1063323994           0.6709334685          -0.0527643344          -0.6523357548          -0.0161825889
                                 0.6709334685          -0.0527643344           0.6591966759           0.0789420473           0.3204712406           0.0599189905
                                -0.6523357548          -0.0161825889           0.3204712406           0.0599189905           0.6483035091           0.2181894717
4.0000000000                    -0.3306370522           0.1104262178           0.6702387822          -0.0548918767          -0.6528038854          -0.0099566057
                                 0.6702387822          -0.0548918767           0.6599828346           0.0767812158           0.3215818626           0.0536587851
                                -0.6528038854          -0.0099566057           0.3215818626           0.0536587851           0.6514460571           0.2075375346
4.2500000000                    -0.3296763266           0.1146727089           0.6695776176          -0.0570833306          -0.6531109636          -0.0041311263
                                 0.6695776176          -0.0570833306           0.6606784402           0.0750250785           0.3224642408           0.0479516115
                                -0.6531109636          -0.0041311263           0.3224642408           0.0479516115           0.6541003984           0.1982400773
4.5000000000                    -0.3287022578           0.1190451897           0.6689381492          -0.0593283275          -0.6532864078           0.0013564930
                                 0.6689381492          -0.0593283275           0.6613050739           0.0736078115           0.3231643366           0.0427106901
                                -0.6532864078           0.0013564930           0.3231643366           0.0427106901           0.6563722134           0.1900819699
4.7500000000                    -0.3277085947           0.1235222786           0.6683115330          -0.0616183079          -0.6533522913           0.0065563800
                                 0.6683115330          -0.0616183079           0.6618788918           0.0724769092           0.3237166142           0.0378663833
                                -0.6533522913           0.0065563800           0.3237166142           0.0378663833           0.6583407009           0.1828907040
5.0000000000                    -0.3266906299           0.1280866257           0.6676910587          -0.0639461560          -0.6533254388           0.0115090785
                                 0.6676910587          -0.0639461560           0.6624121748           0.0715899928           0.3241473198           0.0333622226
                                -0.6533254388           0.0115090785           0.3241473198           0.0333622226           0.6600661334           0.1765264535
5.2500000000                    -0.3256447798           0.1327239900           0.6670715697          -0.0663059115          -0.6532188600           0.0162477022
                                 0.6670715697          -0.0663059115           0.6629143861           0.0709124903           0.3244767243           0.0291519771
                                -0.6532188600           0.0162477022           0.3244767243           0.0291519771           0.6615950178           0.1708747589
5.5000000000                    -0.3245682936           0.1374225572           0.6664490591          -0.0686925451          -0.6530427464           0.0207995388
                                 0.6664490591          -0.0686925451           0.6633929075           0.0704159216           0.3247206831           0.0251974618
                                -0.6530427464           0.0207995388           0.3247206831           0.0251974618           0.6629636908           0.1658410721
5.7500000000                    -0.3234590461           0.1421724293           0.6658203829          -0.0711017814          -0.6528051794           0.0251872583
                                 0.6658203829          -0.0711017814           0.6638535609           0.0700766157           0.3248917435           0.0214668802
                                -0.6528051794           0.0251872583           0.3248917435           0.0214668802           0.6642008659           0.1613466381
6.0000000000                    -0.3223153891           0.1469652378           0.6651830538          -0.0735299601          -0.6525126385           0.0294298366
                                 0.6651830538          -0.0735299601           0.6643009836           0.0698747367           0.3249999411           0.0179335568
                                -0.6525126385           0.0294298366           0.3249999411           0.0179335568           0.6653294683           0.1573253498
6.2500000000                    -0.3211360427           0.1517938461           0.6645350899          -0.0759739255          -0.6521703739           0.0335432659
                                 0.6645350899          -0.0759739255           0.6647389026           0.0697935370           0.3250533820           0.0145749564
                                -0.6521703739           0.0335432659           0.3250533820           0.0145749564           0.6663679749           0.1537213202
6.5000000000                    -0.3199200150           0.1566521195           0.6638749032          -0.0784309382          -0.6517826811           0.0375411096
                                 0.6638749032          -0.0784309382           0.6651703371           0.0698187771           0.3250586736           0.0113719200
                                -0.6517826811           0.0375411096           0.3250586736           0.0113719200           0.6673314063           0.1504869897
6.7500000000                    -0.3186665413           0.1615347445           0.6632012155          -0.0808986057          -0.6513531078           0.0414349379
                                 0.6632012155          -0.0808986057           0.6655977510           0.0699382722           0.3250212476           0.0083080618
                                -0.6513531078           0.0414349379           0.3250212476           0.0083080618           0.6682320706           0.1475816365
7.0000000000                    -0.3173750389           0.1664370863           0.6625129950          -0.0833748245          -0.6508846098           0.0452346738
                                 0.6625129950          -0.0833748245           0.6660231678           0.0701415323           0.3249456050           0.0053692905
                                -0.6508846098           0.0452346738           0.3249456050           0.0053692905           0.6690801271           0.1449701935
7.2500000000                    -0.3160450717           0.1713550746           0.6618094075          -0.0858577349          -0.6503796712           0.0489488699
                                 0.6618094075          -0.0858577349           0.6664482586           0.0704194760           0.3248355037           0.0025434258
                                -0.6503796712           0.0489488699           0.3248355037           0.0025434258           0.6698840175           0.1426223023
7.5000000000                    -0.3146763232           0.1762851123           0.6610897787          -0.0883456831          -0.6498403962           0.0525849311
                                 0.6610897787          -0.0883456831           0.6668744109           0.0707642001           0.3246941029          -0.0001801110
                                -0.6498403962           0.0525849311           0.3246941029          -0.0001801110           0.6706508003           0.1405115496
7.7500000000                    -0.3132685752           0.1812240014           0.6603535647          -0.0908371903          -0.6492685823           0.0561492964
                                 0.6603535647          -0.0908371903           0.6673027811           0.0711687927           0.3245240768          -0.0028105488
                                -0.6492685823           0.0561492964           0.3245240768          -0.0028105488           0.6713864111           0.1386148470
8.0000000000                    -0.3118216913           0.1861688827           0.6596003289          -0.0933309276          -0.6486657764           0.0596475865
                                 0.6596003289          -0.0933309276           0.6677343372           0.0716271811           0.3243277037          -0.0053559724
                                -0.6486657764           0.0596475865           0.3243277037          -0.0053559724           0.6720958676           0.1369119238
8.2500000000                    -0.3103356034           0.1911171856           0.6588297235          -0.0958256945          -0.6480333199           0.0630847258
                                 0.6588297235          -0.0958256945           0.6681698914           0.0721340066           0.3241069361          -0.0078234920
                                -0.6480333199           0.0630847258           0.3241069361          -0.0078234920           0.6727834323           0.1353849099
8.5000000000                    -0.3088103011           0.1960665879           0.6580414747          -0.0983204018          -0.6473723852           0.0664650433
                                 0.6580414747          -0.0983204018           0.6686101267           0.0726845210           0.3238634576          -0.0102193838
                                -0.6473723852           0.0664650433           0.3238634576          -0.0102193838           0.6734527424           0.1340179900
8.7500000000                    -0.3072458232           0.2010149812           0.6572353712          -0.1008140565          -0.6466840042           0.0697923567
                                 0.6572353712          -0.1008140565           0.6690556187           0.0732745010           0.3235987281          -0.0125492064
                                -0.6466840042           0.0697923567           0.3235987281          -0.0125492064           0.6741069146           0.1327971161
9.0000000000                    -0.3056422505           0.2059604427           0.6564112541          -0.1033057496          -0.6459690916           0.0730700423
                                 0.6564112541          -0.1033057496           0.6695068525           0.0739001764           0.3233140205          -0.0148178995
                                -0.6459690916           0.0730700423           0.3233140205          -0.0148178995           0.6747486295           0.1317097666
9.2500000000                    -0.3039997005           0.2109012112           0.6555690091          -0.1057946457          -0.6452284646           0.0763010945
                                 0.6555690091          -0.1057946457           0.6699642371           0.0745581695           0.3230104508          -0.0170298655
                                -0.6452284646           0.0763010945           0.3230104508          -0.0170298655           0.6753802009           0.1307447439
9.5000000000                    -0.3023183221           0.2158356670           0.6547085605          -0.1082799740          -0.6444628577           0.0794881757
                                 0.6547085605          -0.1082799740           0.6704281166           0.0752454444           0.3226890026          -0.0191890396
                                -0.6444628577           0.0794881757           0.3226890026          -0.0191890396           0.6760036322           0.1298920033
9.7500000000                    -0.3005982922           0.2207623151           0.6538298652          -0.1107610208          -0.6436729364           0.0826336584
                                 0.6538298652          -0.1107610208           0.6708987803           0.0759592639           0.3223505470          -0.0212989489
                                -0.6436729364           0.0826336584           0.3223505470          -0.0212989489           0.6766206632           0.1291425076
10.0000000000                   -0.2988398122           0.2256797704           0.6529329090          -0.1132371232          -0.6428593070           0.0857396616
                                 0.6529329090          -0.1132371232           0.6713764701           0.0766971526           0.3219958600          -0.0233627627
                                -0.6428593070           0.0857396616           0.3219958600          -0.0233627627           0.6772328083           0.1284881030
10.2500000000                   -0.2970431053           0.2305867453           0.6520177021          -0.1157076631          -0.6420225261           0.0888080819
                                 0.6520177021          -0.1157076631           0.6718613871           0.0774568658           0.3216256357          -0.0253833357
                                -0.6420225261           0.0888080819           0.3216256357          -0.0253833357           0.6778413895           0.1279214136
10.5000000000                   -0.2952084139           0.2354820392           0.6510842766          -0.1181720630          -0.6411631075           0.0918406198
                                 0.6510842766          -0.1181720630           0.6723536978           0.0782363621           0.3212404984          -0.0273632455
                                -0.6411631075           0.0918406198           0.3212404984          -0.0273632455           0.6784475623           0.1274357496
10.7500000000                   -0.2933359982           0.2403645293           0.6501326836          -0.1206297815          -0.6402815290           0.0948388026
                                 0.6501326836          -0.1206297815           0.6728535378           0.0790337804           0.3208410121          -0.0293048240
                                -0.6402815290           0.0948388026           0.3208410121          -0.0293048240           0.6790523392           0.1270250294
11.0000000000                   -0.2914261339           0.2452331627           0.6491629910          -0.1230803096          -0.6393782367           0.0978040048
                                 0.6491629910          -0.1230803096           0.6733610165           0.0798474197           0.3204276890          -0.0312101859
